S11m,S11p,S21m,S21p,Frequency
5.1490614855,-49.250912239,-49.554134533,110.45601481,2000.0
5.3975636869,-26.251738412,-52.275222945,72.08686939,2010.0
5.5595231516,-1.8618944589,-56.616699661,87.479774294,2020.0
5.5698510431,23.551125522,-54.170298971,93.525924662,2030.0
5.4229187847,49.378509781,-52.710898085,80.075281919,2040.0
5.1565388029,74.853024324,-50.813974355,62.599492951,2050.0
4.8431687979,99.624254891,-48.035933657,37.388961951,2060.0
4.5764434308,123.21110032,-45.482713894,-25.155636776,2070.0
4.4250005098,145.60364288,-52.758199436,-87.805144211,2080.0
4.4425177516,167.21933642,-61.879409351,-80.335391429,2090.0
4.6090113231,-171.05915864,-60.089988897,-34.069085815,2100.0
4.8184222613,-148.61035721,-56.221578694,-44.662596033,2110.0
4.9758652048,-125.36718521,-59.254379039,-60.996502791,2120.0
5.0543589886,-101.49610047,-57.691178962,-39.04893413,2130.0
5.0353467649,-77.142249161,-56.007309245,-51.136576122,2140.0
4.922029584,-52.607236629,-52.256439721,-22.663280258,2150.0
4.7692534922,-28.269312734,-48.753657261,-114.7286541,2160.0
4.6194130978,-4.2611089549,-52.609555772,-130.53986896,2170.0
4.5045794566,19.251788807,-54.523822373,-138.61509493,2180.0
4.4693433441,42.105126402,-55.936995713,-139.34871395,2190.0
4.555844245,64.805167739,-56.711849813,-140.38640726,2200.0
4.6847553469,87.940014585,-57.155234544,-142.81686065,2210.0
4.7883093958,111.38479797,-58.480974365,-150.36131497,2220.0
4.8619240527,135.20891607,-59.043311891,-114.76198833,2230.0
4.8703034299,159.25619416,-47.886439113,-100.86303918,2240.0
4.8155661694,-176.70882764,-42.646781327,88.540295747,2250.0
4.7281253504,-152.97954205,-52.123817213,79.87917334,2260.0
4.6458641394,-129.57687132,-55.248184851,71.734153199,2270.0
4.5864436304,-106.5869939,-56.470556646,63.930416631,2280.0
4.57586437,-83.963363479,-56.90169746,54.812310299,2290.0
4.6373943779,-61.275237614,-56.774498447,48.284295543,2300.0
4.7390155737,-38.136587146,-56.717873433,41.020643851,2310.0
4.8166269832,-14.549354948,-56.042568229,35.514317567,2320.0
4.8540251951,9.2592644805,-55.911939898,39.228783068,2330.0
4.8556904517,33.286247019,-40.443496532,70.42805952,2340.0
4.7901476528,57.311505791,-50.948513614,-99.199416582,2350.0
4.7225140217,80.838307493,-57.316938062,-97.15807646,2360.0
4.6850130663,104.1388781,-59.818416198,-95.485374171,2370.0
4.6802699818,127.1396443,-61.39512541,-98.189287798,2380.0
4.7206150877,149.95535101,-62.044041048,-101.41327202,2390.0
4.8193446602,172.76675625,-61.715754808,-105.93892427,2400.0
4.957047225,-164.12683514,-60.838169087,-107.98388074,2410.0
5.085820658,-140.66399285,-58.834962903,-119.14615538,2420.0
5.1888067508,-116.95675585,-54.42787397,-130.4848302,2430.0
5.2626507563,-92.931832882,-44.484883804,-172.177084,2440.0
5.2837000729,-68.60200723,-52.617855671,98.256665751,2450.0
5.2320624943,-44.344815915,-57.460154962,85.21786171,2460.0
5.1563412111,-20.536926355,-60.58697984,71.647095443,2470.0
5.120734426,2.7451882632,-63.864890458,60.558852174,2480.0
5.1371188755,25.756289557,-65.883702137,51.884715057,2490.0
5.2317641921,48.652238125,-66.686877455,45.214110599,2500.0
5.3481917462,71.660111936,-65.755988387,35.612966828,2510.0
5.502239217,95.045013947,-63.731693697,25.283906578,2520.0
5.6213768837,118.69823879,-59.634693195,23.79513343,2530.0
5.7408405868,142.36058652,-47.869126876,-22.21004626,2540.0
5.8350250013,166.28304611,-55.917982081,-99.371962537,2550.0
5.8919255574,-169.7546012,-59.98980192,-109.67222413,2560.0
5.944110727,-145.98419459,-61.939811133,-114.36237213,2570.0
6.0277867196,-122.41660797,-63.278302462,-119.5135809,2580.0
6.1552461157,-98.942868436,-64.226606099,-125.78052987,2590.0
6.3316178256,-75.421629048,-63.177460821,-131.91974319,2600.0
6.5586003622,-51.6427298,-60.610424761,-139.49970852,2610.0
6.7930885051,-27.466298529,-56.411676738,-149.94536443,2620.0
6.9947975761,-2.9459341387,-51.214099975,-165.24138298,2630.0
7.1556317066,21.65110651,-41.236932777,159.9888458,2640.0
7.2665583561,46.356781146,-50.367115532,53.655382704,2650.0
7.3046987707,70.838157852,-53.752855956,55.162953249,2660.0
7.3119958767,94.567548409,-57.293220618,37.219883093,2670.0
7.3954529527,117.57196974,-61.649491957,23.751296009,2680.0
7.5619140694,139.95477264,-65.687011399,11.131559718,2690.0
7.8770664387,162.00080023,-68.437073628,-0.99610615896,2700.0
8.3657277937,-175.62789133,-71.292046022,2.539486751,2710.0
8.9689186578,-152.51695144,-67.93275348,30.758056094,2720.0
9.6266331543,-128.50536323,-59.101348342,36.818194435,2730.0
10.285705724,-103.55150894,-48.818734975,13.808443639,2740.0
10.871550333,-77.631705323,-50.542742018,-71.738309024,2750.0
11.290217859,-51.222282565,-54.871142718,-44.519782044,2760.0
11.526917276,-25.957679549,-53.2869124,-41.681095669,2770.0
11.807356012,-2.2171736995,-54.198349871,-51.816670396,2780.0
12.21276579,20.16498227,-57.433134456,-66.582815875,2790.0
12.79647774,41.887161118,-61.893213117,-87.370356726,2800.0
13.58137445,63.407307667,-62.197595387,-159.8971875,2810.0
14.610113537,84.844401509,-55.540455427,153.71776608,2820.0
15.882175286,105.86219064,-49.580766862,124.22524017,2830.0
17.376965375,126.44816167,-45.166042914,95.458767909,2840.0
19.108177046,147.3205854,-42.631384878,56.072690009,2850.0
20.853163895,168.29919191,-46.551951864,55.638390489,2860.0
22.167927218,-173.52771755,-41.471520572,70.933670482,2870.0
22.824079648,-162.049716,-37.841042866,38.966311304,2880.0
22.693774057,-156.67067906,-37.435482459,-7.0511414202,2890.0
21.710326742,-152.97558768,-39.047924415,-51.614003937,2900.0
20.185972568,-147.4402446,-40.861200634,-90.759854047,2910.0
18.754293558,-138.34291319,-42.77520614,-123.74860858,2920.0
17.630031177,-125.60006128,-43.143266354,-143.94221358,2930.0
16.752022474,-110.17101489,-42.215509038,-162.24295156,2940.0
16.165264609,-92.99696259,-40.926488294,177.73215071,2950.0
15.871307486,-73.163375391,-41.971519752,152.41027144,2960.0
15.678543769,-49.434696613,-43.800610075,177.80156286,2970.0
15.171293633,-21.898630036,-40.067869161,179.86743073,2980.0
14.27464383,6.6068278185,-39.642874774,153.77215332,2990.0
13.115231263,35.07086725,-43.839380565,126.41128419,3000.0
12.051222033,58.989350526,-49.041652062,109.06240323,3010.0
11.057682957,82.310137811,-52.461903074,100.45664391,3020.0
10.26592286,104.4495363,-54.603681705,91.06727637,3030.0
9.6465869535,126.02403426,-55.946757474,81.377909964,3040.0
9.2001094721,147.10283784,-56.170134482,71.255030567,3050.0
8.9694950483,168.19151533,-56.066804363,54.756247283,3060.0
8.9212225007,-169.71599136,-58.750341507,48.96409741,3070.0
8.9301329931,-146.07220712,-55.674848177,76.524204534,3080.0
8.8647709179,-121.49051564,-48.432230932,42.868131286,3090.0
8.7232615668,-96.492667512,-50.772689437,-24.875091108,3100.0
8.4487106803,-71.53608925,-56.343174334,-50.468013125,3110.0
8.1411331571,-47.392562122,-58.814462048,-63.835133292,3120.0
7.8692417287,-23.637771106,-59.688520648,-76.182987282,3130.0
7.6171040407,0.0045718715724,-60.559059422,-83.539313526,3140.0
7.426550318,23.638802447,-60.67935816,-92.624294864,3150.0
7.3447134363,47.399507486,-60.446937527,-100.02077673,3160.0
7.304850541,71.984760807,-62.831142536,-105.82215042,3170.0
7.1991964841,97.074233914,-63.441511846,-66.971287008,3180.0
7.0055622356,121.92027854,-55.134105865,-69.227108816,3190.0
6.7682256966,146.2240557,-53.341906763,-151.5544525,3200.0
6.5359828377,169.75541533,-59.801322899,-176.21819742,3210.0
6.3181267297,-167.36153771,-62.470113258,-178.40552347,3220.0
6.0799517927,-145.45379949,-63.493480453,176.44379892,3230.0
5.9393406827,-123.83645536,-63.063225946,176.64047562,3240.0
5.8393962372,-102.31325889,-60.765805443,175.02972787,3250.0
5.8483210918,-80.724930354,-59.578771403,171.24028167,3260.0
6.0059877142,-57.903470164,-59.333799409,162.2136383,3270.0
6.1957857852,-33.683319844,-59.470870194,179.79019639,3280.0
6.3087547971,-8.4245909459,-53.563892459,-166.18274456,3290.0
6.3199743152,17.452655277,-43.504827501,139.68945395,3300.0
6.2252544347,43.144061916,-53.729443166,68.451486583,3310.0
6.0437848518,68.108729017,-60.2195012,66.459297604,3320.0
5.793198687,91.947715402,-63.453970332,67.056067643,3330.0
5.5408717499,114.66662256,-65.397738062,67.039825087,3340.0
5.3393229688,136.63520748,-66.111227075,66.353451497,3350.0
5.1937060237,158.17377962,-66.520439855,56.866916696,3360.0
5.1704320399,179.80340816,-68.982877232,45.67849217,3370.0
5.2799942048,-157.52574573,-73.898917729,71.348868261,3380.0
5.3848001578,-134.05206663,-70.71067212,105.81832666,3390.0
5.4663098917,-110.46456449,-63.738380659,82.453317007,3400.0
5.5534127826,-86.735193927,-76.672500586,-45.905004203,3410.0
5.5891311887,-63.087798581,-79.544383023,121.48242375,3420.0
5.6048226978,-39.359133264,-77.174421962,126.5227737,3430.0
5.571348223,-15.890999696,-76.410016101,136.52395982,3440.0
5.4751799894,7.2992624944,-76.133927922,145.52363737,3450.0
5.3699511452,30.023598498,-78.601420191,153.59565571,3460.0
5.3817232154,52.971272171,-82.198432968,-178.3951451,3470.0
5.5377891285,77.005963774,-94.094683979,-98.683136725,3480.0
5.6857801165,102.1997933,-78.261042126,-12.934003062,3490.0
5.7183725799,127.75712606,-66.759134941,-21.915419586,3500.0
5.6650587898,152.77998402,-53.610496461,-150.21862555,3510.0
5.5072701068,176.88683587,-68.923643867,139.83519946,3520.0
5.2650508633,-160.34405913,-73.525896214,125.45694674,3530.0
5.0258495296,-138.86066355,-72.454065845,112.26558505,3540.0
4.826206938,-118.23079596,-71.027960927,103.84820708,3550.0
4.7032594018,-97.984078374,-70.674061513,107.14515474,3560.0
4.7802943385,-77.58583482,-69.328115853,125.80434009,3570.0
5.0751491499,-55.665062117,-65.49330402,153.00816378,3580.0
5.460163224,-31.748552305,-59.937097361,170.3075998,3590.0
5.8230018914,-6.2932479366,-51.087120356,-177.20768379,3600.0
6.1050505844,19.94841201,-44.401067489,13.510472827,3610.0
6.2511469573,46.499913857,-55.471047072,32.116025509,3620.0
6.1847116409,72.571658757,-59.354476307,45.441991779,3630.0
5.8874844014,97.226419217,-61.523741475,50.809370955,3640.0
5.461620424,119.82566895,-63.787395365,51.278990696,3650.0
5.1242517608,140.65216061,-65.145920731,55.396419296,3660.0
5.0185203064,161.02443036,-63.643106399,68.368532515,3670.0
5.1435079337,-177.64564445,-59.157955019,77.027710489,3680.0
5.3643601949,-154.83400843,-51.298384492,74.920026656,3690.0
5.5897617007,-130.94257007,-37.870049835,-32.967583311,3700.0
5.80255331,-106.56537793,-51.652172842,-81.434837759,3710.0
5.9920793233,-82.08920431,-55.839201456,-84.769615449,3720.0
6.1045435815,-57.812663315,-57.093241753,-86.473236077,3730.0
6.0835504314,-33.946585931,-56.827392283,-98.870652113,3740.0
5.8803264777,-11.345448987,-56.393746259,-120.76505968,3750.0
5.6791649024,9.7577986753,-55.694189608,-153.79980378,3760.0
5.6817252623,30.385208351,-59.661986864,161.52100369,3770.0
5.9105410022,51.987313368,-63.942207943,135.43243367,3780.0
6.2827847725,75.564431174,-65.950462572,126.64407772,3790.0
6.6810783655,101.16057539,-66.616060504,133.71180984,3800.0
7.0075806741,128.07689082,-65.687384485,147.95544022,3810.0
7.2206403307,155.5924396,-63.670299021,159.30040209,3820.0
7.2105419536,-177.4576986,-61.694000587,177.47658322,3830.0
7.0179191741,-152.4353439,-56.59367304,-174.66200647,3840.0
6.714899525,-129.38766385,-50.237878445,112.6723395,3850.0
6.3049647221,-108.62002925,-62.557925954,72.722688367,3860.0
6.0613730615,-89.6384925,-67.983981853,55.606389361,3870.0
6.1170539121,-70.696744119,-71.535598697,33.548862802,3880.0
6.4302118649,-50.411788477,-72.680808981,14.107438067,3890.0
6.9105725015,-28.41378406,-72.92381127,0.40882461627,3900.0
7.5548002357,-4.8233270052,-71.583464834,1.9152762352,3910.0
8.3648623919,20.61203883,-69.181389473,2.8596171483,3920.0
9.2290323218,47.761482816,-66.111768714,9.8656783856,3930.0
9.9216651084,75.977160107,-60.337135834,28.547433903,3940.0
10.180743093,104.27587767,-49.71196288,-114.10114079,3950.0
9.8980562212,130.91023913,-65.271691947,-69.188281187,3960.0
9.3078612706,154.35386536,-67.949915112,-42.033221888,3970.0
8.8068968568,175.43667828,-69.832697612,-42.079003031,3980.0
8.6009197296,-164.16441268,-69.639556471,-46.299362203,3990.0
8.6948290214,-143.19306049,-68.27540609,-57.273923094,4000.0
9.1653486017,-121.07527372,-66.812022234,-71.310192162,4010.0
9.7944534356,-97.953738824,-65.780996696,-80.472722476,4020.0
10.588617079,-74.703160018,-63.760225193,-78.886337143,4030.0
11.502789768,-52.26091323,-58.593386268,-65.604717078,4040.0
12.463751484,-30.261336556,-35.40578284,-69.173114717,4050.0
13.217613654,-7.6146681678,-57.155085063,142.13524554,4060.0
13.510052662,15.09781107,-64.90932958,163.15885325,4070.0
13.525617455,37.025839714,-70.145761925,-161.28573563,4080.0
13.567139026,57.93253412,-71.977874779,-123.53064962,4090.0
13.955659638,77.986035288,-70.042733122,-106.99558208,4100.0
14.924482082,97.057607989,-68.991465615,-121.97200049,4110.0
16.485499291,114.77175476,-68.433853587,-146.93515732,4120.0
18.53274064,129.15598886,-65.998798062,171.50395921,4130.0
20.557404583,137.94440898,-61.369778462,164.01738837,4140.0
22.078910942,143.3202068,-46.329186969,148.63718565,4150.0
22.941330337,153.19148667,-43.988951242,-66.729620536,4160.0
23.79805995,175.77423537,-57.285100122,-78.547089561,4170.0
24.024422562,-149.18698698,-65.614185297,-169.37662335,4180.0
22.119040689,-111.89513607,-60.105975589,177.78670565,4190.0
19.404720161,-87.196742949,-60.987818019,-178.65630066,4200.0
17.21522133,-71.49797128,-62.003331296,-178.50778378,4210.0
15.55665541,-59.095868423,-63.29533783,170.60397305,4220.0
14.090816738,-46.827387971,-63.888391849,153.42348461,4230.0
12.735762891,-32.916992526,-64.057954641,148.39465838,4240.0
11.600808568,-17.237097232,-60.638338106,147.76492826,4250.0
10.789486413,-0.3220737498,-51.463686155,5.001490114,4260.0
10.376640678,17.379961398,-72.283408233,-39.738132507,4270.0
10.451742019,35.992810685,-78.412660375,-91.755086635,4280.0
10.984522081,56.925920641,-74.624996321,-129.43973749,4290.0
11.664389742,81.327063073,-73.980342653,-143.86800514,4300.0
12.069903851,108.97245272,-79.848491778,158.76705083,4310.0
11.896212808,137.45407492,-73.027828461,102.01600383,4320.0
11.272653792,165.20190178,-67.331363805,86.22230687,4330.0
10.413909594,-168.6097526,-63.361059082,72.108393804,4340.0
9.5759086351,-143.87717352,-59.010864946,54.563541797,4350.0
8.8113173177,-120.07119121,-52.252563123,-6.3914251432,4360.0
8.2003609218,-97.457961664,-67.878831011,-95.497884948,4370.0
7.8202599354,-75.870796289,-72.789579104,-0.071993732954,4380.0
7.6890083352,-54.609630634,-70.379721859,-11.070028851,4390.0
7.7205700767,-32.391768003,-70.301403344,-29.855897956,4400.0
7.6998020433,-9.6584435936,-69.654857582,-63.07943836,4410.0
7.6272208202,12.902511364,-67.293845795,-106.02693267,4420.0
7.5489452572,35.801139831,-64.574083407,-139.17743336,4430.0
7.4745143211,59.079896343,-62.694734832,-160.8675231,4440.0
7.3877270661,82.55280917,-61.845087051,178.74627824,4450.0
7.3060159309,106.6003898,-60.327365063,165.46453838,4460.0
7.2022244394,130.60673942,-59.982099047,145.86450984,4470.0
7.1709918533,154.62445097,-63.579253968,134.95215795,4480.0
7.2047488032,178.96060562,-66.012173777,157.07534536,4490.0
7.2520314234,-155.97565053,-65.225516828,171.61647515,4500.0
7.1896858859,-130.53473424,-63.800139426,162.49333891,4510.0
7.0001358373,-105.57018723,-63.66153,143.94000565,4520.0
6.7369414205,-81.257900033,-64.575988324,118.82529469,4530.0
6.4284541186,-57.753177927,-67.377758934,106.19695877,4540.0
6.1431472369,-35.08122801,-68.513372271,96.714268761,4550.0
5.933651874,-13.021240701,-68.423015233,94.620122282,4560.0
5.7638303312,8.694237445,-66.705491084,91.024338086,4570.0
5.6889438647,29.954645846,-64.85741282,76.467758712,4580.0
5.7101465728,51.31256564,-65.952924791,76.14023871,4590.0
5.8276417035,73.002261035,-62.369968815,90.785810691,4600.0
6.0587181486,95.646128247,-55.897804862,67.571805423,4610.0
6.2611569375,119.02088322,-57.530962052,13.682467636,4620.0
6.4829720253,143.3671578,-60.923478764,-2.0473773588,4630.0
6.5921804666,168.69557724,-62.997829324,-1.7426379178,4640.0
6.5643989864,-165.68719871,-63.971803347,-0.37285418295,4650.0
6.4483016354,-140.16984037,-64.178845968,1.4196824527,4660.0
6.2516048029,-115.37033806,-63.72463628,1.5812496836,4670.0
6.0317702223,-91.33231889,-62.76220405,-5.9161348278,4680.0
5.8394843139,-67.812286045,-63.398374987,-30.942748568,4690.0
5.6720714515,-44.948481462,-66.56974911,-41.079884342,4700.0
5.5477168956,-22.61485868,-62.325125243,-55.07157901,4710.0
5.4820850625,-0.60568601676,-67.371092525,-114.62651768,4720.0
5.4401650419,21.385844222,-73.926123384,-126.27007823,4730.0
5.4116453678,43.122042023,-77.32079636,-131.21684844,4740.0
5.4399889403,64.983655543,-79.502023761,-141.64185795,4750.0
5.5705292658,87.294300085,-81.198690686,-141.79268793,4760.0
5.6238832861,110.06501597,-82.702348809,-135.83900823,4770.0
5.707519323,132.92852102,-79.758757922,-116.32577447,4780.0
5.794029448,156.2481116,-76.927217786,-118.64207559,4790.0
5.9255546853,179.84216306,-78.152228793,-82.085951207,4800.0
6.0673429363,-156.0253557,-65.97169262,-89.881397407,4810.0
6.1931619993,-131.35132454,-67.524526436,-171.01365468,4820.0
6.2669362992,-106.20141203,-74.025410411,166.60311631,4830.0
6.2233296005,-80.982987884,-79.99530267,151.05376559,4840.0
6.0601757672,-56.260119051,-83.158846784,129.07544643,4850.0
5.8445456548,-32.134538588,-81.78963676,103.23235785,4860.0
5.5936583807,-8.8574448041,-79.803479581,90.776899518,4870.0
5.332619328,13.25111493,-75.916443571,89.989955102,4880.0
5.1787398686,34.307160468,-71.916193375,82.568520781,4890.0
5.2012805579,55.059757722,-69.682434815,74.161460238,4900.0
5.3971696136,76.115258,-64.533713691,66.248632014,4910.0
5.6077752778,98.65796206,-65.101146659,9.4289387643,4920.0
5.8172084626,121.47176826,-71.505746378,-17.124160637,4930.0
6.049863366,144.94053375,-76.503226247,-10.770753881,4940.0
6.210101541,169.1183417,-76.431677598,6.1029185791,4950.0
6.2886042968,-166.02283256,-75.088314239,6.2880145976,4960.0
6.2151229067,-140.80171033,-73.958315388,4.8291630887,4970.0
5.963902211,-116.23132994,-71.833844774,10.545138305,4980.0
5.7207138766,-93.098669632,-67.010283253,10.779699635,4990.0
5.6764066453,-70.709442262,-62.566588611,3.2110521077,5000.0
5.7947727649,-47.939581538,-58.339789722,-35.997311794,5010.0
5.9729587808,-24.614345754,-62.722804341,-63.945868357,5020.0
6.0985969576,-0.98828922993,-63.78971208,-67.789001512,5030.0
6.1753007125,22.507998676,-64.329119607,-75.875307965,5040.0
6.1309534338,46.254917065,-64.841754737,-89.035179085,5050.0
5.9888020918,69.660140755,-64.169951913,-94.044079676,5060.0
5.7439701021,92.992776105,-62.200695806,-93.093837951,5070.0
5.419689226,114.7727838,-61.132661777,-89.34277007,5080.0
5.3090229655,134.92625352,-59.771845414,-93.634264338,5090.0
5.6012977018,155.47183517,-56.674977561,-109.88104241,5100.0
6.1677683238,177.86928083,-54.830670995,-155.95237335,5110.0
6.7911072196,-158.14746605,-60.125048502,176.527513,5120.0
7.3542802533,-132.90156763,-60.847783579,-169.62923153,5130.0
7.7471578215,-106.31528337,-58.835857212,-175.22296156,5140.0
7.7770522126,-78.391104941,-57.478757808,178.54352301,5150.0
7.2856334003,-50.344112511,-56.492458079,178.01144063,5160.0
6.2537524541,-24.728666775,-55.921162347,175.97259754,5170.0
5.1774737374,-4.3490971246,-56.204857153,-179.87535778,5180.0
4.8982779793,13.463355048,-58.12730658,-171.82766607,5190.0
5.2706340369,33.170945766,-58.285942512,179.78226641,5200.0
5.9381602957,55.164561141,-59.686781885,160.26870588,5210.0
6.7478359546,77.938378623,-63.412761528,146.25242026,5220.0
7.6531421647,101.41718371,-61.757482089,163.24860591,5230.0
8.5227934414,126.12797542,-56.477336035,158.95323972,5240.0
9.081564351,153.60334888,-51.434806993,134.236449,5250.0
8.8792193312,-175.6655439,-49.071576373,105.90280247,5260.0
7.1918345393,-146.6855443,-50.649866471,93.398128829,5270.0
5.1483178963,-129.76250106,-54.527777654,94.628894743,5280.0
4.8444663912,-116.81661791,-58.571257983,91.685705372,5290.0
