S11m,S11p,S21m,S21p,Frequency
5.1670076809,-49.219789139,-51.957976916,-59.101788982,2000.0
5.4104843587,-26.193511188,-54.743524353,-117.6957226,2010.0
5.5705945668,-1.8272398761,-56.167378612,-111.99085981,2020.0
5.5793002359,23.56143833,-42.75406965,-170.32419485,2030.0
5.4319246874,49.372556507,-54.882479314,86.230236252,2040.0
5.1687901281,74.846704309,-60.662881836,64.922697163,2050.0
4.8554652991,99.632207675,-63.879959128,47.85772026,2060.0
4.5855946382,123.21559274,-65.948309334,26.375730425,2070.0
4.4322966258,145.61296715,-66.826479047,2.2605572761,2080.0
4.4497373481,167.20583183,-70.246000894,-11.784056061,2090.0
4.6148609055,-171.10017338,-63.694974394,10.835789114,2100.0
4.8256449287,-148.65925538,-58.861339241,-39.30967774,2110.0
4.9846606085,-125.40203956,-60.990171364,-77.47850961,2120.0
5.061998053,-101.50651986,-53.039106373,-99.142865833,2130.0
5.0396595161,-77.145557535,-60.866484636,142.5828195,2140.0
4.9236260907,-52.629896394,-73.409141415,152.18182656,2150.0
4.7701589606,-28.30635899,-70.445125732,-172.09538483,2160.0
4.6209250849,-4.3341024941,-66.958616611,176.51228376,2170.0
4.506838682,19.174013535,-64.247236332,156.46312433,2180.0
4.4750559849,42.039635606,-61.334153578,124.08007951,2190.0
4.5613300661,64.770095933,-60.184724511,81.712938304,2200.0
4.6873278401,87.88209257,-61.240406503,49.480067533,2210.0
4.7890884129,111.32900012,-63.032833309,21.861577113,2220.0
4.8629902281,135.09211383,-60.531246659,28.371059944,2230.0
4.8713091269,159.14754287,-57.666701326,-71.240605717,2240.0
4.8180205042,-176.82631822,-63.236700945,-103.5774784,2250.0
4.7340384589,-153.09914816,-64.752843533,-121.53510478,2260.0
4.6517021737,-129.69637498,-64.024623885,-143.13729173,2270.0
4.5845026197,-106.6898087,-61.282303577,-175.24504331,2280.0
4.5707427512,-84.042089933,-59.554166972,137.65741992,2290.0
4.6384530046,-61.370727646,-59.850752419,94.741796756,2300.0
4.7413130784,-38.2527408,-60.705583695,61.50537816,2310.0
4.8215155847,-14.640594593,-60.873701285,37.850236841,2320.0
4.8606665418,9.1922896392,-60.580555981,19.335208733,2330.0
4.8623773817,33.218655538,-54.223714682,-52.451421001,2340.0
4.8007204961,57.251615991,-60.937037347,-96.672320298,2350.0
4.7298683409,80.769749541,-64.011168376,-114.47873189,2360.0
4.6936571599,104.02776192,-63.938764447,-137.63758614,2370.0
4.6917897542,127.05820243,-63.164579059,-171.16183334,2380.0
4.7336440242,149.90007147,-64.603375701,151.34099955,2390.0
4.8376241206,172.73987261,-65.374263646,122.88224719,2400.0
4.9711119968,-164.15603075,-66.190653934,98.297801439,2410.0
5.0895531643,-140.72823488,-65.307969418,73.186974486,2420.0
5.1840038524,-117.04512576,-61.818644578,42.108614112,2430.0
5.2568008062,-93.052097789,-57.661271793,-11.911067568,2440.0
5.2832177145,-68.761355048,-59.961435764,-76.087271657,2450.0
5.2357209442,-44.499469328,-61.806326848,-112.75082035,2460.0
5.1637018436,-20.684341996,-63.182015196,-154.08256764,2470.0
5.1252827702,2.658474695,-65.858872508,156.23505225,2480.0
5.1429838968,25.673448017,-69.176337564,119.94685201,2490.0
5.2215572934,48.529184488,-71.721395888,96.752704,2500.0
5.3541077217,71.574894269,-71.807013336,74.261345938,2510.0
5.5128626186,94.863094234,-70.574847137,51.64642903,2520.0
5.6284627515,118.46723303,-66.637569163,29.673180331,2530.0
5.7471418443,142.16109678,-60.478158608,-19.835880169,2540.0
5.8409585006,166.12572215,-61.63148832,-89.862049837,2550.0
5.8959822811,-169.91632226,-63.651064963,-125.46953348,2560.0
5.9523272587,-146.15651808,-63.84973332,-162.44380031,2570.0
6.0362341273,-122.60268077,-66.034771132,147.58356489,2580.0
6.1609303789,-99.150094798,-68.848791617,114.89135224,2590.0
6.3408928661,-75.645245252,-70.801408028,95.342422626,2600.0
6.5675688555,-51.887580902,-69.324489923,82.550819697,2610.0
6.8014723113,-27.694228989,-67.267874327,62.807728642,2620.0
7.0000853642,-3.220456838,-62.565129692,36.622172435,2630.0
7.1606828535,21.310797698,-56.1877021,-4.0946752537,2640.0
7.282663352,45.958174361,-54.566702099,-97.338551518,2650.0
7.3307996669,70.54929648,-58.450087963,-131.10178904,2660.0
7.3512818913,94.325776881,-59.858721342,177.89360924,2670.0
7.4297186074,117.40590311,-65.445710968,114.53111773,2680.0
7.5808777603,139.78446229,-74.082429401,79.339201039,2690.0
7.8953985869,161.80736425,-79.54633295,45.744232682,2700.0
8.3794050795,-175.86390469,-81.442023619,58.712094109,2710.0
8.9725254926,-152.80996838,-80.750598803,100.55280906,2720.0
9.6373139043,-128.8482187,-74.961824424,94.186368112,2730.0
10.310287808,-103.88672105,-64.746483034,81.018116958,2740.0
10.887317004,-77.974182974,-54.59674444,11.654642997,2750.0
11.28918887,-51.684039643,-58.32020487,-26.872318847,2760.0
11.516667766,-26.480195762,-55.746427925,-53.856217218,2770.0
11.796453641,-2.977878541,-57.079334423,-122.21376148,2780.0
12.211357624,19.349373965,-64.724916389,-169.7793535,2790.0
12.810753121,41.072306753,-72.078486998,179.61013774,2800.0
13.609081024,62.618668697,-77.478992089,101.14819283,2810.0
14.619114426,84.15535873,-72.115082912,43.663721641,2820.0
15.837785462,105.17245524,-64.52529804,42.189412994,2830.0
17.291936556,125.66078227,-59.464158129,26.208416634,2840.0
18.983932597,145.81776461,-47.271531252,-20.865715178,2850.0
20.701269919,166.00048073,-47.768570152,-98.488243613,2860.0
22.014403363,-175.71883105,-44.125732341,-109.47244791,2870.0
22.652075008,-163.51766493,-39.993952223,164.50936333,2880.0
22.488257755,-157.44697792,-46.263940695,90.145443033,2890.0
21.469351102,-152.83981097,-52.881532729,44.94550694,2900.0
19.953152914,-146.35022975,-56.820704413,38.844366401,2910.0
18.570424739,-137.32435906,-59.645721876,22.533439188,2920.0
17.45960651,-124.85019228,-62.444206642,-16.931928857,2930.0
16.631943295,-109.71255508,-52.26279205,-32.809034924,2940.0
16.08391052,-92.807507848,-42.706355621,-51.841184862,2950.0
15.825318737,-72.994374972,-40.069317958,-161.06633599,2960.0
15.695310295,-49.108937721,-46.004414273,-171.74436955,2970.0
15.214685121,-21.13314205,-42.217048333,161.3801717,2980.0
14.249220391,7.4167713083,-49.006222507,84.913656563,2990.0
13.077153514,35.572945364,-57.035043818,69.218141254,3000.0
12.021102213,59.225585967,-62.268643436,75.006403351,3010.0
11.055387527,82.45642146,-65.12154664,65.128707302,3020.0
10.298607335,104.59509431,-64.807281719,65.417241682,3030.0
9.6828113387,126.25705873,-64.289115803,52.333950361,3040.0
9.2309800576,147.4696155,-58.212638803,17.922089455,3050.0
9.0123924558,168.5486408,-51.396036361,-52.641941767,3060.0
8.9390983967,-169.36617549,-58.924671784,-111.50953853,3070.0
8.9354161493,-145.7351756,-58.13176471,-110.01100119,3080.0
8.871812284,-121.40665818,-54.145871586,173.05856179,3090.0
8.7319949154,-96.408078787,-64.004110924,141.87391085,3100.0
8.4811751856,-71.433563723,-68.718684099,98.31850848,3110.0
8.1519048975,-47.326009204,-71.229731203,113.1625454,3120.0
7.8802349675,-23.607651862,-68.695692146,98.19715248,3130.0
7.6176203961,0.10110909477,-67.001162714,90.339701673,3140.0
7.4323399124,23.707100599,-62.086450455,58.043780107,3150.0
7.3611769136,47.429988832,-55.659336,-8.7994765026,3160.0
7.333902182,71.946234003,-61.218311305,-76.518803907,3170.0
7.2275851829,97.056633948,-65.458507767,-53.826337576,3180.0
7.0185997914,121.96333469,-57.912152092,-88.641374303,3190.0
6.7662180793,146.25142141,-63.222858777,-171.04029571,3200.0
6.5117411788,169.76581266,-69.617553137,-177.36895483,3210.0
6.2815958097,-167.4585968,-71.517430701,-170.13558685,3220.0
6.0728188118,-145.52368709,-72.371422707,163.43896989,3230.0
5.9371072579,-123.99856182,-66.9092758,155.79253722,3240.0
5.8563171182,-102.55678955,-59.535087577,147.93816423,3250.0
5.8551502477,-80.881671274,-50.532778586,76.859632531,3260.0
6.0167251637,-57.987207921,-55.198587474,8.8302186612,3270.0
6.2028702562,-33.792870402,-59.767439471,15.571410022,3280.0
6.3136815033,-8.4352544921,-55.888267997,15.523422335,3290.0
6.3314456177,17.290015629,-51.100556321,-78.724174374,3300.0
6.2345299369,42.906913905,-61.033975789,-110.90795993,3310.0
6.0537572343,67.975629372,-66.675515765,-112.99342904,3320.0
5.8203417902,91.905793982,-68.905215542,-115.63046623,3330.0
5.5716878347,114.59627424,-69.493053322,-122.82057862,3340.0
5.3457731339,136.58616521,-64.620403166,-146.60684236,3350.0
5.1887841448,158.21238591,-58.557862856,162.91107828,3360.0
5.1763335312,179.72697681,-64.343575528,80.098834126,3370.0
5.2945310198,-157.61530502,-73.69963198,79.265530976,3380.0
5.4017586031,-134.11538744,-72.209812724,103.95766016,3390.0
5.4847459374,-110.57984949,-66.264011444,59.478107337,3400.0
5.5567682012,-86.810341087,-82.770357674,-74.464847812,3410.0
5.5969685604,-63.1335746,-82.221415959,137.42521333,3420.0
5.6067744821,-39.458333511,-79.170655337,134.53854954,3430.0
5.578863371,-16.067071129,-75.929441726,139.83020178,3440.0
5.4841612511,7.1696294982,-69.730988116,139.05293139,3450.0
5.3729710577,29.944620208,-60.809775761,58.823186305,3460.0
5.3702072977,52.838751619,-73.129560502,13.748035507,3470.0
5.513932609,76.872148733,-98.294811348,21.436465588,3480.0
5.670314645,102.10018305,-80.093679904,168.70410008,3490.0
5.7147457201,127.58425861,-69.312606819,147.96481132,3500.0
5.658640422,152.55996656,-62.916723558,23.751845771,3510.0
5.5036668872,176.6371154,-73.121365169,-43.208334828,3520.0
5.264029001,-160.49396091,-75.622344526,-61.219435024,3530.0
5.0247128636,-139.01564556,-70.940704254,-81.357946451,3540.0
4.8197815074,-118.41637183,-63.073187114,-105.47207035,3550.0
4.6973379471,-98.168566759,-60.402665521,141.04832038,3560.0
4.7597658064,-77.772373508,-67.176779258,140.88038672,3570.0
5.0748458308,-55.910062456,-68.27960001,162.24775692,3580.0
5.4709589697,-31.9704656,-65.407566708,173.06724725,3590.0
5.8363489208,-6.4931112826,-59.031573686,177.11914607,3600.0
6.1175443728,19.78884311,-46.212384922,107.92283824,3610.0
6.2588930546,46.401571561,-57.401377135,62.945733876,3620.0
6.1865736824,72.473902204,-59.759017068,71.312409305,3630.0
5.8907636087,97.096279944,-58.266654047,78.315033503,3640.0
5.4673652756,119.69858396,-49.646086028,88.653613927,3650.0
5.1263846184,140.5488891,-57.857397471,-139.02986377,3660.0
5.0216657561,160.93723179,-65.283716868,-117.26250506,3670.0
5.1502516267,-177.73679569,-65.013361971,-106.61956243,3680.0
5.3646250066,-154.91450659,-62.395547008,-103.55657315,3690.0
5.5903087506,-131.07562353,-56.651498704,-116.19883515,3700.0
5.8014298734,-106.7430516,-48.819198435,164.3642367,3710.0
5.9955885067,-82.224851066,-54.782357227,109.78948505,3720.0
6.1109400767,-57.938863498,-54.499517562,101.61113406,3730.0
6.0845043609,-34.06374589,-36.988403711,49.823772452,3740.0
5.8817758997,-11.452956539,-60.460140494,-95.896445287,3750.0
5.6762523753,9.6250763509,-69.312017385,-76.286837745,3760.0
5.6780597247,30.195898855,-70.12694122,-67.395126092,3770.0
5.9132733666,51.766863557,-66.898848241,-79.842581965,3780.0
6.2924367168,75.332752025,-60.637933539,-104.36059257,3790.0
6.6889547484,100.941728,-53.488936133,177.44206388,3800.0
7.0064789106,127.89151763,-58.933411258,153.48685075,3810.0
7.2091944988,155.38400877,-59.283425228,162.56193861,3820.0
7.1977505586,-177.71260418,-55.997490422,-173.81051268,3830.0
7.0129279528,-152.71373719,-45.950933769,-75.464351578,3840.0
6.7165033482,-129.80048933,-61.143390821,-7.1560587742,3850.0
6.3141428154,-108.96342282,-67.876857579,13.380141293,3860.0
6.0754589992,-89.935091994,-69.059247369,3.8729604923,3870.0
6.1298211934,-70.931211457,-67.460410888,-33.786488918,3880.0
6.4247868764,-50.688842794,-65.933542667,-101.34913805,3890.0
6.9015659237,-28.69830572,-67.938495168,-157.02023638,3900.0
7.5510058089,-5.1629607028,-68.615775263,-174.66888435,3910.0
8.3674254619,20.219196938,-65.461597788,177.83159897,3920.0
9.2413483854,47.390933258,-59.988501679,175.49879161,3930.0
9.9371858572,75.646884385,-49.98948841,47.885596459,3940.0
10.192455605,103.96755708,-63.301174066,37.666273134,3950.0
9.9019424839,130.59721308,-66.894771204,67.377055522,3960.0
9.318696254,153.97287995,-64.531917229,72.188369758,3970.0
8.8339504043,174.90465854,-61.916892279,29.130728293,3980.0
8.6225351612,-164.43197897,-63.761396413,-16.095892884,3990.0
8.7186242762,-143.53023082,-65.306917941,-41.126652488,4000.0
9.1709473307,-121.36637171,-65.559856926,-68.184874726,4010.0
9.7771240737,-98.194015278,-63.848687263,-86.415719335,4020.0
10.57079732,-75.077773591,-57.696283442,-96.52963434,4030.0
11.467476289,-52.689193942,-47.489219405,-164.76625265,4040.0
12.420681981,-30.740471649,-54.672132732,121.73956209,4050.0
13.194512866,-8.3655223538,-59.489092433,91.321510081,4060.0
13.50265827,14.422992739,-61.565649639,86.572465697,4070.0
13.499393912,36.515111877,-65.446518996,80.831387715,4080.0
13.520201735,57.375617302,-71.272893201,77.065933566,4090.0
13.893230494,77.370000108,-70.309231139,73.55911288,4100.0
14.839130129,96.270769678,-69.945929171,55.309353962,4110.0
16.370885217,113.78624023,-67.993988687,24.182547731,4120.0
18.381393609,128.29438333,-63.647871677,-37.273064829,4130.0
20.443324947,137.20367438,-54.172647324,-130.77825376,4140.0
21.985367192,142.63183899,-52.836797135,159.26983765,4150.0
22.810822916,153.53574775,-52.130498316,95.479535759,4160.0
23.703980092,176.03049708,-57.305975865,26.235564287,4170.0
23.800931344,-148.63657381,-61.489186514,-122.17336555,4180.0
21.886696257,-111.90194968,-61.850581835,-154.89569435,4190.0
19.266545584,-87.490715403,-64.829794442,-164.21565974,4200.0
17.10909831,-71.804650503,-66.791864503,178.49733941,4210.0
15.478943172,-59.236494991,-65.144942896,158.76948935,4220.0
14.042533209,-46.769239182,-63.655259758,130.80364283,4230.0
12.701039025,-32.703096727,-64.591590027,67.325961488,4240.0
11.572909591,-16.996315854,-68.912961997,14.079868846,4250.0
10.761389145,-0.093774517488,-69.645934977,-21.009103973,4260.0
10.364308131,17.64501488,-71.993146572,-106.32174536,4270.0
10.439183469,36.277864415,-76.670069191,150.24663384,4280.0
10.967532529,57.092987641,-75.885383756,90.919259569,4290.0
11.648539511,81.469219281,-79.808184554,61.251033816,4300.0
12.07033393,109.06714364,-84.828285151,27.927447677,4310.0
11.902199895,137.58096833,-82.29824987,-65.445756731,4320.0
11.262624596,165.3738068,-72.179903551,-118.63544212,4330.0
10.40594604,-168.50978122,-65.381816659,-178.81341462,4340.0
9.5639503156,-143.76610364,-68.311497941,139.43533248,4350.0
8.8075236236,-119.99715334,-72.160147844,108.47019404,4360.0
8.2049358285,-97.448207258,-75.964877392,65.673064542,4370.0
7.8289639544,-75.828157216,-74.097091296,84.404498009,4380.0
7.6965529944,-54.487861925,-76.427644972,34.807921691,4390.0
7.7162778181,-32.269598832,-82.787181218,-1.3199746175,4400.0
7.6817596534,-9.5729318399,-85.198861929,-27.965726989,4410.0
7.6065680323,12.90507168,-84.479310493,-72.923258521,4420.0
7.5389498592,35.733670713,-78.83029879,-126.6392548,4430.0
7.4662495184,59.032985049,-73.582983252,166.77325622,4440.0
7.3970083268,82.380038963,-74.912393438,120.89728989,4450.0
7.3167774264,106.54269695,-74.979558974,126.34908991,4460.0
7.1988180377,130.62033296,-72.041031597,131.75938308,4470.0
7.1571188839,154.65916374,-65.554787908,91.073238125,4480.0
7.190158585,178.94083426,-71.237209858,-2.42818071,4490.0
7.2431912779,-156.07548377,-73.673931043,11.148346691,4500.0
7.1902768687,-130.63264367,-79.312001398,9.620593802,4510.0
7.0030012479,-105.64165487,-78.813296151,13.728809859,4520.0
6.7366170045,-81.282500363,-78.201188202,21.762547546,4530.0
6.4280749623,-57.723326713,-80.101387215,-40.561325945,4540.0
6.1367648537,-35.052082232,-78.1034984,-96.901060933,4550.0
5.9135679679,-13.045597853,-79.275293504,-106.54580383,4560.0
5.7545003951,8.5629272237,-75.431616067,-99.647699696,4570.0
5.6923676414,29.801703178,-74.120802256,-109.98616779,4580.0
5.7091355115,51.236591868,-72.542848282,150.19407425,4590.0
5.8173969973,72.85056944,-73.422022469,-157.57339927,4600.0
6.0437559008,95.483122348,-76.792493444,62.730266032,4610.0
6.2537285408,118.93833055,-71.845616162,118.51849804,4620.0
6.4682837887,143.2106097,-74.561199623,89.425301743,4630.0
6.5983145277,168.54598626,-66.562672608,79.939560114,4640.0
6.5815504619,-165.82558656,-71.55016093,37.013506805,4650.0
6.4596336926,-140.32186746,-74.510606654,8.5405925383,4660.0
6.2534174054,-115.43513254,-73.843034743,-27.792109829,4670.0
6.0251870741,-91.333445505,-67.927551618,-36.595779745,4680.0
5.8221874283,-67.907021462,-66.359986672,-80.689210033,4690.0
5.655051932,-45.155080775,-75.283316539,156.34056098,4700.0
5.5459705352,-22.827382311,-75.402219304,-151.20292331,4710.0
5.4764429884,-0.8116468209,-86.005285054,-117.05036496,4720.0
5.452811662,21.157895956,-87.165623623,-178.71809196,4730.0
5.4282742321,43.156620732,-87.736756092,112.51899661,4740.0
5.4342849605,64.961838717,-79.117711273,75.025632716,4750.0
5.5453958502,87.162630852,-87.862535827,84.763697219,4760.0
5.6196079665,109.86667727,-105.37247698,-33.770573029,4770.0
5.6919800703,132.80317996,-85.516645531,41.238527252,4780.0
5.7728849842,156.08997184,-87.142191916,-2.7380540509,4790.0
5.915469247,179.66340004,-82.981161614,10.642423115,4800.0
6.0658465589,-156.18785024,-88.630026481,117.09426037,4810.0
6.170845642,-131.4577486,-84.018634141,-76.407535597,4820.0
6.2182051723,-106.32025437,-85.401358271,-54.986918891,4830.0
6.1815712102,-81.108081583,-88.555792615,-95.844894027,4840.0
6.0464486057,-56.352966509,-90.130531901,154.75388198,4850.0
5.8457591827,-32.329334841,-84.1198241,97.243021393,4860.0
5.5964950979,-9.0288581245,-83.470831225,126.71162711,4870.0
5.3256515977,13.188357958,-94.249925513,-96.454107015,4880.0
5.1793018535,34.2030889,-74.160230051,39.615121354,4890.0
5.1827006749,54.82377093,-77.543331781,151.6617296,4900.0
5.3645705352,76.054681637,-74.436022617,-59.876847511,4910.0
5.6196012858,98.029110138,-76.540031675,23.21539475,4920.0
5.8600258933,121.1061937,-84.607472278,-89.781090567,4930.0
6.0667525086,144.7071527,-77.591556929,-75.221410428,4940.0
6.2165253389,168.96808665,-78.324049068,-109.73990762,4950.0
6.2727119533,-166.16662111,-82.171970278,-148.62717326,4960.0
6.1880927733,-140.93643156,-79.693575878,139.60860714,4970.0
5.9421124781,-116.41679645,-72.712841326,165.88438477,4980.0
5.7026342571,-93.414861913,-73.630009777,-156.79968855,4990.0
5.6772565079,-71.03643597,-73.642426938,81.257452624,5000.0
5.8160220024,-48.124024582,-76.117592412,76.543826716,5010.0
5.9596960185,-24.73223394,-76.166713867,58.532993237,5020.0
6.0940219372,-1.1481744277,-73.450590613,117.47630282,5030.0
6.1507090009,22.499332174,-73.414205992,44.430017946,5040.0
6.1108630382,45.88651343,-65.041093609,-0.049601409287,5050.0
6.0024769325,69.574137471,-70.434751091,-26.995366399,5060.0
5.7254904473,92.646217336,-70.818422211,-58.843241167,5070.0
5.4165204543,114.52935629,-75.876838627,72.254013176,5080.0
5.3544906729,134.69157005,-62.790715016,-139.25304299,5090.0
5.6278061863,155.36171736,-64.722894287,-122.6569447,5100.0
6.1572698803,177.6978244,-71.424346663,-173.30268913,5110.0
6.7745422268,-158.45811705,-77.942746893,178.00963806,5120.0
7.3527472688,-133.13342361,-75.234161655,157.67057235,5130.0
7.7493312923,-106.40356811,-65.982859046,163.26546479,5140.0
7.7602552937,-78.481875915,-62.112304829,93.078223193,5150.0
7.2517489599,-50.466028934,-59.957313975,67.203652159,5160.0
6.2158768555,-25.028531736,-66.531610385,77.696407761,5170.0
5.150432813,-4.9042145127,-69.011759407,38.523151811,5180.0
4.8681077331,12.792619726,-78.015422381,-70.074160532,5190.0
5.3098076283,32.741327635,-59.056248756,-5.3547136916,5200.0
5.9945913683,54.826927717,-62.694049269,54.988409301,5210.0
6.78531537,77.973521152,-70.43647803,-138.63368879,5220.0
7.6411337065,101.44107724,-69.333304488,-71.283637551,5230.0
8.4918098409,125.93307084,-63.58263404,-36.046472659,5240.0
9.0402729751,153.27334364,-53.67321045,-89.761940434,5250.0
8.8647070514,-176.15748359,-59.615957764,-167.88669395,5260.0
7.1961545808,-147.05044263,-56.242230537,169.04216921,5270.0
5.1531208749,-129.88511646,-62.580870786,-164.62175145,5280.0
