S11m,S11p,S21m,S21p,Frequency
7.5504941618,-143.75938208,-74.586465152,6.0383513512,2000.0
11.157486136,-103.96282682,-77.464400873,-41.83798836,2010.0
22.92652759,-5.5063490359,-80.024624445,-47.899755635,2020.0
12.381443737,121.82459222,-76.634840248,-64.064265061,2030.0
8.2895836687,163.35653486,-76.407458621,-102.92670868,2040.0
7.622537378,-162.25348392,-79.848062557,-133.02007867,2050.0
9.7080370562,-127.2429126,-83.081102669,-133.0659793,2060.0
18.446635091,-81.706616776,-78.880779021,-139.73746836,2070.0
16.783881156,111.01677708,-77.293009065,167.91384569,2080.0
9.4852195235,152.56835799,-77.056270696,103.98769899,2090.0
7.5128973255,-174.73938095,-77.3907251,34.628165745,2100.0
7.9569565441,-142.96516478,-77.797775507,-21.183728284,2110.0
11.653273427,-106.1242912,-79.920181114,-54.985588398,2120.0
27.689228695,-5.859107149,-77.843541396,-41.493449021,2130.0
12.432617425,131.40596078,-71.660800122,-75.06536945,2140.0
8.1547458561,169.4508555,-68.431494862,-127.97968698,2150.0
7.3610836812,-157.84041435,-67.575273049,174.33877333,2160.0
9.1686656359,-123.63700932,-68.011599007,104.5752832,2170.0
16.364395486,-77.482010745,-69.018083585,22.728841643,2180.0
17.715599628,100.75825849,-69.917728581,-61.203424455,2190.0
9.3793893433,149.47653553,-71.637517645,-130.98052615,2200.0
6.9649205812,-176.90917435,-74.327190612,176.85853168,2210.0
6.9297908177,-145.45447979,-76.481406974,128.72053999,2220.0
9.3826582702,-110.00425186,-78.05218398,69.499762676,2230.0
18.423716906,-54.196348729,-76.781891188,11.744636986,2240.0
15.194985018,116.90521844,-73.549839951,-42.382599869,2250.0
8.8607004431,161.27352491,-71.1757714,-90.205576174,2260.0
7.2677354605,-165.91505006,-69.961914889,-134.80111748,2270.0
7.9840396502,-134.34422029,-70.12485682,-176.49218173,2280.0
11.93976135,-98.740057036,-71.740280029,140.52588302,2290.0
30.810721014,1.2524234585,-74.8696118,100.67192656,2300.0
12.61236151,139.91127748,-80.977548239,69.919300598,2310.0
8.3889640985,174.68571169,-87.940425064,71.901698182,2320.0
7.6429421554,-155.08699858,-89.247734799,5.2107578404,2330.0
9.3747291912,-125.58497618,-84.168244761,-117.975544,2340.0
16.079227205,-100.92927082,-77.739933626,169.25190568,2350.0
19.824661634,156.07508237,-74.705007642,98.149057508,2360.0
10.952245502,171.84643444,-73.542093439,22.161639706,2370.0
8.8153491681,-160.72934255,-71.91484728,-53.656284219,2380.0
9.5423705099,-133.19872482,-70.392328396,-119.26758963,2390.0
14.203177959,-107.9247432,-68.917505498,-176.02465713,2400.0
24.679245931,172.58299255,-69.345588709,129.39835872,2410.0
11.970213449,163.67514299,-71.902012317,78.336433066,2420.0
8.6260299952,-169.10507809,-77.887101097,26.249425171,2430.0
8.3722919859,-140.68710674,-97.767158199,96.101913834,2440.0
11.162060695,-111.17039537,-80.857717231,85.552470524,2450.0
24.237403668,-93.156757041,-79.315464881,49.575488787,2460.0
14.124903578,149.18910817,-78.858793538,13.245132131,2470.0
8.5921887593,179.24326173,-79.082926367,-29.200651885,2480.0
7.1393289057,-151.30532807,-77.385783827,-89.613969127,2490.0
7.9948333482,-121.00321809,-75.923179959,-150.86577454,2500.0
12.481651875,-84.881855468,-74.529681298,147.28991656,2510.0
27.7357206,70.959774175,-75.944522013,92.166559317,2520.0
11.254771519,153.40867835,-81.367866455,43.855466521,2530.0
7.6085272428,-171.89035358,-91.659125056,107.95229879,2540.0
7.0068582268,-141.41835464,-77.757366174,99.942042719,2550.0
8.853687999,-109.9691555,-73.855734913,45.486207025,2560.0
16.298365203,-71.203531298,-74.297653035,-9.9438380031,2570.0
18.239061949,131.38624159,-78.142339833,-57.001580255,2580.0
9.4460456395,171.44154916,-83.50017842,-88.710080112,2590.0
7.2209587774,-157.29419543,-86.520150075,-129.06739072,2600.0
7.5213890691,-128.18988173,-90.94209696,166.26637412,2610.0
10.869008752,-97.164365226,-88.683683667,92.17674476,2620.0
26.36174351,-76.20944095,-88.232370641,47.838325704,2630.0
13.527074443,161.83728197,-91.213564555,65.976709691,2640.0
8.6220736013,-167.84214044,-82.707694198,55.085251565,2650.0
7.7282943857,-139.15980854,-78.067604998,8.0526594213,2660.0
9.5830691756,-109.61336286,-78.680593249,-34.489701742,2670.0
17.643023842,-80.403279815,-79.797030774,-56.749575301,2680.0
16.974898782,153.99576337,-79.517501302,-83.41066705,2690.0
9.1779911966,-176.60634459,-79.905890637,-111.05216411,2700.0
7.2129204333,-146.96952048,-81.113719636,-147.63068259,2710.0
7.9200529994,-116.65454249,-83.56085597,166.46895502,2720.0
12.391974503,-81.130239618,-89.117652548,110.77474841,2730.0
27.856098838,112.20863739,-88.536026199,59.283563655,2740.0
10.288210209,167.54948219,-85.185236804,-0.1341911858,2750.0
6.8021290605,-158.63904664,-81.042522125,-37.437886171,2760.0
6.2196446059,-127.15173325,-77.486032297,-79.414862249,2770.0
7.8928043119,-90.391945066,-75.949018948,-127.47906761,2780.0
14.50783134,-28.617459729,-77.635811925,-170.31050208,2790.0
13.063859994,121.26603043,-79.98937185,166.55235184,2800.0
6.9090660148,176.85994589,-79.271084882,146.02642572,2810.0
5.1814985137,-146.38375097,-79.268965203,91.813722721,2820.0
5.4441069276,-110.517273,-85.53443255,28.546320006,2830.0
8.1519613924,-63.500773029,-100.07109685,95.315334008,2840.0
13.761335333,41.445183177,-89.648712289,94.459624043,2850.0
7.4815694504,145.76039862,-88.055639437,38.588047634,2860.0
4.1503699671,-166.21379387,-85.258581534,-18.947436554,2870.0
3.0217759722,-128.5501324,-84.118047025,-87.452271928,2880.0
2.9270906127,-86.38951604,-85.933688783,-133.02533448,2890.0
3.7086219851,-21.911104966,-88.214682534,-175.54512972,2900.0
3.4844973677,78.015095588,-91.908520333,137.45214927,2910.0
1.7288272677,156.81126681,-108.5540127,136.46124201,2920.0
0.81498089906,-154.24335154,-99.88931151,-99.934933006,2930.0
0.048811360302,-113.1376089,-102.88935805,-75.967315228,2940.0
-1.6465315566,-62.335953677,-86.368779198,-90.257968469,2950.0
-7.0374216073,23.19788264,-79.337797924,-114.13130152,2960.0
-9.531369741,145.18774483,-74.965415649,-161.10117515,2970.0
-9.2003633489,-152.4026046,-73.28333735,154.25887689,2980.0
-13.878051993,-134.72565448,-73.141140209,111.43140586,2990.0
-10.286208516,-173.77690677,-74.485916022,69.554351022,3000.0
-5.3413334541,-147.24079616,-77.293705624,34.77450753,3010.0
-4.1125419928,-112.02916676,-80.666263682,10.585431091,3020.0
-4.4905055829,-67.703498115,-82.595015815,-11.507603648,3030.0
-4.7034264077,6.2324981932,-85.006192983,-41.831094689,3040.0
-1.0468428557,102.96748951,-86.395343626,-75.747082723,3050.0
1.5207149381,173.22446379,-87.005131798,-137.51584363,3060.0
2.4725157714,-140.08972855,-86.244836931,144.20101739,3070.0
3.7246515769,-99.887433332,-85.907560501,40.640791691,3080.0
7.0967408587,-49.722296873,-80.249317728,-80.136871418,3090.0
14.191814199,60.883036901,-75.181611067,-167.89388307,3100.0
8.0655132985,167.83420425,-73.858729631,127.0057976,3110.0
5.4542382512,-146.54565367,-74.554132084,67.726556416,3120.0
5.3013303595,-110.83054584,-77.45775414,19.446005102,3130.0
7.3593777209,-72.811832198,-81.543933218,-33.508048025,3140.0
15.019031325,-13.210474791,-89.129119543,-92.438969558,3150.0
13.867004675,146.6902048,-91.011183736,150.19423591,3160.0
7.8299534733,-161.62725259,-85.785248296,60.864563991,3170.0
6.3823141231,-126.85701667,-87.849993791,-27.674506628,3180.0
7.1935427086,-93.992403893,-87.712712757,-157.77270548,3190.0
11.545306114,-55.33879368,-82.199879651,109.17473593,3200.0
24.954588172,96.287080368,-80.058642272,66.737011802,3210.0
10.386099612,-178.74529563,-77.545663805,28.413225651,3220.0
7.0388387763,-142.77434136,-76.048590463,-12.979858827,3230.0
6.5118428619,-112.25964738,-75.790936315,-54.934262758,3240.0
8.2257522355,-81.360696605,-76.772469453,-94.325828843,3250.0
14.746262095,-45.177247077,-78.67175062,-133.12219855,3260.0
20.714056446,159.00860347,-82.633283618,-150.90655972,3270.0
10.212458135,-161.0490053,-79.671640778,-138.25277652,3280.0
7.7760171213,-129.90283646,-73.219755921,-170.95993063,3290.0
8.0297629719,-101.48618782,-69.41137608,137.22580146,3300.0
11.482285953,-74.382167005,-67.747972897,84.893979096,3310.0
24.426152338,-83.926974989,-67.650435837,33.560546612,3320.0
13.972573309,-162.2089444,-68.924716155,-13.646599212,3330.0
9.3271326421,-137.86789344,-71.053581395,-52.997376,3340.0
8.5018560348,-112.68435162,-73.513974539,-86.692068439,3350.0
10.229311408,-89.175260746,-76.696646763,-114.58249917,3360.0
16.308079148,-79.784861757,-77.95359415,-130.57549146,3370.0
17.033918103,-144.13899223,-79.376290786,-156.61265758,3380.0
10.801958653,-137.10957161,-80.025231652,-174.23931072,3390.0
8.9988410575,-113.746149,-78.812520857,175.0107407,3400.0
10.147771236,-89.244195054,-77.711719036,142.39496061,3410.0
15.837915376,-70.280329457,-77.286380846,112.12844972,3420.0
20.086608128,-152.67899647,-77.163692327,85.013273429,3430.0
11.035519348,-148.20947653,-77.466415017,48.630020852,3440.0
8.3516643685,-123.16563109,-79.766240438,17.665837863,3450.0
8.2717512256,-97.069700754,-82.883079785,-6.8359374434,3460.0
11.100390045,-69.571164978,-86.686996285,-5.1870521284,3470.0
23.031217357,-52.443539406,-82.913405562,-1.6675384784,3480.0
14.846228293,-167.15654873,-78.758433589,-37.571822401,3490.0
8.9306912409,-139.22503567,-78.007619821,-95.038028745,3500.0
7.4558166596,-111.18441225,-80.008818481,-147.66087308,3510.0
8.4339722758,-81.935342398,-81.916110961,168.71543436,3520.0
13.030573962,-49.713976519,-83.894405668,126.23825742,3530.0
32.523936707,158.79722254,-88.05093221,100.25032712,3540.0
11.714596465,-161.51279883,-87.600160153,101.50954197,3550.0
7.8824567219,-130.21269351,-84.99068209,95.838331089,3560.0
7.20922067,-101.60792976,-82.646911291,68.322473669,3570.0
8.8785505803,-71.310187085,-81.372427679,44.14881425,3580.0
15.19887927,-37.537024366,-80.84857793,11.239106877,3590.0
21.238746623,179.40688184,-80.696825799,-8.0933460697,3600.0
10.430590251,-147.84054185,-81.434241509,-34.864641704,3610.0
7.9617172824,-116.97776632,-82.237000596,-64.694269597,3620.0
8.1382845953,-87.946598673,-82.886171743,-104.91878273,3630.0
11.217551129,-58.032417781,-87.194472158,-144.58355274,3640.0
24.522148936,-29.527390187,-90.009387402,-177.80037932,3650.0
14.780776641,-165.38164923,-90.728400546,137.22175419,3660.0
9.1375465275,-135.12859663,-89.645213869,133.37363493,3670.0
7.8872822574,-105.78759864,-84.455844578,112.5915266,3680.0
9.074064218,-76.974566347,-78.818991674,67.066709255,3690.0
14.471407753,-51.194959114,-76.943565948,26.404763725,3700.0
22.839744815,-147.71844314,-76.623691172,-10.804039369,3710.0
11.584463283,-141.09036808,-76.211225401,-42.291847014,3720.0
8.7249384828,-113.92384703,-76.912780813,-76.592654958,3730.0
8.8180165372,-87.503299706,-78.317016363,-112.7259382,3740.0
11.88782758,-61.251492076,-80.715269954,-149.30556764,3750.0
23.23741956,-61.98119432,-83.50684051,175.56672189,3760.0
14.772388993,-151.10364714,-86.256537538,138.836089,3770.0
9.5945805971,-126.72355623,-86.945755495,94.795367578,3780.0
8.3883338672,-99.429520762,-86.311645185,51.513192464,3790.0
9.7910125225,-73.529528662,-85.320894578,8.9263207951,3800.0
15.724299541,-56.801523292,-86.280833993,-12.218221209,3810.0
19.454375947,-130.3252009,-86.776562505,-45.718716987,3820.0
11.548150514,-127.09420163,-87.31679914,-62.056128348,3830.0
9.2880051427,-103.46922082,-87.607604211,-72.598647749,3840.0
9.8222142834,-78.603898665,-89.495782517,-110.72394333,3850.0
13.663333969,-56.939724324,-98.976745756,157.910258,3860.0
23.712502245,-102.04656878,-86.385352448,14.957232765,3870.0
13.359325652,-136.77847356,-80.983254223,-44.534043169,3880.0
9.5408994505,-112.48350556,-80.439156665,-80.262045484,3890.0
9.1452535611,-86.25651544,-80.786268579,-114.61862142,3900.0
12.053854771,-61.731632557,-83.075242238,-131.27069621,3910.0
21.77854936,-72.079990992,-82.863141275,-148.56128775,3920.0
14.369149238,-135.26270634,-83.109602385,-170.8150552,3930.0
9.6196996715,-113.59862024,-83.631653675,166.28486401,3940.0
8.6196610753,-86.489660303,-83.218637897,141.69960804,3950.0
10.240113338,-57.75151052,-81.410469931,103.83092604,3960.0
17.436009125,-25.855755093,-78.402482415,54.433915601,3970.0
19.989958814,-171.11757356,-76.742407648,2.9542104282,3980.0
10.423198447,-135.45287535,-76.628311879,-45.430654306,3990.0
7.910666378,-103.77619039,-76.539810103,-85.423224709,4000.0
8.2391109187,-72.891101601,-77.474952681,-119.93754189,4010.0
11.925459651,-38.325643005,-78.877886569,-152.05521722,4020.0
33.050375092,41.484171316,-81.805936334,-177.1021668,4030.0
12.644152405,-152.0311042,-83.127653264,167.46422149,4040.0
8.1936839074,-116.76010597,-84.6601639,135.50177027,4050.0
7.2068177376,-85.353592488,-85.717936628,99.626489505,4060.0
8.6336910745,-52.706037904,-88.345113011,14.335061376,4070.0
14.316363806,-9.1888471161,-87.848795096,-57.231668511,4080.0
20.776347391,158.27706553,-88.911547561,-122.4817009,4090.0
10.223931114,-140.12634452,-91.080514333,-127.53549385,4100.0
7.5859561611,-104.15689391,-86.372028552,-131.19560052,4110.0
7.8139845679,-70.69954445,-84.271611849,-167.64441089,4120.0
11.201046183,-33.834531939,-84.293833414,156.73861278,4130.0
26.753078561,46.469445749,-84.02052746,119.55938958,4140.0
12.730449249,-153.18246248,-85.132937374,83.276012732,4150.0
8.0629293241,-114.86097795,-85.181150135,44.625059235,4160.0
7.2002149073,-82.123906256,-82.109510106,5.3740221366,4170.0
8.7775820287,-47.40340092,-77.75275669,-50.709864057,4180.0
15.070000052,-3.0254242876,-76.235697074,-107.74821299,4190.0
19.14460807,174.12614627,-75.671093345,-159.54512447,4200.0
9.8936437014,-132.09540233,-76.330210813,159.5901044,4210.0
7.6486038278,-95.649437322,-76.996128822,122.15623434,4220.0
8.200050486,-61.119127917,-77.665812442,82.918921743,4230.0
12.34919372,-19.707867792,-79.047219513,49.078518441,4240.0
24.039976665,115.25489309,-79.547359286,6.2894287385,4250.0
10.9631492,-148.38908615,-80.800110676,-26.064634979,4260.0
7.397331589,-109.50343375,-83.802197971,-57.747945073,4270.0
6.8785236018,-74.740112899,-80.881364156,-56.600583282,4280.0
8.7011999127,-37.314915142,-75.638662508,-93.412274793,4290.0
15.676813633,19.93583472,-73.56306122,-142.89909549,4300.0
15.058850248,173.38443385,-74.013534209,168.23038316,4310.0
8.4725915021,-130.50363555,-75.11072547,128.05496131,4320.0
6.5848160391,-92.97001436,-76.26001413,91.53150779,4330.0
7.0200943352,-57.23620565,-77.962443328,49.934710016,4340.0
10.115805553,-13.715968081,-82.9449419,22.149717337,4350.0
18.017940286,81.638379548,-85.015486948,12.913353011,4360.0
11.004985052,-163.87119079,-84.481026118,17.662745661,4370.0
7.1435478919,-117.08537845,-81.700381563,-0.74354099764,4380.0
6.1980327704,-80.75569848,-78.073984067,-46.807040241,4390.0
7.337489534,-44.734493507,-78.327667676,-91.150087619,4400.0
11.805389567,3.223321874,-79.118939504,-128.81805565,4410.0
18.332869229,127.49463561,-79.724369163,-153.3965661,4420.0
10.152008216,-145.80467231,-80.850098831,-177.57540544,4430.0
7.2604109548,-104.42915271,-80.712110232,165.13938023,4440.0
6.9749412274,-69.339395194,-80.387717253,135.61505269,4450.0
9.0707699054,-32.842188794,-81.082907494,101.45501102,4460.0
16.431949711,22.573935483,-84.255758287,78.212424852,4470.0
16.450787906,-179.48827543,-89.130772021,88.491498341,4480.0
9.4823337144,-125.28637415,-79.747462993,105.0441497,4490.0
7.6258147195,-89.682667095,-73.329474717,54.935162929,4500.0
8.384771114,-56.701275344,-71.57289396,0.65017026296,4510.0
12.356572313,-21.673526128,-71.98639179,-47.0354223,4520.0
34.122306031,52.650027892,-72.494035315,-83.054216911,4530.0
13.783885911,-137.06218777,-73.099990195,-116.48277848,4540.0
9.4426167162,-102.32717513,-73.933073679,-147.8617885,4550.0
8.8168302347,-71.622854048,-73.933917991,-174.47081346,4560.0
11.155574017,-40.322827147,-74.143343804,152.48161905,4570.0
19.868433404,-9.7635289253,-74.77643528,120.3101244,4580.0
18.573574956,-144.53697652,-76.665336414,86.906914561,4590.0
10.81297519,-114.90971341,-77.074407469,67.426395115,4600.0
8.9266566776,-85.170244782,-75.401376061,35.495641039,4610.0
9.5624997351,-56.197689948,-75.503641604,-10.163379358,4620.0
13.553286734,-27.569265726,-75.769693662,-53.519335379,4630.0
31.745937765,-41.544925416,-76.490174124,-93.036762261,4640.0
14.776630166,-128.52179286,-76.830979466,-126.47815813,4650.0
10.122725785,-100.84753016,-78.09838312,-170.31554301,4660.0
9.3516078372,-72.664645546,-80.232926142,150.7074539,4670.0
11.033331424,-44.075292493,-85.671909333,106.74348046,4680.0
17.434736876,-19.644430359,-97.036536404,-30.990541339,4690.0
23.02664196,-130.98549816,-84.256001763,-113.04098615,4700.0
12.778169255,-117.5206327,-77.578273123,-168.33214015,4710.0
9.9577669545,-90.913848214,-76.511453929,140.05101233,4720.0
9.940448637,-65.105010885,-77.91277578,94.237930237,4730.0
12.488279457,-40.642621851,-80.255149372,62.881290861,4740.0
19.98797826,-33.929542288,-82.7955263,29.944430798,4750.0
18.831420816,-113.26404096,-84.421871825,-5.5002811776,4760.0
12.750137224,-102.1923069,-84.124002258,-47.844108867,4770.0
11.161753223,-78.705622266,-82.157656759,-104.24973076,4780.0
12.303262296,-57.175699783,-82.335122949,-139.11330657,4790.0
16.695546263,-49.532798997,-82.475759646,-170.07546449,4800.0
19.157069653,-90.357843133,-78.401495722,-177.44975681,4810.0
13.944821438,-97.747880252,-75.786437083,144.49845547,4820.0
11.958313232,-80.284922452,-75.467366884,105.93454114,4830.0
12.812690643,-59.820849855,-76.03514378,71.821959771,4840.0
17.055906667,-52.31313062,-77.922031311,35.725003043,4850.0
18.086834701,-98.837145973,-80.250120207,-0.83422408574,4860.0
12.474116694,-98.626552645,-83.400442633,-45.002788331,4870.0
10.321758583,-72.866669142,-86.414515897,-112.1219281,4880.0
11.17966229,-40.62068071,-82.434814093,177.8203109,4890.0
17.221492685,9.1886381255,-80.763245757,128.1457411,4900.0
17.037983709,164.60425134,-78.682268772,92.643454336,4910.0
8.6933435718,-137.55395152,-78.312114814,39.397505478,4920.0
5.7553876553,-98.131975987,-81.116322878,-25.774960197,4930.0
5.0688213685,-59.793285482,-85.993563835,-97.022912993,4940.0
6.0403359697,-12.668958533,-85.937039331,175.6518007,4950.0
8.5668556056,67.548032009,-83.396008484,136.88574262,4960.0
5.7678814891,173.96778491,-79.243530389,108.73684052,4970.0
2.1562629002,-117.20629624,-78.39031499,69.400494046,4980.0
-0.26612102822,-62.860664496,-78.193849556,39.660756523,4990.0
-4.9518642387,2.5398643008,-79.095383292,23.42040664,5000.0
-14.684362494,179.08712892,-78.56174401,0.75027868373,5010.0
-5.8285549037,-81.638666149,-78.463112047,-21.606611279,5020.0
-3.9940463919,-17.678197367,-76.662568773,-65.440448664,5030.0
-3.1973418198,66.512077306,-76.160714915,-124.40683387,5040.0
-1.6346839467,160.96739501,-76.169132613,175.40498322,5050.0
-0.85128063913,-134.39823392,-76.583034218,118.9188412,5060.0
-0.23560845556,-91.269563716,-75.201940151,77.386881598,5070.0
0.8590916966,-52.53484587,-74.356842711,38.564780192,5080.0
3.0636268991,-6.2678782122,-73.931758634,1.8023793051,5090.0
7.4843549648,63.831765224,-74.193083578,-35.992091546,5100.0
9.2312946694,167.54869796,-74.684739746,-72.208538854,5110.0
6.7870396211,-122.75769744,-76.22447489,-112.43231159,5120.0
6.0873872539,-78.443646362,-76.223877424,-147.83846871,5130.0
7.4565594312,-37.723047114,-75.181875023,167.58392817,5140.0
12.244280566,11.918224684,-74.913768208,122.62666769,5150.0
18.639739418,138.92906475,-73.456651878,84.799644657,5160.0
10.851513449,-139.66418054,-72.310117368,44.972704904,5170.0
8.1418138947,-99.498784052,-72.353925872,3.369929363,5180.0
8.0918802809,-67.535799956,-72.791793063,-31.744481697,5190.0
10.636591832,-38.118867291,-73.797949965,-64.816805624,5200.0
18.439584437,-16.983677492,-74.789633176,-98.116041843,5210.0
19.95719485,-115.41046282,-75.052764081,-133.69304972,5220.0
12.377328574,-100.02136455,-74.871816208,-172.74164389,5230.0
10.851512313,-73.766790151,-74.851818366,140.1866918,5240.0
12.432641549,-49.202675486,-74.5074621,96.107183934,5250.0
18.709975572,-37.319015323,-72.89639304,57.622493657,5260.0
21.412252898,-116.62250518,-71.758894271,16.870193031,5270.0
