S11m,S11p,S21m,S21p,Frequency
5.147324444,-49.133593886,-50.370809274,-19.354866905,2000.0
5.3949075501,-26.137003057,-52.80132792,-54.100812389,2010.0
5.5583505402,-1.7605008398,-56.881726858,-36.730240242,2020.0
5.5699880543,23.660986153,-53.675340869,-30.609556637,2030.0
5.4232786776,49.495639645,-51.60240977,-38.712017809,2040.0
5.1561342419,74.972961228,-47.880154359,-50.178973903,2050.0
4.8447730667,99.735339473,-41.421866422,-86.035537741,2060.0
4.5758840977,123.33174881,-42.923160768,172.030399,2070.0
4.4220382759,145.73374615,-51.348690472,140.5925038,2080.0
4.4386912135,167.33613094,-60.091832999,144.47661903,2090.0
4.603636562,-170.9647982,-61.674566112,-151.08166687,2100.0
4.8131269259,-148.53573193,-57.564489967,-151.81324429,2110.0
4.9714148726,-125.29370968,-60.978350905,-158.13418143,2120.0
5.0491020908,-101.41161115,-59.696161374,-124.3251219,2130.0
5.0302249393,-77.066515572,-58.159507256,-118.96972243,2140.0
4.9173889324,-52.552980614,-45.417779556,-90.635312056,2150.0
4.7621664483,-28.210179318,-49.480485981,154.91888728,2160.0
4.6147764533,-4.2078893986,-54.080891036,148.46506222,2170.0
4.5014897802,19.291703767,-56.268654754,143.66719655,2180.0
4.4666947439,42.154298545,-57.185815845,144.29611905,2190.0
4.5563898523,64.882739908,-57.291529849,144.06660935,2200.0
4.6834798597,88.021108484,-57.217304921,148.15233613,2210.0
4.7897602404,111.48104566,-57.46277978,147.66209727,2220.0
4.8581818577,135.29109132,-57.51398703,-170.3657349,2230.0
4.8660060507,159.3370401,-45.537191891,-144.97538585,2240.0
4.8132406402,-176.61499489,-43.872312798,20.200268127,2250.0
4.727305146,-152.87215262,-52.050539497,28.673055111,2260.0
4.6414301352,-129.48244778,-55.195325698,28.022436795,2270.0
4.5801798629,-106.48895617,-56.756433861,23.976578586,2280.0
4.5699928206,-83.840031405,-57.448207427,14.22592613,2290.0
4.6295344871,-61.176344119,-57.131092878,6.5958734534,2300.0
4.7319808083,-38.088191619,-56.333289569,0.67207473411,2310.0
4.8125410445,-14.498668918,-54.963847271,-1.3254031988,2320.0
4.8542630055,9.3420305525,-53.717558256,6.1685137831,2330.0
4.8570175945,33.404996818,-30.243738394,85.575718837,2340.0
4.7936425123,57.42389311,-51.007281391,-135.89188892,2350.0
4.7293419418,80.934968605,-56.494153288,-126.88505364,2360.0
4.6837687323,104.22056152,-58.849603489,-119.70981485,2370.0
4.6835905451,127.23186488,-60.633529242,-115.53051711,2380.0
4.7250099149,150.10207392,-62.052119378,-114.19381438,2390.0
4.8162783313,172.94745187,-62.098266291,-117.54808561,2400.0
4.9589594688,-163.95101137,-60.737192246,-119.9341805,2410.0
5.0841549652,-140.49924385,-57.991824384,-122.52792578,2420.0
5.1775674038,-116.80801516,-53.31013586,-131.14121357,2430.0
5.2549106376,-92.81565312,-42.931776125,172.90372632,2440.0
5.2807697612,-68.523983915,-52.824648703,98.561346571,2450.0
5.2268249883,-44.291207712,-57.578406009,86.771737697,2460.0
5.1512658166,-20.465786069,-60.1974708,77.089089699,2470.0
5.1163121294,2.8661443408,-63.132251352,69.998800423,2480.0
5.1273375787,25.926777416,-65.692195172,68.109400874,2490.0
5.2179663226,48.718035465,-66.637585888,63.995028842,2500.0
5.3491660254,71.769874008,-65.129498572,54.853842332,2510.0
5.4969235574,95.075940312,-62.697933305,52.887186953,2520.0
5.6204282473,118.64492228,-58.227526713,58.835093305,2530.0
5.7415612243,142.39655414,-43.915886911,18.909827784,2540.0
5.8309038616,166.39110596,-55.364797283,-62.852639628,2550.0
5.8808805041,-169.60718258,-59.474989,-72.235600423,2560.0
5.9278583497,-145.85013323,-61.459899245,-78.61393885,2570.0
6.0085008397,-122.2776872,-62.390592937,-83.098843334,2580.0
6.138228586,-98.788267357,-62.866548637,-84.784775223,2590.0
6.3207739049,-75.312928499,-62.043085386,-86.679806872,2600.0
6.5498175651,-51.573919224,-59.415898923,-94.83781039,2610.0
6.7865730214,-27.375378347,-54.235705931,-103.27769276,2620.0
6.9845579784,-2.8579926595,-48.142331152,-111.56567709,2630.0
7.147239701,21.76663855,-34.802127236,-133.36935309,2640.0
7.2539237095,46.454245842,-49.704779726,107.58812922,2650.0
7.2879653408,70.920566362,-53.281225871,117.20031338,2660.0
7.3006753745,94.613551019,-56.696308598,100.52593148,2670.0
7.3953063625,117.70253355,-60.647382777,85.250633058,2680.0
7.5585234919,140.11348148,-64.635576595,78.756159952,2690.0
7.8768665668,162.18114496,-67.496446342,68.935875519,2700.0
8.3598067432,-175.46264004,-70.926330764,73.194643014,2710.0
8.9586662386,-152.360802,-66.129981609,116.77659198,2720.0
9.6220491714,-128.34607653,-56.29607689,118.19053068,2730.0
10.28551912,-103.35407725,-44.903551189,81.31226246,2740.0
10.866659616,-77.427900382,-50.320697515,13.126844953,2750.0
11.277924425,-51.097263436,-54.338491157,51.989586484,2760.0
11.510666794,-25.686983502,-52.269836686,58.757621021,2770.0
11.800630541,-2.0020896154,-52.131274522,48.836682464,2780.0
12.206496498,20.382366825,-54.370009554,34.201469073,2790.0
12.775498102,42.212008269,-57.893010205,11.792281297,2800.0
13.576715262,63.594410935,-57.63711915,-52.520707027,2810.0
14.620651314,85.320931689,-52.538659594,-111.33573029,2820.0
15.898857125,106.30692351,-48.197116911,-148.2033825,2830.0
17.422819859,127.00621978,-45.345449207,-171.45671285,2840.0
19.126808652,147.9229892,-43.164306784,165.2280876,2850.0
20.802620717,168.73217963,-46.261960483,173.73619465,2860.0
22.128100351,-173.03694816,-40.238049604,-166.5464307,2870.0
22.847151917,-161.31372608,-34.925492831,165.19763173,2880.0
22.725462272,-156.28628183,-33.290048711,118.82543782,2890.0
21.693527873,-153.04305677,-35.040449882,73.356836798,2900.0
20.175816709,-147.37267698,-37.959201982,37.941624266,2910.0
18.752098395,-138.27578667,-41.170761826,14.563810537,2920.0
17.621359397,-125.67813795,-42.849004475,0.079560677388,2930.0
16.749887604,-110.33965973,-42.93457586,-19.557705534,2940.0
16.149657104,-93.208558339,-41.553367837,-37.695825705,2950.0
15.862679681,-73.422375129,-42.537598507,-57.371769754,2960.0
15.695986094,-49.543599004,-44.258856696,-28.889559914,2970.0
15.208915886,-22.099119749,-39.569757211,-25.225774543,2980.0
14.297088055,6.6540438726,-37.190181116,-60.625942222,2990.0
13.105886712,35.286897471,-42.18264278,-89.060920349,3000.0
12.038020173,59.072567188,-48.240098545,-96.289816911,3010.0
11.054154454,82.289371858,-52.455806119,-93.955604262,3020.0
10.272338591,104.45043943,-54.923646901,-96.987800953,3030.0
9.6507128629,126.1324881,-56.301505765,-106.59118963,3040.0
9.2006626673,147.26701139,-56.025898552,-116.54247791,3050.0
8.9767259533,168.27619493,-55.25595283,-128.95177387,3060.0
8.9179003896,-169.65904942,-57.187772354,-128.00141575,3070.0
8.9274014121,-146.10000503,-53.546957409,-100.07383474,3080.0
8.8540796486,-121.51607987,-44.989405557,-137.91072286,3090.0
8.7213602913,-96.50980585,-49.203755385,152.01395316,3100.0
8.4754220315,-71.514242141,-54.844346191,138.71793244,3110.0
8.1344946181,-47.340370598,-58.376899661,142.09464042,3120.0
7.8589427865,-23.458011011,-61.951869813,134.7299758,3130.0
7.6142856363,0.29922206799,-63.639760283,121.68315972,3140.0
7.4274971618,23.81898944,-63.100173526,105.70342582,3150.0
7.3605109293,47.52979729,-61.946427554,96.24224723,3160.0
7.3204411256,72.067032397,-63.824353435,94.320288127,3170.0
7.2028331126,97.12838122,-63.822963295,142.89297591,3180.0
7.0027705167,122.03702209,-54.063249649,146.26023148,3190.0
6.7689428498,146.36893254,-53.074847554,57.089894668,3200.0
6.5384105579,169.8567349,-59.296058093,46.934128663,3210.0
6.3041925216,-167.31608065,-61.161722367,52.587588037,3220.0
6.0925123685,-145.3726046,-62.439685635,63.140143244,3230.0
5.9446055732,-123.74636412,-63.96271736,66.147115803,3240.0
5.8533407658,-102.18581647,-62.861539605,53.695260665,3250.0
5.8577159998,-80.420905534,-60.101029871,45.434751154,3260.0
6.0370411682,-57.720781359,-59.194695377,42.405471186,3270.0
6.2152709218,-33.515372463,-59.491580125,65.879119627,3280.0
6.3079028594,-8.1521556728,-53.55578859,81.072555503,3290.0
6.3135544243,17.630575246,-44.190028713,16.300329948,3300.0
6.2328992976,43.244496708,-55.592682251,-43.235061751,3310.0
6.0564139067,68.231647657,-61.245852603,-41.280393014,3320.0
5.8081201413,92.127343644,-64.041195349,-31.345087402,3330.0
5.5521493158,114.86311108,-66.560996806,-23.079068412,3340.0
5.3316363015,136.78635825,-67.77371125,-23.081123868,3350.0
5.1798617456,158.27495809,-67.584807721,-36.670138658,3360.0
5.1619063596,179.87535162,-68.471489302,-46.070998128,3370.0
5.2897098573,-157.53107245,-71.767461398,-14.112897477,3380.0
5.4255733342,-133.83222305,-68.716967,29.160368305,3390.0
5.4695740812,-110.23402882,-61.742176201,13.958297609,3400.0
5.5668437499,-86.602633122,-75.310369395,-106.91152597,3410.0
5.608125031,-62.986503758,-81.765864042,59.274441969,3420.0
5.6105904248,-39.230923086,-77.214051491,59.923394453,3430.0
5.579230796,-15.816777139,-76.439571613,75.303380043,3440.0
5.4825257941,7.4408180205,-77.605580463,77.671137124,3450.0
5.3783562308,30.249728741,-80.907064409,78.349051411,3460.0
5.3905631404,53.154151307,-82.687515665,99.159957693,3470.0
5.5340572391,77.164287159,-112.85420859,111.59419144,3480.0
5.6805544732,102.37223349,-76.121149083,-58.457152956,3490.0
5.7276546889,127.90336969,-64.99411545,-59.979741692,3500.0
5.6701570903,152.95474177,-52.90928188,150.68056275,3510.0
5.5156623561,177.04079286,-69.162273027,95.345364784,3520.0
5.2708264859,-160.18521058,-73.448135295,83.602993813,3530.0
5.0342671739,-138.73402018,-72.425439794,78.893120384,3540.0
4.8366073269,-118.05305609,-71.26315587,77.756143428,3550.0
4.7189012473,-97.762979909,-70.929308191,84.419803098,3560.0
4.7826899412,-77.280967441,-69.364660619,98.27054535,3570.0
5.0800414387,-55.472013433,-63.897566259,125.6204168,3580.0
5.4686304666,-31.546057576,-56.989674175,153.46905434,3590.0
5.8275053029,-6.1006370431,-47.964265086,-175.35215247,3600.0
6.1063110516,20.147954915,-44.322703595,-13.226567148,3610.0
6.250207288,46.692868111,-54.648181132,24.869174277,3620.0
6.1824669154,72.755525731,-58.785192382,40.053144361,3630.0
5.8849395632,97.394276751,-61.195402782,45.563871323,3640.0
5.4600841266,119.97302805,-63.11045725,46.195749975,3650.0
5.122716815,140.82004769,-64.926437176,49.062804154,3660.0
5.0202871293,161.19542289,-63.713691257,58.094479441,3670.0
5.1481360127,-177.492902,-56.942196231,60.715451473,3680.0
5.3646623322,-154.68095374,-44.714640868,32.243755543,3690.0
5.5925545932,-130.82160497,-48.39956851,-68.890056285,3700.0
5.8128122072,-106.43756339,-54.133092611,-77.281859263,3710.0
6.0078809012,-81.895836354,-56.087048559,-76.458442585,3720.0
6.1176320502,-57.606140558,-55.47405168,-72.797616868,3730.0
6.0884302357,-33.700181201,-52.886556537,-70.164504706,3740.0
5.8807017982,-11.08788945,-49.327776499,-55.530833332,3750.0
5.6757683183,9.9983948039,-40.016262364,84.790235947,3760.0
5.6819525345,30.583687526,-55.30214278,158.07700553,3770.0
5.9202966237,52.155964812,-60.247174414,165.39777699,3780.0
6.2973692074,75.766399818,-63.970104639,167.94453522,3790.0
6.69254719,101.41741509,-66.216227164,-174.25025351,3800.0
7.0144811682,128.33791225,-65.986141231,-157.15476983,3810.0
7.2250878675,155.84859843,-65.14079328,-149.63909212,3820.0
7.2144290185,-177.24860629,-62.902525318,-136.32515785,3830.0
7.0303388375,-152.23968455,-54.917013313,-134.23321156,3840.0
6.7296901051,-129.25008498,-53.714434457,97.001058816,3850.0
6.321941799,-108.38653683,-64.12529073,106.43199569,3860.0
6.0735951134,-89.34721737,-68.750791361,102.15835929,3870.0
6.1232392972,-70.436216826,-71.438749447,81.213796522,3880.0
6.4372917829,-50.229702095,-72.007807443,64.367158186,3890.0
6.9134163227,-28.246641387,-71.463455796,59.019374541,3900.0
7.5608465014,-4.6405066509,-69.868012798,73.344331693,3910.0
8.3755723328,20.764371322,-67.538278063,84.622516549,3920.0
9.2417727388,47.866274879,-65.530441815,98.415819494,3930.0
9.9346307514,76.114460427,-59.63453239,125.29316989,3940.0
10.195472417,104.43325165,-50.121933622,-8.0209845439,3950.0
9.9226498451,131.01994244,-65.908753646,28.446326431,3960.0
9.3490052339,154.40302086,-68.56101937,52.457104871,3970.0
8.8564776422,175.54883431,-72.223874479,55.988944562,3980.0
8.650282891,-163.75519716,-72.694531913,39.754395011,3990.0
8.7273301136,-142.84573847,-69.978759775,22.269395611,4000.0
9.1710320618,-120.64109989,-66.555351909,11.522021963,4010.0
9.7978758721,-97.659083386,-64.411520667,7.2785689845,4020.0
10.578580016,-74.475638835,-62.048862727,21.047769345,4030.0
11.500181584,-52.093803754,-56.898474972,47.166879887,4040.0
12.479453398,-30.073820443,-32.552591735,132.75771421,4050.0
13.258683484,-7.5285561927,-55.66993638,-99.469073323,4060.0
13.571446617,15.169913423,-64.271520448,-65.055933732,4070.0
13.576736199,37.222935875,-71.575925788,-20.066937269,4080.0
13.592752653,58.178859324,-75.111661921,13.100705929,4090.0
13.986363548,78.174520773,-72.023168404,15.8003247,4100.0
14.987098516,97.080031907,-70.221648669,1.7635336351,4110.0
16.558047958,114.60819969,-69.788256669,-22.080674985,4120.0
18.629451335,129.19768931,-67.266635935,-55.757259,4130.0
20.711835321,137.85233421,-60.977674271,-57.809227985,4140.0
22.162769577,143.11115332,-42.078141004,-62.699627234,4150.0
22.97006127,153.32774063,-44.809913413,73.854898584,4160.0
23.789400962,175.36168026,-56.990156438,72.620837285,4170.0
23.995356407,-150.13924817,-66.825444466,9.9137035776,4180.0
22.20589085,-112.39377043,-62.110157031,-21.138751803,4190.0
19.494575025,-87.157400977,-62.844941691,-19.464628352,4200.0
17.271145322,-71.333994304,-62.224628814,-23.892129831,4210.0
15.578370262,-58.947900518,-61.616934158,-33.213860918,4220.0
14.073675936,-46.787164063,-61.725163154,-39.687664479,4230.0
12.696641675,-32.936851536,-61.221845738,-44.951573502,4240.0
11.565951872,-17.299418585,-57.016911541,-47.551163614,4250.0
10.759494293,-0.45658331577,-55.166747167,164.09915284,4260.0
10.3687839,17.319088382,-69.65816941,129.61308494,4270.0
10.452732157,35.994336631,-75.097299991,103.95761642,4280.0
10.979988813,56.88965989,-73.477536645,77.951264976,4290.0
11.667941265,81.390421626,-74.467169275,50.278526777,4300.0
12.059245928,109.01281173,-79.489693853,-9.7771637121,4310.0
11.886382112,137.47366525,-73.987760811,-63.122411494,4320.0
11.270331442,165.18958574,-66.130827662,-86.469924325,4330.0
10.421718502,-168.56030994,-61.297238778,-100.40900086,4340.0
9.5725472429,-143.65717225,-57.160917219,-121.84923293,4350.0
8.7981377028,-119.83539704,-55.95130858,161.80256089,4360.0
8.1812729696,-97.274495561,-69.75232044,108.75323382,4370.0
7.7991204723,-75.71931501,-72.580129396,-166.64461029,4380.0
7.6694723883,-54.489953499,-68.506019897,-167.21009767,4390.0
7.7034181194,-32.317700025,-67.738276044,-177.14701003,4400.0
7.6865899553,-9.5745533715,-66.070170613,155.03232793,4410.0
7.6164217149,13.040587291,-62.508635493,119.38203616,4420.0
7.5399018878,35.893684986,-58.900916012,90.469143911,4430.0
7.4588595655,59.181648919,-57.583188281,70.598380384,4440.0
7.3924448452,82.503222154,-59.42438261,61.745126197,4450.0
7.3186266711,106.64411388,-61.262916161,55.376236836,4460.0
7.2162060284,130.77922266,-61.829452338,33.628803698,4470.0
7.1733045519,154.92049884,-64.941532764,12.918656846,4480.0
7.2037492325,179.22863069,-66.453119375,28.497561206,4490.0
7.2396129009,-155.74968284,-63.702750879,36.426710443,4500.0
7.1735278077,-130.35830741,-61.524227128,13.476930553,4510.0
6.9951843437,-105.49808301,-62.619484021,-24.507476461,4520.0
6.7423376135,-81.178642066,-64.553607474,-43.200710423,4530.0
6.4363644292,-57.55778984,-66.200750219,-37.577760988,4540.0
6.1443826171,-34.82983739,-66.523450698,-22.512400183,4550.0
5.9206052352,-12.796741887,-66.678306524,-4.6100904049,4560.0
5.7578258838,8.7713072993,-66.153566216,2.1820265023,4570.0
5.6961339487,29.979377581,-64.900808113,-9.3696135146,4580.0
5.7201896696,51.362087618,-65.709227834,-6.2835778547,4590.0
5.8486566539,73.04964439,-62.112668521,11.574386911,4600.0
6.0706163811,95.773494941,-57.191875998,-18.268075328,4610.0
6.2713554492,119.22994318,-61.023796784,-67.421072964,4620.0
6.478061072,143.71239328,-64.192648481,-81.578570122,4630.0
6.5855752505,168.97059816,-65.36869393,-82.945840899,4640.0
6.5522478256,-165.52126431,-65.629781737,-77.152702478,4650.0
6.4424232239,-140.00868573,-65.485280605,-68.337835571,4660.0
6.2581975634,-115.15134164,-65.191983689,-65.998692552,4670.0
6.036241661,-91.093430174,-63.374465698,-76.780789968,4680.0
5.8286118494,-67.654779999,-61.699186288,-94.607512931,4690.0
5.6551839071,-44.911906291,-63.593811754,-90.895051787,4700.0
5.5374088174,-22.609512538,-59.457467629,-98.703917393,4710.0
5.4691358372,-0.58164912287,-67.159432924,-155.571673,4720.0
5.4444418792,21.408061622,-74.456185035,-162.82665317,4730.0
5.4426496532,43.328586733,-79.127437849,-163.4590149,4740.0
5.4889010499,65.333773594,-81.421200359,-170.10045072,4750.0
5.5513310688,87.695002618,-82.548261819,-174.97113253,4760.0
5.6275219884,110.27623244,-82.948700366,-154.334592,4770.0
5.6914596955,133.21632686,-81.210816366,-153.6941807,4780.0
5.784718133,156.4065738,-76.953897694,-159.74359661,4790.0
5.9252564492,179.96402712,-75.674485177,-118.56880842,4800.0
6.077866693,-155.86329081,-61.605401429,-124.80767405,4810.0
6.1840308277,-131.16627467,-66.041133888,171.42515347,4820.0
6.2255430442,-106.07140161,-73.184781096,154.75288929,4830.0
6.1803365369,-80.93947573,-78.694911602,141.71129982,4840.0
6.0402340414,-56.273896113,-81.208842604,117.71191611,4850.0
5.8433819846,-32.193932571,-80.851848098,92.648979021,4860.0
5.6054638062,-8.8518911899,-79.821505615,86.835216883,4870.0
5.3740142126,13.429942712,-77.586208554,85.280283988,4880.0
5.1798101205,34.718994442,-73.588349709,69.286751885,4890.0
5.2476173264,55.354611097,-68.490201242,58.455296516,4900.0
5.3924374325,76.956513838,-63.472321186,47.272041848,4910.0
5.5900232665,98.851555552,-65.10019311,11.497019193,4920.0
5.8292412351,121.57229271,-71.322039333,0.75951180341,4930.0
6.0661139204,145.00048742,-76.135698243,0.6503085541,4940.0
6.2387014934,169.25064713,-75.680988905,8.5116827096,4950.0
6.2886680329,-165.66946979,-73.474069373,14.166012411,4960.0
6.1903208008,-140.35996098,-72.592365457,21.920929203,4970.0
5.9429042341,-115.95637813,-71.665929656,38.846953518,4980.0
5.708686044,-93.07592318,-68.413747024,35.644171517,4990.0
5.6848298117,-70.771603661,-63.533414854,15.164914339,5000.0
5.8277129966,-47.853103617,-59.378525162,-29.980081355,5010.0
5.9925024268,-24.406808487,-63.947142467,-34.609199205,5020.0
6.1085566936,-0.84003751795,-64.451556939,-29.425239658,5030.0
6.1499850869,22.775701057,-64.73620475,-41.797547291,5040.0
6.0998892698,46.398811073,-63.152890494,-56.874658166,5050.0
5.9785113541,69.945637247,-60.263874182,-58.174947693,5060.0
5.7312015298,92.983452663,-56.96635725,-46.122569246,5070.0
5.4394418933,114.7385953,-55.878031917,-26.019058338,5080.0
5.323250477,135.14782876,-56.50578729,-22.719727628,5090.0
5.6413887102,155.8373035,-55.540092894,-44.955830663,5100.0
6.1850292098,178.0677253,-54.817950272,-93.062679443,5110.0
6.7784281341,-158.08175481,-60.579585396,-109.55285641,5120.0
7.342762366,-132.83725725,-61.741391184,-90.598682938,5130.0
7.7485174044,-106.23176251,-59.872666165,-98.14110228,5140.0
7.7926896063,-78.221757122,-57.262512455,-118.2803318,5150.0
7.2999967267,-50.131122018,-54.1444336,-130.41205103,5160.0
6.2593590103,-24.560482296,-52.031363976,-129.73365987,5170.0
5.1720029275,-4.2632158704,-52.909771954,-123.80019816,5180.0
4.8632416113,13.586023716,-55.538605426,-108.00248831,5190.0
5.2762315271,33.499172779,-57.771765787,-116.19265348,5200.0
5.9797786612,55.381555937,-59.190760534,-130.16978041,5210.0
6.7962070932,78.382581198,-61.81720197,-125.72350591,5220.0
7.6749324817,101.92765416,-61.188864246,-92.982741999,5230.0
8.5138538821,126.54268782,-56.247950998,-92.407903989,5240.0
9.0622369946,153.83820191,-49.907597704,-121.79798856,5250.0
8.8641240791,-175.63360457,-47.470426335,-165.895565,5260.0
7.2069304599,-146.64150888,-50.145525098,-176.17827347,5270.0
5.1973937906,-129.50355172,-53.910447717,-160.22054139,5280.0
