S11m,S11p,S21m,S21p,Frequency
5.7189887799,-60.135354492,-50.318025971,-3.8736221144,2000.0
5.3843253834,-30.857727166,-55.798073735,-3.6627498293,2010.0
5.4200779797,0.74719816163,-62.848005389,-3.9617078234,2020.0
6.1223634247,34.205390184,-69.603828025,63.961904968,2030.0
7.947081494,67.579761252,-55.63397894,81.817274678,2040.0
12.605662547,84.171670712,-42.370944201,43.015482545,2050.0
11.233028676,65.629881499,-31.430858703,-56.467790552,2060.0
7.6962343129,87.908046351,-34.366908858,163.83641133,2070.0
6.2673454695,117.86798436,-42.509011525,122.40453581,2080.0
5.5783767814,146.82891485,-46.788678953,103.92756747,2090.0
5.2976363559,174.40521995,-50.714072004,93.014840984,2100.0
5.0395666793,-158.19040421,-55.295290295,95.604669136,2110.0
5.1366122774,-128.56408013,-57.697304902,110.39893599,2120.0
5.6361342195,-96.976983737,-55.490601604,126.47876096,2130.0
7.3418173694,-65.066936516,-47.041314234,125.45051591,2140.0
11.710362211,-48.673239724,-26.839092313,69.411826889,2150.0
10.497899797,-63.581734952,-37.011445743,-150.30494457,2160.0
7.2278266112,-39.983297521,-47.720819489,173.06907419,2170.0
5.8658573808,-10.7461425,-53.514589984,156.39292691,2180.0
5.2706142454,17.925938645,-56.729087057,144.81959949,2190.0
5.0266309572,46.33079403,-58.476753673,131.41203654,2200.0
4.9630342787,74.567835024,-62.419798811,129.95711388,2210.0
5.0333581254,103.41235393,-58.902670327,162.75113282,2220.0
5.5020464523,133.39448651,-52.276121738,157.73259165,2230.0
6.9755137023,164.99420991,-41.366550592,166.64019853,2240.0
10.839953876,-175.86965338,-35.140963135,-90.483543799,2250.0
10.210388505,171.22721586,-44.897071548,-131.23484883,2260.0
7.0537805939,-167.20942921,-53.604705937,-143.38548271,2270.0
5.7874693028,-138.34708664,-58.881251978,-146.0493531,2280.0
5.2184178809,-109.94978177,-62.457696948,-148.30841665,2290.0
4.9481492876,-81.843566364,-65.163072359,-148.67973011,2300.0
4.8260948013,-54.044229324,-66.627910583,-140.9980871,2310.0
4.8974632813,-26.102997716,-64.361395561,-116.63921325,2320.0
5.2527348268,3.2725099264,-55.567667945,-105.05801897,2330.0
6.5141663514,34.02998453,-38.640715727,-63.628470368,2340.0
10.227434249,53.578426772,-42.435315722,-11.077977103,2350.0
9.6385338271,41.981777322,-49.293298758,-80.018958888,2360.0
6.6110226525,63.728472306,-59.429872046,-108.44430088,2370.0
5.4558232468,92.215145843,-68.013711362,-106.42228456,2380.0
4.9374262715,120.09078716,-73.328777189,-82.252726298,2390.0
4.7443439918,147.31375219,-73.709627046,-58.96978586,2400.0
4.7279254188,174.42867555,-71.485503603,-40.823196219,2410.0
4.8595088669,-157.86791599,-66.834286934,-31.971589804,2420.0
5.2453688365,-129.12711066,-59.453232849,-31.930545657,2430.0
6.3918237235,-98.773778156,-40.847872422,-34.045639436,2440.0
9.7232151929,-75.743423309,-46.863055671,101.97316982,2450.0
9.960276706,-85.884881883,-53.015138695,38.971081976,2460.0
6.7618303277,-65.478291525,-59.861198562,8.5592498127,2470.0
5.4841683859,-36.294718294,-64.178728902,-6.907175152,2480.0
4.959555714,-8.1022598977,-66.385590483,-14.328603302,2490.0
4.7517845367,19.326959392,-67.489503057,-20.487002936,2500.0
4.6513416094,46.121851457,-67.882510781,-28.384356765,2510.0
4.6947386918,72.91429827,-67.258261396,-34.086052723,2520.0
5.0160681155,100.71279798,-64.047763007,-21.949600431,2530.0
5.9506207565,129.71844559,-51.568977453,-18.31386714,2540.0
8.7662713176,153.81178262,-48.473963271,139.41975284,2550.0
9.8637933028,146.37463096,-56.972771619,57.375740177,2560.0
6.7445364432,162.70928311,-67.821787692,3.1761382173,2570.0
5.4656524946,-168.66687992,-74.600537785,-23.295778289,2580.0
5.018475999,-140.19692441,-77.824623515,-42.139330268,2590.0
4.822681656,-112.63144473,-78.768336527,-53.57800005,2600.0
4.7854210036,-85.32945067,-77.396872671,-68.333861686,2610.0
4.8959406494,-57.441323311,-73.805180145,-96.106278591,2620.0
5.1317977289,-28.916428549,-67.395408532,-125.25789007,2630.0
5.8031316204,0.97109785813,-54.700929703,-160.34806207,2640.0
8.18528505,30.060175636,-45.487505803,41.564117623,2650.0
10.803726945,23.714479732,-48.72889332,-51.745103123,2660.0
7.1290087584,34.682446901,-57.762844878,-105.63181094,2670.0
5.4750387536,63.077441556,-64.193308509,-121.55674195,2680.0
4.9112213498,90.84747298,-67.900013282,-130.29138571,2690.0
4.6917454636,117.45141862,-70.201002641,-136.62949306,2700.0
4.6685631267,143.72246943,-71.569584778,-141.98130597,2710.0
4.7732352416,170.19440545,-71.385882893,-146.37491973,2720.0
5.1042029182,-162.40963481,-68.847392957,-150.78089893,2730.0
5.9171911724,-133.47119428,-61.058713431,-164.50665703,2740.0
7.9798872717,-105.00397949,-53.202254186,141.10376923,2750.0
11.690129863,-100.62391594,-48.892677092,67.930987994,2760.0
8.1379927967,-100.32361952,-53.8148866,4.5581248976,2770.0
6.0677182328,-69.856409536,-57.449534585,-11.433824324,2780.0
5.3937568161,-39.103461917,-59.189339049,-18.249367026,2790.0
5.0635679418,-9.853679268,-60.195586399,-28.841905527,2800.0
4.8881105685,17.267511727,-60.551667171,-44.584278835,2810.0
4.9302447974,44.956102565,-61.365630921,-60.638499625,2820.0
5.0617450167,72.653766539,-61.426649324,-84.44954311,2830.0
5.5612812623,100.62346777,-59.948302754,-108.07081282,2840.0
7.1336738833,128.34461606,-56.426206191,-131.35738559,2850.0
10.398796641,138.77892037,-51.5332701,166.74244031,2860.0
8.3768079257,132.30433626,-54.538689651,80.100009758,2870.0
5.8450409557,158.09605833,-59.642314093,40.284039309,2880.0
5.0706490643,-173.08999608,-63.488111118,10.496572161,2890.0
4.875391566,-145.62444117,-68.931501551,-11.181153778,2900.0
4.9609286757,-118.40773476,-74.140271177,-19.963552882,2910.0
5.1471854216,-91.020653197,-77.634343,-20.980144542,2920.0
5.4955155972,-62.619630732,-81.406522971,-36.136698129,2930.0
6.133899268,-32.526387001,-87.202608093,-108.64829437,2940.0
7.6429591397,0.24195461654,-76.576722612,162.69817492,2950.0
12.193052544,21.694648352,-64.639332498,113.64528645,2960.0
10.904901307,0.34180653042,-62.08862054,14.062388863,2970.0
6.946671066,27.280388893,-66.085190777,-59.500009598,2980.0
5.7181954168,59.565323575,-70.756582935,-166.88616882,2990.0
5.2192007703,89.227578102,-72.451197593,111.74064127,3000.0
5.0444127093,116.89636292,-72.713104072,78.727195998,3010.0
5.0446914686,143.35978623,-73.088113614,58.260319785,3020.0
5.2408869771,169.95288969,-73.023953838,47.572898197,3030.0
5.7976252146,-162.43080701,-71.083212723,44.30545032,3040.0
7.0553266377,-134.70038878,-67.130374691,28.486314396,3050.0
10.446925845,-109.23245965,-58.784318804,3.0477700477,3060.0
12.324904106,-134.02751104,-51.913722037,-79.841527186,3070.0
7.3269929584,-113.33976926,-52.998155253,-126.11008508,3080.0
5.9825890919,-78.986993344,-52.7426738,146.56797504,3090.0
5.6825469398,-47.818507095,-62.768985287,114.10217934,3100.0
5.7563653412,-17.094740178,-66.920832029,116.60136485,3110.0
5.9463083218,12.53672679,-67.2447771,124.03058666,3120.0
6.123910271,42.751828668,-68.419450045,130.37244326,3130.0
6.5897582036,73.957800935,-67.816597878,124.8013572,3140.0
7.677367282,105.49991663,-65.427745421,114.61895328,3150.0
10.532821506,134.07327801,-59.310675901,86.363363075,3160.0
15.580447071,120.958027,-51.757907511,7.7030188162,3170.0
8.9643900777,117.19646789,-57.029225853,-52.702857572,3180.0
6.3055257381,152.0902165,-53.579637603,-96.264817063,3190.0
5.6436890675,-175.91509864,-64.488440076,174.29572105,3200.0
5.5695194629,-146.61951767,-71.415570173,174.85532695,3210.0
5.7734751991,-118.34707839,-73.204969584,172.66077768,3220.0
6.2873396382,-89.830778585,-73.820823764,177.94198316,3230.0
7.0589714568,-59.55854428,-71.887552025,165.89247689,3240.0
8.6481472458,-26.047437945,-68.33964339,156.97943062,3250.0
12.515184092,9.0632242509,-59.878199158,150.01645699,3260.0
22.30745881,-19.309795787,-46.365140627,66.644915257,3270.0
11.01226447,-30.383664169,-55.108637846,1.89227516,3280.0
7.6703260046,13.432391261,-54.108482817,-4.3017302624,3290.0
6.7840865134,52.884119563,-52.789777737,-120.66153945,3300.0
6.5284171546,88.048053305,-64.04921589,-119.44386437,3310.0
6.5594736938,120.28604204,-67.146732658,-113.23927974,3320.0
6.8265047309,150.98347187,-68.204111614,-111.256396,3330.0
7.397366227,-178.50043996,-67.735806792,-109.97172328,3340.0
8.5916828576,-147.81085057,-65.583346176,-114.91324112,3350.0
11.21526261,-115.57151119,-60.375838673,-119.13672428,3360.0
22.207444227,-101.05565092,-46.097295604,-145.11170599,3370.0
12.472693782,-171.17053303,-53.272963086,101.84104142,3380.0
7.6678756549,-126.1442402,-55.562663955,104.04020915,3390.0
6.66103091,-86.098653201,-44.16372265,81.861913324,3400.0
6.8964077435,-50.582283228,-62.787335451,-30.558476424,3410.0
7.5777695087,-15.902878992,-67.927625479,-9.9884336105,3420.0
8.5484287694,19.557470926,-69.246703153,5.4801831991,3430.0
9.8739092878,56.972531062,-68.567555039,20.489006379,3440.0
11.775651757,97.658729178,-67.547351042,33.575373076,3450.0
15.448866511,138.6380498,-64.974078346,33.267758471,3460.0
23.597944368,-133.23846093,-55.149022014,83.533574344,3470.0
15.634343188,27.084937145,-60.114817647,-154.18145043,3480.0
9.8837686296,93.750918853,-62.004429832,-127.28404426,3490.0
8.0051598808,145.10002895,-57.597675518,-105.54324592,3500.0
7.6741511286,-172.98880731,-58.944143491,72.555566184,3510.0
8.0468291392,-136.39068673,-71.435421858,115.71385317,3520.0
9.0638316518,-102.11772375,-71.523009268,130.91016398,3530.0
10.693392734,-66.731827472,-70.711370828,140.68495359,3540.0
13.624945736,-26.131225283,-69.845691194,150.48508656,3550.0
19.850127183,30.538663966,-68.751490031,169.32975819,3560.0
20.329109488,166.24613917,-84.047014691,129.35796553,3570.0
12.670818957,-119.0555065,-69.172368055,146.58890039,3580.0
9.5224018585,-61.491436283,-63.802838177,175.62579088,3590.0
8.8796716178,-7.2029470012,-53.816177534,-136.69369658,3600.0
9.7175267853,44.214428748,-54.239560613,0.14365637396,3610.0
11.197594471,94.529213298,-63.57575047,52.196582886,3620.0
12.791563637,145.0044416,-66.482513957,92.789299601,3630.0
14.323619749,-162.15410114,-67.289873847,121.8036909,3640.0
15.397355345,-104.75534405,-68.72195841,137.68755041,3650.0
16.369480002,-43.097344556,-66.423330545,137.37579861,3660.0
15.742574254,29.162256736,-62.340199537,156.53903264,3670.0
12.890185968,99.269556317,-58.500334178,-179.96529599,3680.0
10.057121015,160.68430447,-49.182335603,-167.37504679,3690.0
8.813797625,-143.59481235,-53.238852224,76.58205935,3700.0
9.481468004,-92.444729278,-59.392498653,77.391228912,3710.0
11.846052724,-44.193398898,-63.03034503,80.562072831,3720.0
16.582815848,6.3064703376,-61.65817828,123.00824176,3730.0
22.580034852,88.896472774,-52.715621974,-178.88952185,3740.0
18.240935043,-171.27152838,-52.696080716,-118.70232766,3750.0
13.797975379,-118.97725242,-40.667231113,-116.11844385,3760.0
11.154953462,-76.261406825,-53.750348633,38.986807742,3770.0
9.6296064943,-33.964138914,-58.735392128,50.874255268,3780.0
9.0384639874,12.045247024,-61.312651751,63.556482388,3790.0
9.4774794671,64.127401281,-62.202659013,77.473125473,3800.0
11.497411507,123.26986152,-61.611574988,84.721520063,3810.0
15.595552293,-169.68969419,-59.896088262,92.019277419,3820.0
20.759344853,-83.433218089,-58.131951577,111.88401467,3830.0
19.938527853,19.779097099,-59.164780726,170.4802672,3840.0
15.641978913,85.967031457,-57.83669407,153.95168211,3850.0
12.360316946,132.88816675,-62.448108426,126.43709792,3860.0
10.065151637,172.40764472,-66.897923758,123.52735326,3870.0
8.4278290404,-149.97854307,-68.822704371,126.39362571,3880.0
7.5242207298,-112.95577856,-68.549075643,129.45853981,3890.0
7.6158688653,-73.771877896,-67.142250607,133.36266872,3900.0
9.729349019,-30.8321645,-64.142162627,135.10591242,3910.0
17.196666933,5.3499142181,-57.07410192,127.41427803,3920.0
20.324571646,-76.310946969,-54.07344156,-12.936539219,3930.0
13.308855144,-58.723580182,-60.693897571,-56.914675694,3940.0
10.210445947,-25.057025558,-64.285878212,-106.87180385,3950.0
8.9452994319,6.1472662497,-69.704730138,-139.04715264,3960.0
8.2331219377,38.282642908,-74.476926407,-139.0023275,3970.0
7.8761536435,71.943053718,-76.762010152,-139.11635685,3980.0
7.7305682393,108.29677778,-75.890899919,-134.05810887,3990.0
7.9204332683,148.3821248,-72.650003495,-125.01858052,4000.0
9.322924895,-166.73222264,-68.010567002,-117.73858063,4010.0
14.827056949,-124.69261134,-59.761624463,-121.98550134,4020.0
20.511067117,-170.78403497,-52.881510293,134.60947326,4030.0
12.598561508,-163.68711775,-59.894941614,79.035009087,4040.0
9.4419827799,-133.19728416,-62.247309256,23.317284007,4050.0
7.8737643961,-104.18339575,-67.798305403,-20.555494623,4060.0
6.9529137447,-76.248208409,-71.313505166,-38.310911911,4070.0
6.4053141413,-48.69048029,-73.297716108,-45.628315143,4080.0
6.1579465706,-20.584678603,-73.819139045,-55.518250929,4090.0
6.3893448854,9.5260610613,-72.54407857,-68.96607242,4100.0
7.7759927091,43.172753525,-68.742318223,-85.121456769,4110.0
12.160584927,70.204747836,-61.157233547,-116.5109119,4120.0
14.311798228,48.02429367,-56.216190908,162.07934017,4130.0
10.288845833,62.097240014,-57.605000858,123.26355024,4140.0
8.5408719778,92.026250419,-56.227150422,59.999921082,4150.0
7.734683885,123.20313603,-65.228175707,27.371918208,4160.0
7.175837035,154.43166527,-66.776373404,30.080794593,4170.0
6.7404901556,-175.4660559,-68.132414613,35.184987474,4180.0
6.4886886631,-145.11160052,-69.937621806,41.591946476,4190.0
6.3908293584,-114.52079985,-70.687545077,37.383629346,4200.0
6.8950789846,-82.519415534,-68.222187988,22.349643495,4210.0
9.3598651439,-54.137928303,-62.465248587,-6.728859989,4220.0
11.473902983,-57.729996841,-58.148234307,-74.255203817,4230.0
8.6561204491,-48.827615861,-58.582799816,-128.23022504,4240.0
7.0289055894,-25.301510574,-56.990010842,165.39118005,4250.0
6.2551840481,-0.16362428356,-66.237445468,98.057370369,4260.0
5.9442652237,25.076940547,-70.537783126,97.130905556,4270.0
5.847715689,51.511124337,-70.950824884,98.715223395,4280.0
5.8649865365,78.364829528,-70.792566615,100.98726407,4290.0
6.1160048164,106.54212646,-70.557005561,92.090018234,4300.0
6.7954656012,137.31662347,-67.746807946,89.368630251,4310.0
8.9488978934,169.12784552,-63.113012086,74.856616964,4320.0
11.782149235,172.70426572,-59.10192026,13.678768786,4330.0
8.9929062983,-177.16444688,-61.578831867,-50.643806215,4340.0
7.3531526467,-150.09927958,-62.715063081,-110.75015857,4350.0
6.5067114481,-122.47171414,-69.877166276,-172.4606744,4360.0
5.9594366614,-95.416789145,-79.142229334,168.97567435,4370.0
5.570455813,-69.592649335,-84.627976122,-171.26763033,4380.0
5.3659222068,-44.514611043,-81.484414183,-163.56107146,4390.0
5.3526196348,-19.275525508,-76.910577023,-169.39487389,4400.0
5.6366817118,6.5841971773,-70.464052313,-171.72381939,4410.0
6.8320177511,31.889895079,-61.651828346,164.8691322,4420.0
8.9358189876,45.33684511,-55.200230878,105.34313107,4430.0
7.9135730605,51.400224738,-57.221390632,24.834579645,4440.0
6.60316225,74.500817533,-64.068298584,-19.216113781,4450.0
6.0204365857,101.02915911,-70.472594013,-38.206926426,4460.0
5.9104541443,127.36075058,-75.305031373,-38.598490847,4470.0
5.9564260187,154.62458163,-77.58626736,-35.452919916,4480.0
5.8834046565,-177.75236119,-76.548599473,-34.107769156,4490.0
5.944176696,-149.84757999,-71.803113354,-47.448056654,4500.0
6.1142541535,-120.91721458,-65.761972809,-94.096718882,4510.0
6.8700418903,-92.190268806,-64.315963164,-169.73904427,4520.0
8.5731128134,-73.58136812,-63.940648359,134.21462022,4530.0
7.8503370448,-64.54994924,-66.932831877,78.350815746,4540.0
6.3861090982,-44.118162428,-73.50838539,50.22087725,4550.0
5.6211533845,-20.207057267,-79.594942771,40.259029824,4560.0
5.249363328,4.2455046265,-85.708581,31.048340612,4570.0
5.1274633883,27.682708155,-92.45403545,-1.2242692913,4580.0
5.1004707484,51.708691979,-91.649332695,-67.277998794,4590.0
5.0693534841,75.297133695,-80.587621134,-102.1265807,4600.0
5.49572494,100.41556975,-66.841491252,-172.53197817,4610.0
6.0501537495,125.8507583,-71.772312096,92.49660714,4620.0
7.7003946139,148.9635769,-71.301627947,49.319370692,4630.0
8.1609429245,158.12075234,-70.709447413,-8.2574649388,4640.0
6.8439773317,179.30603829,-74.074485058,-38.102618743,4650.0
6.1958097627,-154.69934315,-77.821683012,-51.375538769,4660.0
5.8328990899,-127.6981462,-82.844652438,-54.580881341,4670.0
5.6019347728,-100.93192616,-85.086854868,-49.532215776,4680.0
5.4534777606,-75.074222151,-82.462986427,-16.47883116,4690.0
5.3713036785,-49.950726736,-75.641226686,16.353973978,4700.0
5.4129327838,-24.934472709,-56.056516889,20.416452205,4710.0
5.7001441903,0.87494067313,-69.509285674,-147.47390029,4720.0
6.600477568,24.130662187,-74.355739676,176.2577566,4730.0
7.5945700346,35.635857373,-75.26365275,114.62876704,4740.0
6.3645333281,50.154821796,-80.852283832,76.766594053,4750.0
5.6354672529,74.66883265,-88.477465291,61.80279359,4760.0
5.3379910769,98.931210373,-91.349019009,70.238582109,4770.0
5.3900116106,123.20144527,-95.320998121,82.02819507,4780.0
5.5322586363,147.9516675,-89.937943217,80.768781741,4790.0
5.670676467,173.49737805,-83.157781711,98.503829408,4800.0
5.8021512739,-159.93337668,-70.955489743,153.06343297,4810.0
6.1737407939,-132.06611129,-75.69532427,-32.476214054,4820.0
7.1058259852,-105.65154202,-79.04262539,-5.9644359234,4830.0
8.1271235541,-89.062994307,-77.552172769,-30.238360447,4840.0
7.0829079936,-73.689812884,-78.685126192,-71.431047492,4850.0
6.0170293857,-49.826990528,-83.040248066,-93.281074867,4860.0
5.4833593282,-24.83306281,-87.574028964,-116.86259128,4870.0
5.3191772478,0.53784495492,-86.364525084,-156.32731381,4880.0
5.0737811507,24.097174005,-83.993902527,169.36943219,4890.0
5.1209083151,44.037794671,-79.877071727,155.5590779,4900.0
5.6968066546,70.933985515,-66.21088292,159.90663059,4910.0
5.5184128883,95.129248607,-65.478320887,-52.51911446,4920.0
6.1631901366,120.09821752,-71.016208838,-56.235116996,4930.0
7.488133514,138.01776072,-72.905922989,-79.046400195,4940.0
7.0476308679,150.42560904,-77.552013063,-120.39943104,4950.0
6.1314665828,174.07531613,-81.24441718,-145.38289594,4960.0
5.800778785,-160.01125369,-81.175846075,-153.41713331,4970.0
5.6923883988,-133.96372467,-79.852421304,-143.02539223,4980.0
5.626730523,-107.68788898,-77.549534865,-136.78230583,4990.0
5.5754782742,-81.567120601,-74.632014112,-135.95280559,5000.0
5.5671853799,-56.315491935,-66.650406533,-145.60176031,5010.0
5.6032242781,-31.532904933,-54.94739357,67.810900994,5020.0
6.0169558068,-6.1437421258,-66.659345181,36.099083574,5030.0
7.1064130869,15.308732021,-69.085760898,12.314215253,5040.0
7.2471804853,26.626542745,-69.996629071,-26.734870406,5050.0
5.7824480434,45.742124188,-73.990910984,-52.358826597,5060.0
5.3290810096,69.701241713,-74.197412512,-37.065988131,5070.0
5.286571218,93.351581956,-73.750078814,-10.502305308,5080.0
5.3156971957,117.846365,-72.928919499,-25.59709022,5090.0
5.4749735512,141.77390733,-70.898854271,-29.768609374,5100.0
5.5887675095,165.72963943,-66.751708792,-38.77439853,5110.0
5.8737088236,-169.34737805,-60.683957915,-93.563250853,5120.0
6.4610081932,-143.90757351,-64.43759627,-178.52789309,5130.0
7.6028195413,-120.84608395,-67.076354874,148.80631026,5140.0
8.2562523513,-107.79617224,-64.684974689,123.25264374,5150.0
6.8089494554,-88.042759733,-64.77669436,94.430997539,5160.0
5.9863198601,-61.020613539,-65.88840842,80.345074566,5170.0
5.6907136,-35.04894789,-67.682401897,77.618113857,5180.0
5.5995690075,-9.4400501259,-67.629267002,93.152735013,5190.0
5.8780959212,17.860184026,-69.063313834,85.271904591,5200.0
5.7204092296,42.756546826,-66.632021259,77.996325303,5210.0
5.7885176547,66.84663706,-66.622571327,64.395178686,5220.0
6.1081387811,91.046796732,-63.975930305,44.661091618,5230.0
6.9917548311,113.98128278,-60.799010515,-6.5318894844,5240.0
7.9112737221,127.26233927,-58.97033524,-67.828654962,5250.0
6.7056362652,141.76757884,-60.350856997,-121.5166436,5260.0
5.7839504958,166.77471513,-63.050746946,-142.0399514,5270.0
5.5848624524,-167.44481416,-67.014230414,-140.22505917,5280.0
