S11m,S11p,S21m,S21p,Frequency
7.1510429603,-73.599919756,-48.108940289,-50.491491106,2000.0
6.69310648,-41.603692028,-56.753877225,-91.49477774,2010.0
6.2072716945,-8.2668314419,-65.590196748,-75.820602659,2020.0
6.3813971281,27.050724356,-56.759477752,-60.362742097,2030.0
7.170079442,63.415151882,-61.636651461,-137.34878743,2040.0
9.6325819465,101.47493274,-59.570194531,-149.1365332,2050.0
17.312534704,115.57261544,-48.477435769,161.34928988,2060.0
13.379811928,72.963641693,-50.494960762,40.375864079,2070.0
8.9493706008,101.37725711,-51.554390972,-4.7941959215,2080.0
7.2078222082,133.61290904,-50.126203849,-44.783503026,2090.0
6.4110159297,164.05212681,-50.684277133,-111.38417043,2100.0
5.9631543734,-166.94707642,-54.904117739,-169.21067623,2110.0
5.6510873274,-136.57195584,-62.55254809,166.23943176,2120.0
5.7844160327,-104.19280842,-54.823935893,170.50013039,2130.0
6.562649065,-69.744008454,-56.856133988,67.241798743,2140.0
9.0898138877,-34.130350963,-56.399755886,33.006507614,2150.0
16.224128243,-23.424066233,-49.507402647,-26.458202989,2160.0
12.329831695,-54.974813049,-53.203974822,-133.34679797,2170.0
8.2516960598,-26.121581328,-57.140679817,-174.45778036,2180.0
6.7243841388,5.8751422403,-56.885576782,142.53238235,2190.0
6.0490408684,36.810551975,-56.337330775,97.585662297,2200.0
5.7329285923,66.752044041,-58.405853559,47.613714771,2210.0
5.5655165595,96.852921306,-60.075137586,-5.7536316601,2220.0
5.6476883734,127.26261023,-59.936301589,-17.562147513,2230.0
6.2538172931,159.73139343,-56.949660432,-107.76533258,2240.0
8.2556744759,-166.14374945,-58.208784744,-138.35113408,2250.0
13.81599236,-151.04811987,-52.161350568,172.89380334,2260.0
11.721491137,-176.89980914,-54.354547809,76.632028669,2270.0
7.924394654,-152.21613769,-57.755907909,24.26710996,2280.0
6.4575614227,-121.75502599,-58.460841457,-10.435426231,2290.0
5.780829236,-91.737484006,-61.86521402,-44.34106137,2300.0
5.4557621531,-62.082792256,-63.513343492,-82.868659936,2310.0
5.3443144962,-32.788276465,-63.45202473,-113.9771604,2320.0
5.4814205517,-2.5460954307,-62.716850288,-141.08709477,2330.0
6.0487679378,29.47508736,-53.619818968,136.58374491,2340.0
7.8819379987,63.388915528,-56.526941704,70.536093372,2350.0
13.293071647,81.246516017,-53.275987173,6.8955450356,2360.0
11.6344063,55.498727418,-57.099284863,-116.16828722,2370.0
7.7620032716,80.211570331,-64.827748218,-155.09602529,2380.0
6.2646008669,111.04604892,-73.485671627,-166.74410284,2390.0
5.6118119016,140.56096813,-74.821674044,177.17724529,2400.0
5.3298929024,169.26452339,-74.026989395,174.92383722,2410.0
5.2603191052,-162.11717469,-70.887012536,157.51319444,2420.0
5.3762121909,-132.99518433,-66.585167442,118.41613673,2430.0
5.8587463431,-102.53273393,-60.619973471,57.915756179,2440.0
7.4561961575,-69.977103118,-60.209240116,-17.36725973,2450.0
12.007567253,-49.458332644,-56.058330732,-79.036998713,2460.0
11.385725297,-70.838959164,-55.444594343,167.34559695,2470.0
7.4959199066,-48.201793019,-61.912427255,94.832997235,2480.0
6.0241450492,-17.826361002,-65.93295983,46.928553371,2490.0
5.436260876,11.298657165,-69.560385463,25.303464807,2500.0
5.1522762631,40.001434517,-71.208900911,-2.9371862568,2510.0
5.0287555941,67.935273286,-70.002965335,-28.828205962,2520.0
5.1647978037,96.123248021,-67.103313539,-69.697634679,2530.0
5.6034825866,125.65714959,-63.192973374,-136.32854956,2540.0
6.9676325232,157.18008958,-64.160200161,147.03936413,2550.0
10.896337415,-179.34717055,-61.576580899,68.335045801,2560.0
11.658403834,162.19331387,-63.775834538,-66.771082743,2570.0
7.732092971,-179.85344703,-73.092524767,-165.6741805,2580.0
6.1838246419,-149.21846043,-80.036299136,141.16863507,2590.0
5.5712063056,-119.00101241,-85.17641182,114.4134036,2600.0
5.3049958034,-90.303542082,-86.002190124,103.25240613,2610.0
5.2341311318,-61.772120349,-84.251707876,52.967200823,2620.0
5.3181722921,-32.820002709,-79.565634666,-3.3225023068,2630.0
5.6076296386,-2.7939715632,-69.664812966,-47.857437589,2640.0
6.6172519314,28.833578668,-63.031742916,-158.9783482,2650.0
9.957187491,56.926176025,-58.585382021,148.78951991,2660.0
12.259073871,38.893220927,-54.603678152,20.257983263,2670.0
7.8048512029,52.646048134,-63.393468436,-66.84657866,2680.0
5.9669494122,82.088484666,-71.843852594,-106.62521373,2690.0
5.2959559899,110.83196833,-76.822411213,-123.5982588,2700.0
5.0883125582,138.54783146,-81.912318563,-130.80475683,2710.0
5.0689997394,166.03889998,-82.478821701,-173.05216625,2720.0
5.2204648813,-166.08949414,-78.264804793,177.08234713,2730.0
5.6558037081,-137.10349046,-72.721248183,159.2999739,2740.0
6.6912292302,-106.41963136,-63.127447709,87.983240366,2750.0
9.4941588877,-76.053556801,-62.443461438,45.322623711,2760.0
14.103226595,-83.559212723,-51.97969801,-42.860901179,2770.0
8.8833792134,-83.107942003,-57.154087833,-157.52021909,2780.0
6.5652243294,-50.594731205,-63.874422233,154.15007514,2790.0
5.7830855107,-18.778140348,-70.370108601,147.33083724,2800.0
5.4581623961,11.189817868,-79.434469429,146.18760619,2810.0
5.2150828622,39.409465998,-74.27873648,102.1834386,2820.0
5.2480498868,67.682540697,-73.301412454,113.81368631,2830.0
5.5003384238,96.188066993,-70.728577263,86.585636933,2840.0
6.2516594175,126.02860648,-60.021752201,27.093877494,2850.0
8.4440780709,154.7061938,-59.667980191,-82.705599912,2860.0
12.950739995,158.49319246,-54.710813848,-152.4179401,2870.0
9.3554064104,146.74035096,-56.97340889,66.135299571,2880.0
6.5220878003,176.00884984,-70.064730882,3.4302477131,2890.0
5.6380038934,-153.2594611,-84.359417868,-39.594504826,2900.0
5.4215242464,-124.14916177,-88.209940544,-60.3752619,2910.0
5.4699093956,-95.27306054,-93.21727508,-24.900855158,2920.0
5.6784550336,-66.06786578,-97.209419827,-33.143027672,2930.0
6.0270164015,-35.723143806,-123.12523466,-160.42690239,2940.0
6.7373836503,-3.5605219245,-83.504199359,122.27793831,2950.0
8.670962238,30.666758078,-70.327293144,30.48803314,2960.0
14.438406509,48.518334633,-65.038568593,-49.750320647,2970.0
11.745501497,18.321352126,-67.224261963,157.01362762,2980.0
7.5006362297,47.30689244,-81.116874683,-28.291551397,2990.0
6.0761177599,80.331693576,-82.700646425,-100.5100437,3000.0
5.5567431758,110.49306062,-83.724632453,-126.43451642,3010.0
5.3768688775,138.88037941,-82.241733862,-149.41408159,3020.0
5.4345240869,166.45684513,-82.081782994,-155.46816141,3030.0
5.745024598,-165.60321974,-77.8159742,-179.02333143,3040.0
6.4224540828,-136.52649983,-68.412722909,156.19565103,3050.0
8.0237914178,-105.98091169,-58.690487384,74.99512791,3060.0
12.848607521,-77.403649597,-58.931738023,9.0006411992,3070.0
14.196631813,-121.44138598,-51.392554511,-89.896172916,3080.0
8.2290732682,-94.507873468,-55.174132334,141.50984362,3090.0
6.6422231658,-57.50312478,-66.336896707,101.71221425,3100.0
6.1938001669,-24.111269502,-71.522536347,106.66666328,3110.0
6.1767970137,8.3792921856,-79.337275991,74.960933025,3120.0
6.201176531,38.951006584,-76.018391766,96.937000812,3130.0
6.4127189464,70.00698855,-71.155949436,69.077042602,3140.0
6.9097898727,101.61065136,-63.949755116,49.0409455,3150.0
8.1698267537,133.77701661,-55.195303991,-21.693748143,3160.0
11.677570867,164.81349727,-56.006157678,-111.49789053,3170.0
17.459274552,131.59681461,-52.373612969,159.36973081,3180.0
9.2796345152,136.24016782,-55.996628743,67.905945221,3190.0
6.7174290808,172.4775338,-66.240660221,-32.601136537,3200.0
6.0915199828,-154.5116471,-73.953783871,-34.289140106,3210.0
6.0022858315,-124.28661781,-79.178704718,-72.189042394,3220.0
6.2309986078,-94.372774865,-76.234339374,-81.181775878,3230.0
6.762962849,-63.654626471,-73.982943925,-96.932418038,3240.0
7.6449054363,-30.649186673,-64.577841844,-121.31676905,3250.0
9.3536837236,5.5135323698,-53.097138155,-176.98501137,3260.0
13.694914612,45.623538719,-52.058018009,101.25445792,3270.0
29.129397118,-10.612878013,-39.714795226,-10.119798308,3280.0
11.788723994,-10.575248235,-52.236914553,-61.862199251,3290.0
8.2049300265,36.630230539,-51.844889734,-153.44327898,3300.0
7.0334271799,76.957334209,-64.824845593,160.4994224,3310.0
6.6775595507,112.14800115,-68.798884168,160.75873845,3320.0
6.6811412575,144.61112777,-71.510057487,166.57566562,3330.0
6.9326570558,175.92054362,-70.229544826,145.21382921,3340.0
7.569132286,-152.79076239,-63.547438453,125.50166989,3350.0
8.8910139904,-121.01395335,-54.7186556,74.16494775,3360.0
12.054718124,-82.471540023,-54.723465805,0.4384060801,3370.0
31.984896693,-58.027821413,-39.749764086,-24.970076979,3380.0
12.413388672,-155.30764335,-55.448374921,-162.72536676,3390.0
8.0636436878,-106.26455013,-52.948338552,157.78634295,3400.0
7.2501963847,-64.787691322,-60.580765813,64.575808179,3410.0
7.3870192818,-27.071590667,-66.624679239,59.451046737,3420.0
7.9657088079,9.5129879652,-69.213440428,68.686632383,3430.0
8.7442961079,46.785786488,-67.000001556,77.392981715,3440.0
9.7360594031,86.171583588,-60.800472462,75.71042939,3450.0
11.179370079,127.27317795,-49.553635954,-0.22432636062,3460.0
13.523452358,171.32302883,-57.842494444,-66.499138225,3470.0
20.701699762,-100.78155916,-55.885547753,-17.491779382,3480.0
15.960156654,48.175257872,-61.020907468,98.011673728,3490.0
10.094996792,117.1716725,-62.509360088,115.283278,3500.0
8.1337104371,167.51329613,-57.951235712,23.547168723,3510.0
7.7081256032,-151.30440123,-67.36584394,-9.6751286132,3520.0
8.0225267636,-114.78024832,-71.740696643,-20.047629617,3530.0
8.8288679956,-79.077002273,-71.73352787,-24.106716374,3540.0
10.293225895,-42.284595664,-65.118464318,-30.702639923,3550.0
12.815099821,-0.062518027873,-66.015707247,-119.0648764,3560.0
16.835786037,55.412473565,-88.219181219,-41.825523656,3570.0
18.560993661,164.91154422,-66.827082161,119.89990211,3580.0
13.414961639,-106.08971471,-66.805154674,168.11846908,3590.0
10.440364109,-40.674931411,-61.738523191,-160.61153904,3600.0
9.6446166565,17.799592163,-49.108155694,126.47369167,3610.0
9.9936778294,71.72521875,-61.572761876,82.196604843,3620.0
10.705269555,122.04942128,-66.85381206,95.985460101,3630.0
11.457257454,169.61675098,-69.157890938,112.74500513,3640.0
12.286277066,-143.68606025,-69.165748081,100.65603515,3650.0
12.911661311,-104.15874011,-73.73007571,-159.63518498,3660.0
15.021972122,-40.312570747,-70.768357792,-94.032469553,3670.0
16.20452339,32.970642647,-65.815106112,-28.35666696,3680.0
13.878723441,114.54222578,-65.082101221,21.67129925,3690.0
10.651538453,-179.08933554,-60.516783708,35.568918257,3700.0
9.2660761878,-121.6008084,-53.094719676,-25.371762126,3710.0
9.6728031437,-69.823573215,-60.41849036,-77.282467608,3720.0
11.624384506,-20.352924652,-60.449977178,-79.336024621,3730.0
14.981645116,32.773608382,-40.500208474,-118.56409533,3740.0
17.541449024,102.89598282,-64.204824827,94.337888037,3750.0
16.577639879,179.90229579,-69.697166095,98.934344695,3760.0
13.948957234,-120.98983454,-68.717226961,122.20375764,3770.0
11.820733399,-71.551112741,-65.189705517,137.44547762,3780.0
10.583771357,-23.045890671,-56.71969483,129.63099305,3790.0
10.086819886,29.342247528,-49.871971598,57.40766628,3800.0
10.368554681,87.865578251,-55.902039342,38.838069909,3810.0
11.726290946,151.99793173,-56.548997465,43.160271437,3820.0
13.978597735,-141.05036466,-52.638576485,60.800966092,3830.0
16.520024532,-71.684364502,-43.251719114,165.59392545,3840.0
18.090210032,5.573671151,-56.926674069,-109.64717137,3850.0
16.289637022,78.662071537,-65.470639428,-40.060587872,3860.0
13.430488606,134.05297958,-65.246423616,5.2661758836,3870.0
11.044058972,179.98098341,-63.689951753,3.6325683987,3880.0
9.2440729883,-138.56636615,-61.473725444,-42.286238428,3890.0
8.251161676,-98.640459111,-63.849533449,-81.679099843,3900.0
8.3256310369,-56.151010481,-65.231226027,-97.219019569,3910.0
10.346760608,-8.4262079999,-62.197597579,-107.02503671,3920.0
17.142480889,45.746805289,-49.441044922,-119.75588106,3930.0
25.929634106,-122.32283662,-32.315485558,-136.22819371,3940.0
14.87110448,-64.265719477,-59.496171244,-170.20956941,3950.0
11.507319913,-24.379609203,-71.349521068,-159.15961115,3960.0
10.062998279,11.84247643,-70.627107613,-138.12541141,3970.0
9.2415283234,47.58391988,-67.068865081,-166.04801062,3980.0
8.7739223285,84.500003879,-67.275026644,170.97113074,3990.0
8.5362279253,124.27248162,-69.193555798,170.72689492,4000.0
8.6102759,167.90627814,-68.892115247,167.77221693,4010.0
9.9630547484,-144.51785125,-63.522405292,159.96537792,4020.0
15.174774762,-94.853309192,-53.066721965,140.89325104,4030.0
29.291497611,-159.44409087,-32.093843943,-72.712744753,4040.0
14.648981345,-161.10611906,-57.506243053,144.88310057,4050.0
10.510221705,-126.58961503,-71.181173117,119.91336954,4060.0
8.6614805889,-95.36964634,-71.429908428,122.2834041,4070.0
7.6258523293,-65.780376221,-70.66606694,57.719888043,4080.0
7.0387948917,-36.281086394,-71.604289004,9.8349624768,4090.0
6.8329830441,-5.9144778843,-70.924142007,-1.8458075314,4100.0
7.1755551821,26.839741576,-69.657395825,-3.8139084582,4110.0
8.6977411401,64.551722581,-65.625038265,-23.232828529,4120.0
13.612054732,101.38887873,-54.517842682,-64.282932574,4130.0
19.877068137,63.680127844,-40.978824153,120.12708453,4140.0
12.798820368,68.854985902,-54.099275344,11.307145184,4150.0
10.010014127,102.9209496,-62.041367362,-31.234109189,4160.0
8.821517854,137.24095687,-69.748836251,-34.14402151,4170.0
7.9728807075,169.83509013,-67.6297182,-73.969726554,4180.0
7.300583386,-158.64895224,-69.140082366,-99.206835407,4190.0
6.8528314497,-127.63252001,-71.27946921,-94.146519832,4200.0
6.6843163079,-96.453546076,-73.945017684,-101.26672177,4210.0
7.2186796686,-64.003608552,-70.360374648,-145.92312791,4220.0
9.8313367018,-34.174510952,-59.794222356,170.98224815,4230.0
13.316452952,-39.374368032,-54.558745362,59.179081373,4240.0
9.9338571691,-39.07478733,-62.370804833,-61.148661524,4250.0
7.8001161469,-15.05067458,-65.229938982,-112.12933577,4260.0
6.8281318857,10.954974214,-69.338667867,-164.88073907,4270.0
6.4424647573,37.545825436,-74.920656608,139.20017668,4280.0
6.3262486784,64.666352448,-73.267899777,97.899609487,4290.0
6.4797899534,93.15930824,-75.742338718,106.42598406,4300.0
6.6904440861,123.60845099,-78.973232278,115.20430607,4310.0
7.4820500071,156.77363387,-75.013767948,64.506095303,4320.0
9.7131137935,-168.66896931,-65.528322413,48.959870242,4330.0
13.880070845,-161.32974247,-60.400790971,-51.671595208,4340.0
10.789235798,-163.40860667,-68.943681347,-161.74758557,4350.0
8.3319841427,-136.05371741,-72.966916834,158.39462024,4360.0
7.138839901,-108.03080867,-74.511279938,121.18081834,4370.0
6.3899491915,-80.552167716,-83.196582528,7.8401604205,4380.0
5.9227265772,-54.378769449,-90.881917283,29.379436065,4390.0
5.7149813906,-28.620960201,-91.28170455,25.837141767,4400.0
5.748311139,-2.5268863544,-87.439489701,-0.26864781233,4410.0
6.1136714292,24.248015981,-80.493504124,-8.674767162,4420.0
7.3858115936,51.100470806,-74.316919332,-56.745625897,4430.0
10.232400892,65.372462961,-68.713682151,-143.38736348,4440.0
9.3537179029,64.681335422,-70.174201228,92.673785719,4450.0
7.4382210827,87.88192649,-73.998306115,59.959605267,4460.0
6.7258442218,115.09711878,-77.406457809,57.310390784,4470.0
6.3856832974,142.87813339,-73.401454611,0.40611180332,4480.0
6.2749522468,171.17395413,-77.920334036,-36.968021495,4490.0
6.2257921879,-160.55489365,-82.386644542,-92.727802351,4500.0
6.2410262537,-132.1127787,-81.730220492,-91.157006526,4510.0
6.4412238525,-103.14055983,-85.265426799,-97.415869423,4520.0
7.2583258025,-73.797559138,-80.886079003,-156.26818934,4530.0
9.2912485359,-53.563873547,-72.895459801,114.35327575,4540.0
9.0581736675,-49.924986457,-74.286096245,21.659831856,4550.0
7.1223472202,-31.495458157,-88.143646761,-35.075843656,4560.0
6.1428092162,-7.2746051685,-93.032168758,-102.81329023,4570.0
5.7184926209,17.695197722,-89.643620762,-176.78116152,4580.0
5.5253000771,42.106305733,-91.307817521,-14.383731536,4590.0
5.5569620407,66.593525737,-91.830170773,-34.705141935,4600.0
5.8107360696,91.442102195,-93.0268468,-15.071847019,4610.0
6.1800874272,118.37030811,-86.269083369,-43.766154484,4620.0
7.006505229,146.79164173,-91.420485876,-122.82742209,4630.0
8.9999214171,170.64876784,-70.66468781,-158.88792006,4640.0
9.6796379569,176.89095889,-72.297283786,123.27217975,4650.0
7.8660087729,-163.33045912,-81.602352101,79.183299803,4660.0
6.8635166648,-136.23392678,-87.706357804,28.256865369,4670.0
6.290142741,-108.60004756,-86.269102876,4.8036415976,4680.0
5.9521682571,-81.697734258,-80.562983276,-67.165692848,4690.0
5.746583337,-55.793506162,-97.424483547,-93.406840107,4700.0
5.5969242918,-30.141369708,-89.431418866,-67.752468934,4710.0
5.6245665351,-4.5390100704,-89.372975522,-54.963354951,4720.0
5.9821506933,20.592153202,-83.558293395,-173.64648672,4730.0
7.1654430277,44.087750993,-76.726758752,163.6188454,4740.0
8.5095888037,53.342901092,-78.473501637,71.466560888,4750.0
7.0129509078,66.416856032,-90.797406076,-128.08954165,4760.0
6.1207336904,90.773077041,-86.441953271,-103.83939428,4770.0
5.7820601512,116.23877137,-88.223229613,-111.01724487,4780.0
5.7624260368,141.60630489,-95.79420898,-119.05789458,4790.0
5.8483073388,167.35739477,-98.716703215,-134.06989382,4800.0
6.0295282478,-166.27332589,-99.102352793,-155.20007001,4810.0
6.3002972971,-139.23920804,-94.391992611,-165.05411474,4820.0
6.7044186981,-111.32405178,-95.822524532,-152.2367333,4830.0
7.5999138506,-84.41630109,-81.329942867,162.62820196,4840.0
8.8839175093,-68.041329482,-80.578341934,96.155854349,4850.0
7.7870518725,-56.047224543,-82.605141857,-56.906923519,4860.0
6.4003008945,-32.473337591,-83.37244303,-69.000388772,4870.0
5.7942597942,-7.2625948356,-99.910117819,-66.658214317,4880.0
5.5035032722,17.638025988,-87.061005044,144.41116357,4890.0
5.5028293359,41.366028488,-77.753103656,156.92239941,4900.0
5.6411259125,66.982316655,-89.738109391,-19.75907157,4910.0
5.6294604305,91.035678757,-95.462130569,-80.132580071,4920.0
5.9970795085,114.68351699,-82.081705558,-71.300539382,4930.0
6.820206309,138.98450199,-77.617515541,-69.429461697,4940.0
8.3762973859,156.86363856,-89.158133714,168.87842491,4950.0
8.002658215,167.08869387,-75.543441942,49.712101399,4960.0
6.7329553598,-169.40670862,-79.079770681,37.789873486,4970.0
6.231454464,-142.65745188,-87.405298726,96.25386999,4980.0
6.08785042,-115.82899495,-81.586455233,-130.45618209,4990.0
6.0243908646,-89.027775113,-74.675507153,-77.578739205,5000.0
5.9250624576,-62.946605147,-80.618674304,-40.136593291,5010.0
5.977743774,-37.636505861,-89.315338652,92.65163595,5020.0
6.1284725311,-10.430813149,-80.174620028,-155.42933084,5030.0
6.6972776276,14.989443149,-76.571446842,-138.07787215,5040.0
8.0608153873,36.245391003,-70.733259389,84.225067884,5050.0
8.0185283053,43.222720416,-67.592380505,12.005030545,5060.0
6.3222556419,63.043279121,-72.65258702,-15.267217324,5070.0
5.6166835905,88.395532381,-84.771717871,138.93872832,5080.0
5.5123259365,113.66803013,-74.643412696,-117.53952844,5090.0
5.6256373225,137.85138446,-78.123046384,-74.657748147,5100.0
5.7805075394,162.53099267,-88.546845323,127.25006351,5110.0
6.0528086761,-172.32343153,-84.760703553,151.51060174,5120.0
6.4363955817,-146.41017316,-81.634865606,-168.22967022,5130.0
7.1039026251,-119.90127969,-78.996178692,149.92318103,5140.0
8.6209151326,-96.734970181,-60.991568472,43.844841478,5150.0
9.5023816007,-90.35117679,-59.176106366,-23.454507137,5160.0
7.2000373924,-73.530038302,-77.208285729,-98.571848551,5170.0
6.1381045048,-44.539847352,-65.917721651,-177.88997112,5180.0
5.9636889286,-15.708551744,-75.56356575,-122.48012746,5190.0
5.8691928617,10.945169202,-81.465256672,121.18044352,5200.0
5.9235412768,37.506001329,-73.645746457,175.80578447,5210.0
5.9175042781,62.367008442,-78.243401177,-149.18132155,5220.0
6.1165434866,87.837668039,-82.428699301,-129.06373872,5230.0
6.6693371635,112.06277017,-81.666532131,99.490043023,5240.0
7.8418675991,135.88141404,-58.67932519,40.995951819,5250.0
9.5777222722,147.09806742,-56.935486231,-48.551612923,5260.0
7.8381225296,152.4609441,-65.445243501,176.23228156,5270.0
6.2456857333,179.0199476,-60.667291741,167.92957509,5280.0
