S11m,S11p,S21m,S21p,Frequency
5.7614774861,-59.959596479,-55.279601515,-49.856109837,2000.0
5.4152319014,-30.640849121,-60.304687202,-62.066108661,2010.0
5.4441876115,0.89745769273,-64.409524884,-69.21668061,2020.0
6.1585811931,34.328600528,-56.784514373,-59.015349022,2030.0
7.9796914552,67.619622166,-58.409371486,-149.38191822,2040.0
12.538567709,83.799139791,-54.777302307,163.29764137,2050.0
11.155142207,65.797244723,-54.618904905,78.697855684,2060.0
7.7114944793,87.841900858,-57.214342488,24.549134056,2070.0
6.3209766103,117.91671266,-54.840782242,-13.00742705,2080.0
5.6193999584,147.09600748,-51.750624483,-60.641731624,2090.0
5.3208098667,174.672811,-54.199947184,-145.40712258,2100.0
5.0621402542,-158.05558558,-62.944743373,-172.54899952,2110.0
5.1665357245,-128.47807654,-62.723010139,-162.87984259,2120.0
5.6707772287,-96.876159044,-52.000935734,167.64856213,2130.0
7.3823424294,-65.080700823,-54.097314972,40.620120713,2140.0
11.725073886,-48.921046476,-52.890116498,-13.216356319,2150.0
10.523028818,-63.325681482,-55.774399954,-103.85273732,2160.0
7.262686689,-39.6214379,-59.965274074,-148.74346819,2170.0
5.8792310728,-10.347100632,-61.130600644,170.80904484,2180.0
5.266882698,18.093514319,-58.92797285,128.72599042,2190.0
5.0356962589,46.305545678,-58.813516212,74.183222072,2200.0
5.0008013727,74.651821017,-64.959312167,13.19499928,2210.0
5.0597049532,103.60118982,-67.683803076,34.24664484,2220.0
5.5206936613,133.50773438,-56.853177868,12.24775474,2230.0
7.0082768141,165.01249614,-50.866500451,-124.50219235,2240.0
10.83295675,-175.96190118,-53.368263968,175.6544107,2250.0
10.176977989,171.69498799,-56.580635086,97.373024872,2260.0
7.0364418599,-166.93610693,-60.979312427,51.000959408,2270.0
5.7811832321,-138.31510267,-60.893728618,13.882712018,2280.0
5.2473859731,-109.97598815,-62.104671926,-22.554228951,2290.0
4.9974160373,-81.751247593,-66.566153572,-68.219879392,2300.0
4.8549753055,-53.817625406,-70.644743606,-101.40997678,2310.0
4.9079718256,-25.936978491,-73.178802478,-80.287933395,2320.0
5.2695145124,3.2529756827,-61.693095349,-79.67841734,2330.0
6.5448538411,33.987504788,-44.772204635,133.28586949,2340.0
10.213083571,53.361148953,-50.944702651,36.023450363,2350.0
9.5790318495,42.041107055,-56.813834997,-69.37786168,2360.0
6.6398755213,63.719526799,-63.271771334,-135.34668779,2370.0
5.5145244948,92.364149563,-69.870218744,-164.50413688,2380.0
4.9713259001,120.51887575,-76.812481562,-175.64145035,2390.0
4.7374750186,147.61031264,-78.248903349,179.84566712,2400.0
4.7157259315,174.47729989,-77.136365199,171.5755362,2410.0
4.8788334651,-157.80356378,-74.223869548,158.71379549,2420.0
5.279808084,-128.96789117,-68.411222225,146.11756604,2430.0
6.4144997049,-98.685114844,-53.001661764,78.088506964,2440.0
9.7337272115,-75.882389493,-54.745740694,-60.332240382,2450.0
9.971196956,-85.750118781,-58.098453021,-157.17994337,2460.0
6.7952477258,-65.11097401,-62.667997164,143.01973969,2470.0
5.4749634479,-35.996923775,-66.091668015,84.224447128,2480.0
4.9529140259,-8.1444508404,-70.37622982,48.472816273,2490.0
4.8141659284,18.96621961,-72.536963729,21.631395261,2500.0
4.726647406,46.248241218,-73.531291875,-12.442326002,2510.0
4.7101462268,73.355693821,-74.6695683,-39.542452701,2520.0
4.9997825135,100.88277502,-74.036500775,-59.016576801,2530.0
5.9572044303,129.66367408,-63.866161289,-77.239383219,2540.0
8.7883071737,153.71310196,-56.031066478,135.42451113,2550.0
9.8282971571,146.6205297,-61.365933125,8.867910809,2560.0
6.7200587248,162.80580144,-69.843402304,-86.14915562,2570.0
5.4907206438,-168.87225791,-77.790143205,-161.50608208,2580.0
5.114221039,-140.22400606,-83.239925748,146.73089374,2590.0
4.9153189719,-112.09324248,-87.361115327,119.22790756,2600.0
4.7947881638,-84.622293235,-89.03001113,90.606300407,2610.0
4.8771692628,-57.264149236,-87.248122436,49.244364474,2620.0
5.1660399408,-28.985458732,-83.601454357,13.473668252,2630.0
5.8675111808,1.1422049509,-72.828403486,-17.583863586,2640.0
8.1839338597,29.953539486,-54.349301583,-123.01519397,2650.0
10.756098479,23.434236265,-53.239223743,79.552162023,2660.0
7.1816774549,34.701482158,-59.335732387,-21.435499249,2670.0
5.5093685355,63.546428542,-67.324909534,-92.425938448,2680.0
4.867247537,91.237215855,-75.082239232,-121.97356376,2690.0
4.6402546747,117.54979763,-81.519058288,-133.50077427,2700.0
4.6743568941,143.53953667,-87.022683662,-150.55895671,2710.0
4.856575115,170.03990029,-87.082018622,-179.15183251,2720.0
5.1757439582,-162.23730175,-85.879309401,169.18158804,2730.0
5.9161960441,-133.2777939,-79.263959102,-177.04311002,2740.0
7.990436691,-105.22062896,-62.300335908,138.88961429,2750.0
11.728656329,-100.8301443,-52.822757218,0.04797618923,2760.0
8.1724060215,-99.843240426,-56.978448998,-103.89634879,2770.0
6.0251331439,-69.663955976,-61.388437078,177.26496753,2780.0
5.4076238688,-39.645053594,-68.694558738,149.09503442,2790.0
5.2142734164,-10.12268249,-73.916335789,150.89422296,2800.0
5.0428243084,18.669818407,-97.438990387,-131.35174614,2810.0
4.8606205146,45.659221691,-76.394980377,70.245890233,2820.0
5.0296377841,72.615795823,-75.927003915,89.713725356,2830.0
5.5762803269,100.58411016,-73.602016566,79.35582708,2840.0
7.1622213295,128.46028321,-63.10000614,41.578019012,2850.0
10.361844956,138.84849785,-53.646812657,-82.860692955,2860.0
8.3613025658,132.11481036,-56.689522301,147.81068966,2870.0
5.9219180179,157.7880904,-62.285526217,34.2113799,2880.0
5.1879672848,-172.59026866,-75.652879782,-17.946705709,2890.0
4.9119845754,-144.60745271,-88.624357802,-39.219259964,2900.0
4.9019137404,-118.0998041,-96.394441732,-46.927018952,2910.0
5.1414538792,-91.287525847,-95.178790088,-42.1649706,2920.0
5.5528308652,-62.732938549,-95.335702545,-46.015036405,2930.0
6.1753226751,-32.586260025,-102.36618532,178.47588137,2940.0
7.6353302612,0.36497178005,-78.087118906,115.82153104,2950.0
12.25179303,21.333855556,-62.851798103,-5.4225850738,2960.0
11.003767676,0.45364618289,-65.558965636,-140.31475811,2970.0
7.0388561206,27.708362345,-67.470780625,104.58606882,2980.0
5.6237386509,59.523586027,-82.920436421,-48.438492694,2990.0
5.2059917558,88.804151223,-85.17094697,-106.61090156,3000.0
5.1459362719,116.65083868,-85.440223932,-110.81959103,3010.0
5.1680515371,144.09710117,-87.637099562,-162.10141493,3020.0
5.3161082304,171.11863873,-81.365945524,174.13164028,3030.0
5.8075031867,-162.00914446,-76.238830147,-169.24282792,3040.0
7.0576500699,-134.85441002,-69.824217144,178.97371583,3050.0
10.478283131,-109.16193641,-56.298385392,84.902378842,3060.0
12.268795021,-133.1386193,-52.885395969,-53.994651729,3070.0
7.261052667,-113.05077674,-55.596695631,-126.77841309,3080.0
6.0282881842,-79.604396069,-60.435605176,103.46622615,3090.0
5.8255853823,-47.498855919,-73.006947002,90.867497729,3100.0
5.7510900785,-16.226121397,-80.771922952,-12.106791055,3110.0
5.8191783881,12.709349026,-78.683307003,56.062889365,3120.0
6.0983756461,42.501460637,-74.820904605,82.361775471,3130.0
6.6632092446,73.988865504,-71.760860094,73.69817173,3140.0
7.7238733445,105.94730738,-64.309663745,56.335659341,3150.0
10.512593248,134.09657827,-54.370096805,-22.790295192,3160.0
15.516819019,120.42755999,-49.44581923,-162.14758731,3170.0
9.029888043,117.43029133,-59.270517882,113.55578089,3180.0
6.3670143795,152.8299502,-55.923818247,31.550758741,3190.0
5.6106934595,-175.31532338,-74.566064775,-53.206679896,3200.0
5.5211075365,-146.57532762,-82.075231662,-71.500316713,3210.0
5.8276754337,-118.70347409,-80.910482481,-66.469922324,3220.0
6.3668197572,-89.704827583,-79.164840816,-78.853263208,3230.0
7.0711870047,-58.869329072,-72.317503652,-104.63457664,3240.0
8.6303835978,-26.329347631,-66.537517084,-106.63498725,3250.0
12.605310723,8.9199690273,-50.948745461,179.87238672,3260.0
22.401785976,-19.103447396,-42.381482018,32.675098563,3270.0
11.022555139,-29.901632841,-55.416897522,-53.271379029,3280.0
7.6612390093,13.413607607,-55.250284764,-67.586989635,3290.0
6.8037994379,52.687797233,-57.836959477,153.81891285,3300.0
6.6449466882,88.098234346,-70.701865331,142.69396219,3310.0
6.6289101937,120.78282981,-73.423372183,156.7853829,3320.0
6.80797596,151.56247931,-72.618224657,169.20234308,3330.0
7.3915121586,-178.27835794,-70.954157902,166.19190853,3340.0
8.610279561,-147.77083627,-63.913667435,136.94263658,3350.0
11.221459313,-115.40114894,-52.651447964,86.842901297,3360.0
22.013967819,-101.77868557,-42.831517601,-13.659292853,3370.0
12.446601532,-170.94594224,-54.719655351,-160.9235025,3380.0
7.7053090344,-125.98213489,-57.814619104,-170.3719231,3390.0
6.780482403,-85.686460368,-47.959764724,129.2150434,3400.0
6.8996102146,-50.083395797,-65.702905966,23.21974718,3410.0
7.5679769266,-16.086045415,-70.272406952,47.319842656,3420.0
8.6002473328,19.156625265,-72.262919974,82.430153465,3430.0
9.9231953733,56.989947052,-70.257425172,77.088551012,3440.0
11.779898019,97.733688757,-60.780552133,76.345535554,3450.0
15.484310062,138.41548296,-47.161248598,8.6299952471,3460.0
23.671451423,-132.48033094,-48.427771931,-10.311563316,3470.0
15.720286737,27.162015068,-59.725408886,96.798967551,3480.0
9.9284958486,94.230169574,-66.32237522,119.17217144,3490.0
7.9978824519,145.29831503,-64.115353586,126.01341817,3500.0
7.7261433401,-173.02020868,-61.737567357,-28.211637782,3510.0
8.1296611905,-135.90642813,-73.412235535,-19.11758,3520.0
9.0507658332,-101.29696604,-74.837414674,-11.390224635,3530.0
10.62044891,-66.833434565,-71.642778497,-14.817258896,3540.0
13.69485708,-26.494120532,-62.275037424,-33.594439417,3550.0
19.852400393,31.496439036,-59.189119309,-127.13136609,3560.0
20.388864536,165.8271748,-71.749160194,-179.32938584,3570.0
12.722027608,-118.44033174,-69.726873754,178.33078501,3580.0
9.513112729,-61.184862207,-68.575295556,-164.66476186,3590.0
8.9081738551,-7.0715906911,-61.939210587,-148.86718983,3600.0
9.7283845381,44.729452713,-46.716182642,60.374742564,3610.0
11.174501369,94.723935188,-64.048447026,70.142898308,3620.0
12.833271085,145.03568348,-67.899535804,113.85921261,3630.0
14.391491616,-161.599261,-64.881708012,148.07554356,3640.0
15.42947702,-104.2213868,-55.196436934,164.49063582,3650.0
16.315809452,-42.971809393,-59.028959406,-51.112731519,3660.0
15.765970808,29.354489262,-63.421450376,-23.573196838,3670.0
12.898141031,99.260140753,-65.735627039,8.6874190746,3680.0
10.119756899,160.75765677,-66.84531678,31.166044649,3690.0
8.8342118913,-143.18123235,-62.557716919,47.838756281,3700.0
9.4563992617,-92.439035245,-50.979082109,-37.218494467,3710.0
11.881406939,-44.259094398,-60.312660777,-91.271154227,3720.0
16.614096059,6.7479039541,-59.471026339,-78.564800719,3730.0
22.522097155,88.479678644,-42.342578144,-86.653783718,3740.0
18.355466523,-170.93562712,-61.232306802,-128.85848052,3750.0
13.837906038,-118.41290127,-70.157891002,-156.61033712,3760.0
11.1794353,-75.977076658,-70.197322514,175.45991079,3770.0
9.6520920843,-33.681416822,-66.561224719,164.86337622,3780.0
9.0318417431,12.255863661,-57.778007191,152.19732301,3790.0
9.4837566394,64.040464737,-49.4551981,67.934733933,3800.0
11.551913146,123.31577565,-55.76400528,45.14771629,3810.0
15.62688401,-169.55727788,-55.106681134,57.110709595,3820.0
20.843764689,-83.413727223,-49.895952384,106.25078903,3830.0
19.962290274,20.438835093,-45.016752703,-32.654169623,3840.0
15.603012329,86.075671879,-62.578741054,27.351807268,3850.0
12.378407688,132.89721942,-67.05871396,32.772383253,3860.0
10.0833347,172.60184802,-67.395463738,30.292239162,3870.0
8.4500863084,-149.94074865,-65.088792151,19.07379244,3880.0
7.5693094361,-112.8774222,-61.656873728,-31.913467741,3890.0
7.6546698305,-73.537721141,-63.373933777,-82.800644195,3900.0
9.7439783377,-30.671245616,-63.134518341,-104.19155091,3910.0
17.189627619,5.2382326474,-55.393172448,-135.62639693,3920.0
20.329792505,-75.697371136,-46.448290863,68.625675378,3930.0
13.337389837,-58.316971346,-56.535808886,-113.32637297,3940.0
10.233183556,-24.680472842,-72.538379227,-118.14674779,3950.0
8.9555670384,6.473893696,-74.527036253,-119.05427262,3960.0
8.2325206598,38.500644997,-71.070194839,-121.76930528,3970.0
7.8755470473,72.049936923,-67.434665813,-153.33936171,3980.0
7.7316693632,108.24173325,-68.642969732,171.09036423,3990.0
7.9677243321,148.25824062,-69.162423466,168.02097508,4000.0
9.3769125708,-166.60281907,-67.671696241,160.90036065,4010.0
14.841968695,-124.91523663,-58.902841764,135.76200811,4020.0
20.449558107,-171.120918,-48.420455506,15.030393792,4030.0
12.636013958,-163.77972295,-54.464972235,-155.34979386,4040.0
9.5130003631,-132.95196681,-74.321560122,164.08878492,4050.0
7.9101708511,-103.7016723,-74.569497378,169.17962749,4060.0
6.9230661264,-75.906949859,-71.984568556,137.72865414,4070.0
6.3813039276,-48.717443216,-70.586613282,62.224942748,4080.0
6.2094055188,-20.672830182,-71.900879395,19.653066844,4090.0
6.4600025364,9.824304455,-72.413635767,-3.9781946508,4100.0
7.7791377518,43.616657411,-69.501978308,-27.437375578,4110.0
12.123877392,70.20672209,-60.726641253,-71.894007264,4120.0
14.286566074,48.171555323,-52.646606165,-165.66876146,4130.0
10.289773554,62.301974568,-54.135361674,69.778116359,4140.0
8.5291578428,92.228395089,-66.175608168,-23.388667917,4150.0
7.763935245,123.31947753,-73.499989207,6.0827490954,4160.0
7.2789918298,154.85790995,-71.522400644,12.514484709,4170.0
6.7705195049,-174.32095491,-68.880326054,-62.4429063,4180.0
6.4046907005,-144.49443581,-70.486011729,-102.63324744,4190.0
6.3522481071,-114.45416598,-72.239259872,-97.158861044,4200.0
6.9520101854,-82.649121587,-75.682869433,-129.22619044,4210.0
9.4124754459,-54.099314144,-64.336220788,-177.72550917,4220.0
11.458456308,-57.609706577,-58.517488538,119.66791737,4230.0
8.7164114224,-49.101210797,-64.617393856,1.4125426777,4240.0
7.2149370377,-25.15767609,-68.589258472,-103.99413941,4250.0
6.4040491766,1.355729286,-73.383858449,-122.76099367,4260.0
5.8457236097,26.99166611,-78.277404705,-112.42301016,4270.0
5.5931105755,51.472602846,-74.125974126,130.29806859,4280.0
5.8346651841,76.82452962,-70.897825175,116.08424622,4290.0
6.3257119757,106.23134836,-79.538089835,148.28680141,4300.0
6.9787447233,138.62481168,-76.452238984,49.416569591,4310.0
8.9027975681,169.98886555,-69.739323513,53.534414118,4320.0
11.678616513,172.76285259,-63.762764909,-5.5574006594,4330.0
9.0243133889,-176.9163843,-70.389088936,-102.16305658,4340.0
7.3051382622,-149.46354975,-72.56352765,140.142676,4350.0
6.4261084907,-122.86900576,-75.572791569,134.68646968,4360.0
6.070336108,-96.355297578,-88.343725862,114.91632977,4370.0
5.7578519803,-69.501330077,-88.821775597,56.326067279,4380.0
5.3916282874,-43.390231495,-87.350368131,30.162070461,4390.0
5.2385055101,-18.514972228,-92.885355102,13.870851829,4400.0
5.5286722138,6.4890383178,-86.797104554,-15.072261148,4410.0
6.8852430821,32.396372402,-77.669586695,-34.20512674,4420.0
9.0602646298,45.935352451,-72.304464862,-87.452601991,4430.0
7.8738683068,51.83431244,-73.00184679,119.13930868,4440.0
6.6126022455,73.33982753,-74.69540446,65.681239827,4450.0
6.4085004646,101.36473368,-84.035533241,35.135128407,4460.0
6.0211582439,130.43561496,-78.087250345,52.030448314,4470.0
5.628810526,157.66951229,-84.081919469,53.118310895,4480.0
5.5765202263,-177.43090131,-76.406001022,-15.503027749,4490.0
5.8341921859,-151.28984682,-82.40673457,-35.140126471,4500.0
6.218049394,-121.58178263,-86.29661707,-94.607962677,4510.0
6.9474039614,-91.704836627,-82.53838114,-115.21573414,4520.0
8.542074907,-73.432073988,-82.219922211,165.1247144,4530.0
7.9169458613,-64.793699111,-74.52641123,50.308295511,4540.0
6.518117334,-43.421085316,-80.529785667,-20.755009132,4550.0
5.5728916758,-19.104482958,-85.912737228,-18.298270973,4560.0
5.0728470946,3.6356159673,-92.202617218,74.544607414,4570.0
5.1795973194,26.257473821,-103.9566991,95.091370786,4580.0
5.2819867826,50.355117559,-95.992042465,38.539290554,4590.0
5.4491753229,76.47893551,-101.28773709,-137.72970265,4600.0
5.3702176335,101.96214525,-85.427346995,-38.300927086,4610.0
5.8295867881,126.23765113,-84.97311338,-7.8602177608,4620.0
7.7801112291,148.33586553,-79.884003458,166.15492304,4630.0
8.259369818,159.07846957,-71.037139424,157.88905854,4640.0
6.7700503634,179.82806457,-76.156321521,84.144591449,4650.0
6.1811239015,-155.23408724,-85.207499336,132.06210396,4660.0
6.018610663,-128.04913602,-82.06657322,-89.488259065,4670.0
5.7858689421,-100.02657407,-82.408344341,-19.45596498,4680.0
5.4109934589,-73.424688394,-92.478630351,92.597088974,4690.0
5.1756570806,-49.244050599,-81.938352723,-90.977344188,4700.0
5.3133000474,-25.662828642,-77.030791809,-42.686211264,4710.0
5.8309105829,0.42496472131,-80.184093946,55.125580712,4720.0
6.6419133047,24.902974331,-75.571114874,157.21429005,4730.0
7.5599064474,34.812929653,-75.815925923,114.02476057,4740.0
6.5965682074,49.664317018,-83.089774843,41.492980307,4750.0
5.8949199195,75.919738081,-86.203510029,-126.73642576,4760.0
5.3505352218,101.27410845,-84.229931146,-88.735714379,4770.0
5.2083672078,124.53931519,-89.361547748,-60.397649395,4780.0
5.3250164608,147.29997625,-101.73670414,-35.508042928,4790.0
5.897687133,171.80330099,-87.160574454,-122.44392034,4800.0
6.0758303729,-158.86627893,-91.830861615,179.33903903,4810.0
6.0731825603,-130.96158547,-85.576803386,-177.79734486,4820.0
6.9745239984,-106.67898283,-93.741478232,-174.34040817,4830.0
8.25418748,-89.149520883,-78.865864368,101.84738689,4840.0
7.0904666516,-72.302412725,-88.526630587,-37.426543894,4850.0
5.8444391912,-49.912985848,-82.606550754,-57.165250092,4860.0
5.6565681663,-26.153057155,-92.518278567,41.178571036,4870.0
5.9357177659,-0.07943677164,-80.827328396,146.12781796,4880.0
5.4064985555,30.062080061,-78.394995743,-151.02632802,4890.0
4.2930588285,54.851425443,-75.778025147,-66.531452392,4900.0
4.2092874469,70.857182429,-76.272002346,21.371304438,4910.0
5.4723504738,90.472803605,-82.680723094,68.967345905,4920.0
6.6484794581,119.86813628,-74.702895292,-73.769589046,4930.0
7.4784314549,139.40152542,-76.684180148,-65.290791659,4940.0
6.9225818686,150.13929599,-77.330453704,100.12897926,4950.0
6.2963834898,173.44383863,-80.967809634,68.691961853,4960.0
6.0250223189,-158.69096004,-83.346696197,23.042013572,4970.0
5.5240957988,-131.72040878,-88.781686133,146.17013641,4980.0
5.1900208978,-108.22141366,-73.102707391,-95.683269746,4990.0
5.4570226347,-84.219195944,-67.356774198,-23.443521664,5000.0
5.7434163843,-55.545792002,-68.346651721,53.237088175,5010.0
5.3905342551,-29.986365967,-70.236228458,172.01397448,5020.0
5.7582125752,-9.4177899901,-70.943889348,-149.26135279,5030.0
7.5926477662,11.86927892,-69.932810544,97.392294653,5040.0
7.5753867126,27.989460372,-72.169522244,30.994026851,5050.0
5.7925597662,48.258007916,-73.124435253,-47.748299032,5060.0
4.9552855819,69.932770462,-78.291704821,29.573612737,5070.0
5.2401657033,90.705919809,-69.649141517,-159.65020307,5080.0
5.8229887206,117.78193768,-66.735904439,-76.907806237,5090.0
5.3378577407,144.26882173,-72.692001232,-0.03898812592,5100.0
5.1647008728,164.64207391,-85.139365377,116.79963457,5110.0
6.0810748886,-173.46650777,-78.0712909,-153.06549449,5120.0
7.1168358062,-144.33701902,-75.945748719,144.84970591,5130.0
7.7723233498,-117.31609742,-68.837300475,62.144524662,5140.0
7.8934518295,-106.07426269,-63.220121047,-51.595564186,5150.0
6.6905955443,-89.137810881,-69.896836589,-36.954519735,5160.0
6.2250283183,-61.489213432,-71.000384471,143.73478522,5170.0
5.5620067241,-32.788528053,-69.016524673,-125.01430258,5180.0
4.8877378208,-11.586542336,-82.023379261,47.402046671,5190.0
6.0171634336,5.1604853694,-70.269906069,-138.85228022,5200.0
7.8096225438,42.410863478,-64.787866322,29.031799276,5210.0
6.2200788894,75.708096798,-62.557558797,134.1064276,5220.0
5.4858514237,95.807959483,-64.200976213,-169.39405459,5230.0
6.4451826275,112.14401357,-75.577373972,-79.39437245,5240.0
7.964182222,123.97665518,-57.236502417,-56.757039805,5250.0
7.0348208484,142.40496794,-94.328327677,-12.268470231,5260.0
5.6584144593,168.39100321,-66.924317201,-174.88904214,5270.0
5.4845600897,-169.31656723,-69.920505431,-163.25436398,5280.0
