S11m,S11p,S21m,S21p,Frequency
5.6632184384,-60.508255769,-57.077907529,17.200896254,2000.0
5.3232119826,-31.109775926,-59.592281214,-26.021828752,2010.0
5.3523376936,0.63509375147,-65.230620197,-70.284296592,2020.0
6.0325988296,34.23625933,-77.33115305,-44.335947446,2030.0
7.8589277614,68.264192154,-68.102101065,-32.662508322,2040.0
12.773267519,86.556102903,-62.718856669,-62.883189457,2050.0
11.366181022,64.995344181,-58.054778395,-106.96313548,2060.0
7.6547383187,87.280357152,-54.995168179,-165.41050922,2070.0
6.2223200908,117.44772662,-53.983277622,139.24768855,2080.0
5.547090331,146.55110668,-53.88343509,85.562340999,2090.0
5.2687633962,174.15857362,-55.544117731,32.1395043,2100.0
5.0023972568,-158.40035413,-58.839931906,-9.0145844504,2110.0
5.09502571,-128.68113017,-61.20088041,-34.166257592,2120.0
5.5770489235,-96.89252543,-61.79588936,-56.816972256,2130.0
7.242090331,-64.470904378,-61.06579688,-87.912978703,2140.0
11.815842258,-47.090177509,-59.577345207,-122.47102539,2150.0
10.645317012,-64.957468673,-58.023655649,-167.78864691,2160.0
7.2258411492,-40.788866114,-57.212468271,143.47659643,2170.0
5.8409953658,-11.040247621,-56.85427443,93.412189293,2180.0
5.2451760032,17.7640952,-57.242532556,43.733395535,2190.0
4.9948546691,46.2462593,-58.072223316,-9.1417758606,2200.0
4.9350665968,74.513640326,-62.64781446,-51.667220482,2210.0
4.9871390312,103.47932312,-60.925983515,-60.358908956,2220.0
5.4265280316,133.411489,-59.139980436,-107.93397131,2230.0
6.899593049,165.30139977,-59.232356033,-147.91513993,2240.0
10.923021971,-174.44601809,-59.029949201,175.68854545,2250.0
10.353616033,170.50940341,-58.839783317,141.03432812,2260.0
7.0373697174,-167.7481197,-58.210585664,105.24452709,2270.0
5.753528684,-138.65605295,-58.140595749,65.696614052,2280.0
5.1881045207,-110.11662504,-58.800827903,26.041015067,2290.0
4.9178013453,-81.914041493,-60.078269325,-12.887534439,2300.0
4.7839538349,-54.07884821,-62.201941994,-44.995211274,2310.0
4.8545586728,-26.231807573,-62.68608738,-62.522930786,2320.0
5.2295371449,3.2728688841,-60.076617446,-94.980010641,2330.0
6.4507060209,34.580242938,-58.264034999,-143.45117148,2340.0
10.243639234,54.82679623,-57.646298693,164.11790389,2350.0
9.7261534183,41.196047887,-57.81414964,111.59140625,2360.0
6.6046203186,63.270298176,-59.76192435,59.546235812,2370.0
5.4434008439,92.099673784,-63.545280012,20.642561891,2380.0
4.8990562741,120.08262756,-66.117604562,5.9629672219,2390.0
4.7005747104,147.13524352,-65.548285546,-11.511016404,2400.0
4.7086406887,174.39417091,-64.740593334,-33.633114948,2410.0
4.8336702551,-157.67355055,-62.723450888,-61.990217692,2420.0
5.1840729016,-128.97112317,-61.23783863,-99.582599791,2430.0
6.3277474544,-98.626860791,-60.123041255,-143.36365477,2440.0
9.7862453126,-74.994273068,-60.259967291,173.75515311,2450.0
10.089128401,-86.518487747,-59.694406621,135.81999584,2460.0
6.7607721109,-65.83540355,-58.214104746,91.735409345,2470.0
5.4493069907,-36.584253144,-57.148413448,39.780851411,2480.0
4.9661253831,-8.3641714608,-56.857357035,-10.095886847,2490.0
4.7972977,19.370600691,-56.731690155,-61.756939882,2500.0
4.5875886753,46.563521884,-57.583439797,-113.38590686,2510.0
4.5936209098,72.992848209,-60.276012929,-160.93891018,2520.0
4.9614047546,100.57024116,-63.052344436,169.16622003,2530.0
5.9230964759,129.86129487,-63.955083451,142.80436732,2540.0
8.7817628241,154.52861553,-63.784657733,103.33998233,2550.0
9.9638026558,145.85758139,-64.649789623,52.295445382,2560.0
6.734801858,162.24496093,-66.190899872,-7.3505725087,2570.0
5.4665550251,-168.68317996,-67.547140139,-64.794833751,2580.0
4.9774116696,-139.919344,-67.64483355,-119.09185281,2590.0
4.7165809386,-112.5352687,-67.126242499,-170.13789558,2600.0
4.7440821607,-85.631035074,-66.338529832,135.37071532,2610.0
4.9251019102,-57.625839916,-66.241195601,71.557938887,2620.0
5.1469888153,-28.594757967,-66.400284419,7.9552473905,2630.0
5.7425673755,1.240779017,-65.171997666,-52.512782214,2640.0
8.1514018856,30.536431988,-62.973138373,-102.29484947,2650.0
10.990480191,23.292181244,-60.457600072,-154.10115234,2660.0
7.1560984669,34.560495782,-59.867699311,155.9820188,2670.0
5.4078768156,63.382351958,-60.079052307,114.39179223,2680.0
4.8225516813,90.631946504,-60.328202321,73.17108645,2690.0
4.7074708521,117.29417143,-61.353356338,30.444176141,2700.0
4.6789234348,144.18161439,-63.248339765,-12.121174511,2710.0
4.7410953352,170.71639503,-65.689650365,-52.56006986,2720.0
5.0514216076,-162.313913,-67.773276807,-84.133315652,2730.0
5.8676073949,-133.52928638,-68.72236054,-101.22863929,2740.0
7.9921060455,-104.59231067,-66.293419071,-120.5966635,2750.0
11.85716039,-100.43002476,-63.273429101,-150.2605894,2760.0
8.1059411899,-101.03467823,-60.603815372,176.44540941,2770.0
6.0555134085,-70.534991883,-58.277439339,141.63539697,2780.0
5.4821640465,-38.922832248,-56.413763113,103.37968716,2790.0
5.0576444637,-9.053623007,-55.376903662,61.691151277,2800.0
4.7247663572,18.032220075,-55.455722788,18.475089736,2810.0
4.9131623126,44.721300985,-56.597054255,-21.854031307,2820.0
5.0789413084,72.451728717,-58.013706863,-59.469382729,2830.0
5.5626222387,101.01708215,-59.638109037,-96.192156022,2840.0
7.0838862128,128.74665072,-60.695565193,-127.94238462,2850.0
10.489585205,138.79004896,-60.855388882,-167.39464928,2860.0
8.4318153292,131.63892145,-61.501368041,149.86222732,2870.0
5.7803951833,158.2792038,-62.300599465,111.93468158,2880.0
4.9202594049,-173.26748555,-62.872122527,71.234866235,2890.0
4.815305211,-146.86796062,-64.860101508,32.508989986,2900.0
5.0357613456,-119.45042589,-67.34620752,3.9711414412,2910.0
5.2340197352,-91.043734133,-69.022749538,-20.647133859,2920.0
5.4980395826,-62.025256854,-71.114121279,-60.2924298,2930.0
6.0334055626,-32.419331955,-78.897965123,-103.42872346,2940.0
7.6433890895,-0.035171833048,-88.17706272,67.376163015,2950.0
12.398307875,22.957733546,-78.780878087,6.1039120272,2960.0
10.937099261,0.21626855087,-75.307107352,-40.517153267,2970.0
6.8888099513,26.738971836,-75.064691903,-112.12381719,2980.0
5.7227310458,58.898391598,-73.20125502,167.24385902,2990.0
5.2845944216,89.47315273,-68.677441187,95.158923124,3000.0
5.0352286939,117.35146932,-65.02409421,35.697260518,3010.0
4.9762149039,143.56972844,-63.112636334,-17.339826484,3020.0
5.247294626,169.80179099,-62.911926102,-61.426135079,3030.0
5.892817586,-162.65930707,-62.271982102,-99.05257557,3040.0
7.1009275051,-134.19214977,-61.60274919,-137.98232568,3050.0
10.402261676,-108.25001173,-60.632006221,-177.08972647,3060.0
12.379135461,-135.33046881,-59.891145001,141.34352439,3070.0
7.3592899782,-113.93538618,-59.664823209,97.451403263,3080.0
5.9253786635,-78.683700461,-60.501360009,58.224371389,3090.0
5.529573417,-47.401493497,-60.913638013,28.24558942,3100.0
5.6485239191,-17.578665476,-60.283057932,-3.4534016381,3110.0
5.8612700522,11.795759796,-59.928555675,-36.958065146,3120.0
6.1818431853,43.153128326,-59.004097637,-72.39237065,3130.0
6.5413629532,74.563096504,-58.486620605,-114.96745137,3140.0
7.5793304235,105.44788538,-58.709435686,-157.96583727,3150.0
10.560530069,134.33283815,-58.790674121,157.11174366,3160.0
15.810149984,120.93864764,-60.257228688,106.74783877,3170.0
8.8889684225,116.96983773,-62.576300875,64.742805366,3180.0
6.2260054509,151.53731084,-64.72161643,29.864707335,3190.0
5.6625437287,-176.6325304,-66.159854721,1.7602848892,3200.0
5.6769538621,-146.68801209,-66.171205149,-25.452167605,3210.0
5.8175113004,-117.53278525,-65.342036036,-58.978036766,3220.0
6.0998296109,-89.184824201,-64.160467597,-98.840018083,3230.0
6.9569221526,-60.29337471,-63.141742893,-145.30961043,3240.0
8.692149187,-26.361230938,-63.001845567,168.34668862,3250.0
12.460157604,10.436450148,-62.264646481,125.20643679,3260.0
22.618100501,-19.067853842,-61.953079658,78.434645394,3270.0
10.950283724,-31.378550248,-62.779020815,37.866875241,3280.0
7.6479380989,13.07499664,-63.619594788,0.68581530397,3290.0
6.714691036,53.29217378,-65.275798332,-25.7345139,3300.0
6.3915382098,87.98850204,-64.778331495,-42.938547937,3310.0
6.4863431282,119.46569641,-63.01971284,-72.760843866,3320.0
6.8981869882,150.46689937,-61.823424731,-108.81237747,3330.0
7.4682910323,-178.18058804,-61.14860251,-148.41192495,3340.0
8.5179711366,-147.35355399,-61.011780924,169.78081785,3350.0
11.153579181,-115.22404501,-61.443749024,129.90152562,3360.0
22.540732857,-98.330025355,-62.104490598,92.599002572,3370.0
12.468903253,-172.66489542,-62.768215588,59.133585152,3380.0
7.6087598872,-126.28724468,-63.419357165,25.509600361,3390.0
6.6239921519,-86.215720892,-65.033843725,-9.4687894493,3400.0
6.9279236889,-51.279615811,-67.416145257,-26.201977816,3410.0
7.682687147,-15.824610383,-66.782970907,-40.7261826,3420.0
8.5098322838,20.116313221,-65.968722563,-69.241132657,3430.0
9.7828477269,56.680620499,-65.430074382,-103.4545335,3440.0
11.752268142,97.545404019,-66.302905094,-146.8596234,3450.0
15.375955546,139.72467202,-68.818095281,171.58134501,3460.0
23.116912441,-132.3191237,-71.124389442,138.59198499,3470.0
15.460392706,26.234069159,-72.283412933,105.15790081,3480.0
9.7656644573,92.969758415,-72.431799631,70.280468008,3490.0
8.0164533452,144.76040317,-72.379764681,33.970043067,3500.0
7.6615402906,-172.56435257,-74.079305445,-1.9962707411,3510.0
7.9198007543,-136.2685186,-74.971048451,-7.0904598458,3520.0
9.0030802585,-102.37965558,-72.447920715,-32.516136622,3530.0
10.653030697,-66.305990996,-72.244002159,-68.561782397,3540.0
13.547031927,-25.644774589,-73.810618403,-105.59263467,3550.0
19.538476188,31.561896561,-78.576520568,-145.34767949,3560.0
20.172734035,164.60544998,-92.289313909,152.7700391,3570.0
12.554685327,-119.96997629,-86.045501769,-3.9054724601,3580.0
9.4667028429,-61.781392131,-78.501129105,-37.703061497,3590.0
8.7840223311,-7.0522454718,-75.288144733,-69.54948234,3600.0
9.6502299692,44.115986909,-74.32024723,-108.95023379,3610.0
11.193989259,94.616686403,-76.038583982,-134.54198686,3620.0
12.750361772,145.38945833,-76.614356278,-161.87969159,3630.0
14.243575875,-161.82016261,-78.526739757,158.11815423,3640.0
15.321046609,-104.64290737,-81.050875951,101.33972116,3650.0
16.222110267,-42.936789295,-79.891728593,32.809526568,3660.0
15.53088695,28.837054729,-76.941305445,-19.828852424,3670.0
12.821846631,98.351787449,-75.671380595,-62.580734572,3680.0
9.9800039254,160.53381399,-75.43024107,-87.995885255,3690.0
8.7648401911,-143.9927131,-74.165436939,-114.92676094,3700.0
9.4570527417,-92.198969256,-73.865992431,-147.42103684,3710.0
11.771859407,-43.818624675,-76.800433434,174.07679936,3720.0
16.520710432,6.9357243691,-80.276848991,171.23846976,3730.0
22.316967283,89.285465908,-79.078742083,144.53777512,3740.0
18.131283667,-171.71598575,-79.767977069,89.433031913,3750.0
13.7575701,-119.39173631,-79.285277604,20.182957562,3760.0
11.135174524,-76.386282244,-76.739849253,-40.475095042,3770.0
9.5759372571,-34.001450354,-73.816037713,-88.064154014,3780.0
8.9759406621,11.962148858,-72.529009368,-129.18524397,3790.0
9.4039787341,64.303170778,-71.658593423,-167.90465398,3800.0
11.378615868,123.40882531,-71.69729433,150.69591968,3810.0
15.545980188,-169.4303055,-72.953307962,101.92029915,3820.0
20.62424236,-82.879445004,-77.365169535,56.958935727,3830.0
19.773189818,19.651922411,-80.359753467,41.433547645,3840.0
15.577441069,85.414199056,-77.486187534,7.9648088195,3850.0
12.309152514,132.81925587,-74.704785405,-31.884024277,3860.0
10.022401252,172.08658593,-72.466786086,-70.567649482,3870.0
8.4111127355,-150.07510996,-71.011530631,-106.38164156,3880.0
7.4876590503,-112.89755446,-69.223593711,-143.20268085,3890.0
7.5795839082,-73.77268941,-69.008640337,177.17998956,3900.0
9.7000083823,-30.473983579,-69.324702756,140.09962264,3910.0
17.183463731,6.5074181738,-70.326631128,100.68087813,3920.0
20.40814128,-76.941334402,-72.371744849,56.899192236,3930.0
13.328589279,-58.813582718,-76.231622705,23.239155808,3940.0
10.204047556,-24.909727395,-76.55715065,5.8202173452,3950.0
8.9410579304,6.2406029445,-74.886714041,-26.148730473,3960.0
8.221616134,38.478588544,-73.55602656,-60.845322748,3970.0
7.834234015,71.890053679,-72.784615268,-91.16173098,3980.0
7.7229971097,108.1890572,-71.477036854,-122.21959077,3990.0
7.9071712815,148.68995827,-69.886855959,-154.450794,4000.0
9.2501099905,-166.64468319,-69.258286029,173.53031766,4010.0
14.848403428,-124.30377613,-68.520687043,134.65324101,4020.0
20.661824511,-171.49860996,-69.20988114,89.015587895,4030.0
12.633370198,-164.11789734,-72.910404483,44.012659096,4040.0
9.4612674751,-133.26518002,-74.83103332,28.314533998,4050.0
7.8657026638,-104.3230708,-71.68036188,-3.002229316,4060.0
6.9548862304,-76.273198234,-69.165234374,-48.774584539,4070.0
6.3941019014,-48.309734358,-67.098438439,-93.359483285,4080.0
6.1053728988,-20.251029475,-65.294638961,-136.89913205,4090.0
6.3418239585,9.4506414285,-64.390659873,-178.75897785,4100.0
7.7728348312,43.201684362,-64.085616845,141.14021185,4110.0
12.194923061,70.753488501,-63.963421422,100.68785287,4120.0
14.343713553,47.799375596,-64.188020739,58.696216565,4130.0
10.211663265,61.964655236,-65.416352596,12.789988634,4140.0
8.4724089511,91.586408751,-69.151324756,-28.463131927,4150.0
7.7147604716,123.19489314,-70.795744304,-30.187494188,4160.0
7.0072171834,154.84461846,-66.998812497,-56.645612112,4170.0
6.613977222,-176.13602511,-64.603970198,-96.657114616,4180.0
6.454058306,-145.84633966,-63.049355496,-135.69015547,4190.0
6.3744458891,-114.48091079,-62.027756952,-174.00763743,4200.0
6.8770690389,-82.254378353,-61.349716994,149.40144262,4210.0
9.3614273811,-53.907289504,-60.84588391,111.40174741,4220.0
11.519566615,-57.880584266,-60.835723118,70.684333812,4230.0
8.6874919925,-48.814051136,-61.386617126,26.181601269,4240.0
7.0011192695,-24.954121313,-63.587744407,-19.889072117,4250.0
6.1710991675,-0.26628324804,-66.817822476,-51.280366174,4260.0
5.9631588237,24.563615343,-67.254958829,-71.925205692,4270.0
5.9570950898,51.80370077,-65.879675702,-104.59725551,4280.0
5.8165237782,78.723263065,-64.683837525,-143.65813251,4290.0
6.0631933497,106.60599223,-64.154643766,175.80890191,4300.0
6.7397298094,137.76629084,-64.096192232,139.13980411,4310.0
8.9410514679,168.91811376,-64.089357245,105.23951043,4320.0
11.878776682,172.74145174,-64.082589215,69.164194845,4330.0
8.9852683629,-177.1552774,-64.796869773,28.354486249,4340.0
7.3704961617,-150.49651728,-66.15529739,-14.003906563,4350.0
6.5797282255,-122.43892284,-68.698304595,-59.480975924,4360.0
5.9582224171,-95.243246622,-73.270474384,-95.884031021,4370.0
5.5110863988,-70.080689335,-75.935920555,-107.6704733,4380.0
5.334379033,-45.08978537,-73.674906863,-129.89017476,4390.0
5.3627341933,-19.361256557,-71.348336547,-163.22121669,4400.0
5.6989450869,6.6859103742,-69.512848695,169.61669717,4410.0
6.8796229885,32.857962954,-66.745092936,131.25890689,4420.0
8.9418199257,45.774961358,-65.791525621,91.159742603,4430.0
7.9297993625,50.387253107,-65.460861597,56.084978914,4440.0
6.6650118242,75.183040552,-65.887154358,21.307052737,4450.0
5.8460323868,101.48016086,-66.783564744,-10.536198018,4460.0
5.7616783441,126.27588703,-67.882839896,-39.868021799,4470.0
5.9310211754,154.10095329,-68.577253825,-67.687632272,4480.0
5.9775294185,-177.91891294,-68.792484065,-95.815200767,4490.0
5.9892247708,-149.46424723,-68.128420019,-129.44097956,4500.0
6.0560473112,-120.58305105,-67.944291129,-171.7704985,4510.0
6.8293294176,-92.574575326,-68.693256056,149.55685913,4520.0
8.6430923755,-73.888929272,-68.007531679,115.14012811,4530.0
7.8565905396,-64.479051066,-68.012888171,70.95303798,4540.0
6.3256631873,-44.362110586,-68.95490407,30.547973762,4550.0
5.7351620764,-20.355710548,-70.551750389,-8.4105431066,4560.0
5.4490561602,5.0004228338,-72.719641661,-49.269608913,4570.0
5.1502483174,28.397366441,-76.880885277,-98.85174958,4580.0
4.9569736075,52.350332234,-81.102832972,-170.18919378,4590.0
4.7054737549,75.921725301,-79.841186113,91.97633667,4600.0
5.2217314172,97.099876882,-74.800861629,33.718843011,4610.0
6.2257203315,124.96417189,-72.355476419,-12.36588212,4620.0
7.8097740735,150.10811058,-70.579471076,-51.366875435,4630.0
8.1742542298,158.18725452,-68.610635102,-91.217703294,4640.0
6.8808094833,179.38359148,-68.031956968,-136.57232263,4650.0
6.1598561628,-154.25385052,-68.394621883,179.35832917,4660.0
5.7494028259,-127.57468289,-70.236773648,136.17280891,4670.0
5.5315641559,-101.75860678,-73.732945296,108.32967874,4680.0
5.4923001409,-76.393913795,-75.424419223,103.20749868,4690.0
5.5884818124,-49.88871998,-72.875969771,93.780479208,4700.0
5.5354323222,-22.833122736,-70.572277463,64.956164808,4710.0
5.5185057419,1.884995196,-68.898993449,24.135210207,4720.0
6.6079216533,22.605804522,-69.056317153,-22.855567222,4730.0
7.7717701858,35.276379309,-70.41028576,-67.314168852,4740.0
6.3446091079,50.768588545,-72.223934962,-115.31311579,4750.0
5.5752455376,73.838186886,-75.524125019,-156.35455769,4760.0
5.3633840796,97.919431897,-77.692521284,167.99514436,4770.0
5.4994885255,121.74888555,-78.964384301,141.26951001,4780.0
5.6968818486,148.69043494,-78.854516365,114.30054161,4790.0
5.5781792345,175.38942659,-78.67418321,89.451295483,4800.0
5.6464577019,-159.26469359,-81.085573725,68.15091687,4810.0
6.1929885643,-132.55229216,-81.779533449,62.570269351,4820.0
7.1621458564,-105.68912478,-80.046080429,75.698519837,4830.0
8.1252811066,-89.098750582,-74.547170129,51.608484627,4840.0
7.092464089,-74.379476938,-71.912845731,11.29293642,4850.0
6.0646476419,-49.481736234,-71.660268085,-34.103193054,4860.0
5.5194402641,-23.547777105,-72.422955354,-88.10549028,4870.0
4.9995571283,1.054710818,-73.667394639,-156.18174799,4880.0
4.6789305735,22.413402307,-73.233937979,130.98399138,4890.0
5.21416426,41.652841608,-71.980861982,72.221896621,4900.0
5.8845686856,71.596890758,-70.197959515,23.093894463,4910.0
5.6152488884,97.290508411,-69.88151133,-20.532667051,4920.0
6.2537026574,120.2109575,-70.570638401,-63.599613396,4930.0
7.58606643,137.7780332,-71.928534036,-99.4034062,4940.0
7.0946917949,150.50628229,-72.91546067,-130.85689368,4950.0
6.1311538929,174.51190068,-72.981315912,-168.26084259,4960.0
5.7461308537,-160.20115807,-73.127861502,154.78741513,4970.0
5.7489777445,-134.48879456,-72.289928593,121.82170619,4980.0
5.8371688618,-106.97599963,-69.772516603,81.63812849,4990.0
5.6310045695,-80.139140191,-68.214870627,40.005904894,5000.0
5.4137739263,-56.477517247,-67.381775802,2.6085961958,5010.0
5.6816194798,-32.46697151,-66.642571233,-34.133243024,5020.0
6.1190421913,-6.5964171969,-67.144990424,-71.097308155,5030.0
7.0513211996,15.001117495,-68.723280819,-101.60279373,5040.0
7.1069101888,26.166600452,-69.857332237,-126.17829651,5050.0
5.6708858271,45.390874021,-71.590605032,-153.23769909,5060.0
5.3921017654,68.717529657,-72.843863482,-165.21186405,5070.0
5.3567872931,94.373585907,-71.346446101,172.79666302,5080.0
5.0888905616,118.28966716,-70.202248494,136.92055892,5090.0
5.3547214206,140.78907249,-69.760185749,96.786801916,5100.0
5.654087991,166.03206635,-69.370686,58.304955129,5110.0
5.8872446564,-168.05019517,-69.164918447,18.840770838,5120.0
6.417525627,-143.22536941,-70.283188314,-19.087080728,5130.0
7.6077928586,-120.78604936,-72.27552413,-39.314146159,5140.0
8.2758885366,-108.37714875,-71.139830842,-45.477213371,5150.0
6.8324053692,-88.32131545,-68.32043673,-71.278213348,5160.0
5.8804727754,-60.809766193,-67.264621243,-101.5945618,5170.0
5.5804484408,-35.710788033,-67.044883969,-133.1902455,5180.0
5.8710998563,-8.5446290571,-67.10333695,-156.506421,5190.0
5.7950673655,19.452820893,-66.017031108,175.12776668,5200.0
5.2192470001,42.443698391,-66.035356856,139.84233969,5210.0
5.6264885782,64.838492408,-67.074887576,105.65905278,5220.0
6.1947290043,90.889897998,-68.185550497,79.22667385,5230.0
7.1524293032,113.55442447,-68.77717586,53.737428965,5240.0
7.991103002,127.02851041,-68.552507113,31.398636132,5250.0
6.6039903451,141.41428221,-67.218434509,0.63085228974,5260.0
5.7799265386,166.35063817,-66.35850841,-33.987906861,5270.0
5.6122545194,-167.07755546,-66.069412576,-70.402799887,5280.0
