S11m,S11p,S21m,S21p,Frequency
16.926438708,0.2630622661,-55.663767031,-107.26732957,2000.0
10.898744703,105.8643937,-67.056710029,-44.791501341,2010.0
7.2049892369,152.31343386,-73.43573668,30.903502396,2020.0
6.2257551883,-172.04684492,-67.944477139,72.674815448,2030.0
7.1983728051,-136.17322669,-63.700769942,86.140051804,2040.0
11.461878241,-89.613484252,-60.048191969,109.24409755,2050.0
18.845036246,36.729037641,-55.932523243,-158.37558829,2060.0
10.048143948,125.73973018,-71.961096363,-113.48058335,2070.0
6.893216354,166.36224007,-75.505326655,-131.01436631,2080.0
6.242956809,-160.03248419,-76.534656171,-116.18903561,2090.0
7.5329136219,-124.88982954,-81.519584108,-74.695653272,2100.0
12.222029149,-76.35960073,-68.326090828,95.528251332,2110.0
17.696608742,51.899973159,-56.34503465,-128.5998328,2120.0
9.7775118998,131.80346117,-66.061192041,-32.540309277,2130.0
6.9494044535,171.93822522,-69.268650959,15.990454626,2140.0
6.6359972311,-153.87622131,-68.619655033,58.157651632,2150.0
8.6592503995,-116.82379188,-65.6337739,87.470895644,2160.0
15.844159807,-59.719419371,-61.034387794,84.967336228,2170.0
15.268334187,95.372356234,-54.360691549,143.1268892,2180.0
8.5130239641,148.57532406,-55.328958565,171.26664151,2190.0
6.420658937,-176.57821438,-59.136258885,-168.752151,2200.0
6.4447043037,-144.37536092,-61.765362728,-154.63096367,2210.0
8.6608349432,-107.15714406,-60.718322505,-120.98801179,2220.0
16.046744703,-45.459180037,-50.629948656,-58.420170529,2230.0
14.228440322,102.91616963,-48.574313816,63.488848228,2240.0
8.2056578874,155.21653355,-53.153509394,81.250031395,2250.0
6.4765499754,-169.43385072,-55.041792767,97.59369551,2260.0
6.8893503114,-135.68217238,-55.209911627,125.6640945,2270.0
9.9438163188,-94.975942067,-52.627718514,162.32187699,2280.0
18.916248504,-8.0721134023,-43.933829449,-111.97776966,2290.0
11.686299807,118.99912793,-54.727630544,18.673814289,2300.0
7.2012356037,163.19149455,-66.632896996,58.976112395,2310.0
5.96326618,-162.9085446,-74.294329533,101.92594995,2320.0
6.605851261,-129.29175185,-72.15883903,138.67262622,2330.0
10.067577472,-87.52194274,-63.733758611,162.01612329,2340.0
19.83757811,14.575607315,-48.888709044,-115.92099576,2350.0
10.78881683,131.79013975,-56.769395351,-25.047204003,2360.0
6.8673505118,173.84139357,-62.514364718,-3.2300954645,2370.0
5.9372457108,-152.19825978,-67.42360993,9.124292198,2380.0
6.860313597,-117.10236893,-71.367814135,3.5379689006,2390.0
10.904319387,-69.913358961,-62.810045682,-3.2698804715,2400.0
16.928057378,49.973553154,-51.314973613,99.706435169,2410.0
9.2817714009,137.70051636,-60.46982187,172.63851251,2420.0
6.3141969339,179.3040173,-72.105102777,-151.62766622,2430.0
5.7618720845,-146.48541786,-70.696069262,-0.13137432448,2440.0
7.1619074544,-110.19529851,-60.55013783,42.688253553,2450.0
12.523350721,-57.632618548,-52.247958048,81.587847926,2460.0
15.402546726,85.468673367,-49.121357763,-159.962162,2470.0
8.092934638,152.13573431,-58.656403543,-109.00360143,2480.0
5.7251204003,-169.63359765,-64.562739704,-84.829006228,2490.0
5.437677224,-136.54712399,-66.462913354,-61.220780549,2500.0
7.0864293905,-99.486038077,-64.240870933,-35.003539046,2510.0
12.773531531,-41.01372577,-58.685960152,18.328018146,2520.0
13.760868928,97.012780752,-65.211088875,158.22976959,2530.0
7.6314051082,160.13605837,-71.94674933,-44.194068844,2540.0
5.6651567037,-161.86787364,-64.882140668,-4.0819789587,2550.0
5.6809212506,-127.8865352,-59.406313569,24.749484541,2560.0
7.9203573752,-87.783171253,-53.923050089,52.619893462,2570.0
14.674706997,-12.69128539,-46.368435729,102.02643002,2580.0
11.36644554,117.71055935,-52.793124388,-151.70730272,2590.0
6.6085323401,170.56778944,-63.942717976,-127.67539064,2600.0
5.1701694004,-153.59883409,-69.392322805,-128.80987009,2610.0
5.5285139942,-119.71446965,-70.926440345,-128.58013501,2620.0
8.2105458784,-77.371419746,-69.469201249,-101.42781568,2630.0
15.447584315,8.3777576064,-74.185822947,-13.35806538,2640.0
10.407706773,130.84863884,-68.980214638,-146.2431469,2650.0
6.267633735,179.74818697,-66.900248978,-117.09337648,2660.0
5.1018984197,-145.00816733,-68.638638107,-106.25401497,2670.0
5.706195334,-109.66479594,-76.175379994,-99.268333252,2680.0
8.7922425885,-61.969821938,-71.200078008,179.06422641,2690.0
14.474173633,41.002091582,-60.632079872,-127.28779449,2700.0
8.6584060187,141.17718316,-69.045752698,-41.071516279,2710.0
5.5291720719,-173.09957396,-77.154584385,1.2047377735,2720.0
4.7992243657,-137.99417382,-82.541500519,106.433873,2730.0
5.7020464207,-101.33357055,-73.142553344,-155.02466138,2740.0
9.329593506,-49.26582299,-68.822448449,-41.921972374,2750.0
13.432153771,65.943985427,-56.581252181,93.698089057,2760.0
7.3638364265,151.36233896,-58.197396038,157.85313644,2770.0
4.7218849083,-165.23611,-59.69386649,-177.62008475,2780.0
4.1496975263,-129.9668256,-60.166770568,-158.89230341,2790.0
5.0156437017,-91.249757645,-59.117496551,-139.80237893,2800.0
8.304389635,-33.015901112,-56.07445779,-90.325801068,2810.0
10.41179393,79.117555569,-54.705493185,2.8743524635,2820.0
5.9885435819,157.79432215,-59.902411601,51.817720762,2830.0
4.0703441758,-158.00612562,-61.865866842,72.745289452,2840.0
3.7061407236,-120.89883787,-63.130301001,110.88941853,2850.0
4.5147901183,-77.160835636,-68.114417436,-178.04708836,2860.0
6.5902252911,-4.0986771587,-59.957481333,-54.838973963,2870.0
5.1137537913,100.63198372,-53.789447407,22.285504988,2880.0
2.3735241624,167.75315783,-54.710970787,58.958630299,2890.0
1.2915672671,-149.58030554,-55.620073459,81.703468827,2900.0
0.80218607432,-112.23522779,-54.963801485,115.37499682,2910.0
0.49420344327,-65.7408559,-52.992637775,169.62697018,2920.0
-0.038183669921,10.914380257,-53.382862725,-126.52734827,2930.0
-0.83931737562,110.24755761,-57.363018872,-60.046645034,2940.0
-1.3104817188,177.74332329,-63.85891542,15.78718781,2950.0
-2.2717199179,-138.42612688,-66.599429451,-164.35134104,2960.0
-5.0087347127,-101.6448103,-57.758329894,-78.166767977,2970.0
-13.04260007,-84.202982004,-53.126969658,-33.803292709,2980.0
-12.971594522,-135.52357269,-51.275441435,0.098160131441,2990.0
-10.739576245,-112.67755899,-52.000717738,30.236325857,3000.0
-16.4007592,-74.73334864,-52.302454615,66.830941958,3010.0
-17.028494305,130.83342833,-50.454004157,114.79944187,3020.0
-7.2937707508,171.80752025,-52.262771659,-162.83197295,3030.0
-3.9362671875,-154.67146225,-59.184233149,-115.29018531,3040.0
-2.395802771,-121.34111451,-64.243327956,-74.710343096,3050.0
-1.5411457724,-80.234149202,-68.852347329,-5.9182604889,3060.0
-0.23977190345,-15.452515027,-65.785341575,102.17528035,3070.0
2.2011224979,83.796887845,-60.064634422,179.68192896,3080.0
2.4018582796,165.32631436,-58.951692451,-138.00241497,3090.0
2.067486637,-145.58020774,-58.776623876,-118.62641436,3100.0
2.2189322298,-105.71818196,-58.461706206,-94.3696454,3110.0
3.2635769727,-59.232043643,-57.653884713,-59.417315836,3120.0
5.9454047881,14.886921813,-55.303567133,14.853586586,3130.0
6.241740694,116.95827956,-58.245803711,117.41577554,3140.0
4.3167268467,-177.34417944,-66.778176433,-177.55588832,3150.0
3.6849502678,-135.27527609,-70.757779648,-118.5529332,3160.0
4.2290899046,-98.050349165,-69.462659601,-62.1963383,3170.0
6.7291905011,-52.39898824,-64.573891675,-7.0991445081,3180.0
12.716600782,35.463202999,-56.568850063,75.477194102,3190.0
8.929956012,150.7688051,-60.916265437,174.73847782,3200.0
5.52729323,-157.12244921,-63.980134652,-153.76906031,3210.0
4.6912559489,-120.44632707,-65.696176805,-143.75399109,3220.0
5.4987997733,-84.635989046,-64.871054768,-133.98687816,3230.0
9.006754008,-37.754732394,-59.292910118,-106.40749122,3240.0
15.636178988,68.979958619,-52.691299482,-10.854717814,3250.0
9.2909425312,169.08113436,-61.846754714,81.053160468,3260.0
6.2610775124,-146.53393828,-67.112890928,119.89118293,3270.0
5.7431436237,-112.21007317,-65.56190601,171.407023,3280.0
7.2598802957,-77.210871909,-58.651325072,-141.37511196,3290.0
12.990123195,-28.113185735,-48.940862476,-107.92134083,3300.0
17.167849351,126.41903767,-42.914578897,20.832683317,3310.0
8.7792458236,-168.96946011,-51.467934523,76.199623339,3320.0
6.4050409017,-132.61885088,-56.228649043,115.25021187,3330.0
6.3648194614,-101.01070662,-57.646804031,146.02488918,3340.0
8.6242520694,-67.044981472,-56.021753339,-178.03992697,3350.0
16.713863056,-17.130586107,-49.728112592,-121.3015443,3360.0
15.998069284,158.04950026,-54.102804593,53.667646912,3370.0
8.8755944772,-155.00953098,-64.16243661,103.28356252,3380.0
7.0211263565,-121.94592679,-64.873111982,159.136417,3390.0
7.617948467,-90.776559636,-60.20729722,-157.83035116,3400.0
11.470932985,-55.446497807,-54.577307518,-126.87237756,3410.0
31.465282203,40.769852717,-33.739188872,-29.153566916,3420.0
12.173126852,-173.20380879,-55.305856478,129.77205389,3430.0
7.8803029131,-138.66357593,-64.477299247,165.30886852,3440.0
6.9719789923,-108.51780769,-70.533529571,-166.93454352,3450.0
8.3014691102,-78.046167741,-74.163805442,-138.80546492,3460.0
13.65329147,-41.339341878,-84.2346339,-43.271395376,3470.0
24.24917079,144.62435909,-58.687106671,-150.38564747,3480.0
10.617525137,-160.56928151,-66.104610122,-109.58490088,3490.0
7.484638005,-127.22681947,-65.199874154,-83.867535508,3500.0
7.2448867672,-96.227055503,-65.686483901,-41.697866719,3510.0
9.4640469619,-62.07518901,-65.729979296,-8.3617272583,3520.0
17.905211151,-11.433020819,-58.267110667,31.273866813,3530.0
15.695764134,163.09897565,-64.771003918,-161.13104178,3540.0
8.7233515995,-152.21670007,-75.812663272,-100.9336446,3550.0
6.6985779027,-119.69467174,-78.948926788,-63.868602754,3560.0
6.9003493758,-88.49926378,-75.419173038,-14.798040968,3570.0
9.5300467464,-52.543810389,-69.802536557,31.950813308,3580.0
19.05906009,10.259095699,-60.724383462,91.304349971,3590.0
13.65641096,171.10454461,-65.389654761,-85.387787,3600.0
7.9563955527,-144.77140857,-70.700087118,58.290735449,3610.0
6.4650486067,-111.13222696,-72.498443398,129.18897046,3620.0
6.9905322124,-78.695260582,-72.832213323,159.24885142,3630.0
10.15696935,-39.828478278,-72.740467412,-164.10129766,3640.0
19.793585689,45.105718146,-68.356062785,-83.047700661,3650.0
12.012502892,176.18847309,-76.940513583,81.907652877,3660.0
7.4362451012,-140.36688193,-75.784892785,104.04399266,3670.0
6.2514618154,-106.3557938,-70.337071522,103.12616619,3680.0
7.0237500089,-72.806462941,-63.281863151,117.8897822,3690.0
10.879460567,-31.289019915,-54.472670863,155.91871815,3700.0
21.104326585,84.389413623,-43.191196128,-58.190733042,3710.0
10.72142273,-169.51557236,-59.350770959,63.203431224,3720.0
7.0902778037,-128.56822169,-67.554391113,93.212169521,3730.0
6.3384228107,-94.968593252,-70.791461774,118.93654784,3740.0
7.592646669,-59.796550085,-70.574312171,146.05899559,3750.0
12.335521565,-11.10922147,-66.820775313,-171.3042965,3760.0
17.056005127,122.39617052,-64.46977915,-34.75559276,3770.0
9.1392780711,-161.73702393,-69.802812171,39.614972514,3780.0
6.4704058656,-121.02014328,-68.450506786,74.824423316,3790.0
6.2028151444,-86.331213244,-67.628560193,131.83506362,3800.0
8.1746896355,-48.042476502,-67.844333064,169.22202021,3810.0
15.045221254,15.317373498,-61.887806771,-133.54350666,3820.0
13.569392348,159.98885137,-66.80756376,4.1746356107,3830.0
7.6489900098,-143.91593587,-77.183947193,64.752316798,3840.0
5.8377851391,-106.39631623,-79.950720103,105.10217211,3850.0
5.9653097289,-70.976631865,-87.842489836,89.552153694,3860.0
8.2511468899,-27.499486271,-73.637238928,10.78246303,3870.0
13.69632108,54.554131066,-60.062507543,79.949154998,3880.0
10.255208717,167.23674529,-60.884878792,-155.93544315,3890.0
6.3907880801,-137.96783588,-66.745060194,-72.655979821,3900.0
5.2847820041,-99.153875587,-72.943576157,-20.871238976,3910.0
6.0132313388,-60.955868861,-74.362490647,33.799894674,3920.0
9.2353298123,-9.4677475746,-71.404503118,88.465626499,3930.0
13.402959477,95.416332443,-67.26099355,-166.61185565,3940.0
8.152681289,-173.42515819,-72.649451426,-72.568019615,3950.0
5.3146499648,-126.49806572,-73.232346879,-25.976118696,3960.0
4.5804268919,-89.858234824,-68.867888178,7.1724320073,3970.0
5.3738271191,-51.592585343,-63.084335687,48.616966155,3980.0
8.3512533215,2.6373434594,-57.751228464,110.46717127,3990.0
11.552236056,103.86939511,-53.654112502,-143.47257897,4000.0
7.4223262033,-168.77993846,-60.638111144,-49.834756132,4010.0
5.1329669092,-121.03733709,-67.993481376,-5.067480998,4020.0
4.7830389975,-82.876905782,-71.283557067,30.223007682,4030.0
6.0144884082,-41.587736561,-71.451372241,74.824674968,4040.0
9.5995346835,20.315502987,-68.329960775,133.57410681,4050.0
10.797980067,129.44722387,-68.908543218,-123.29756007,4060.0
6.5310159082,-157.13694777,-74.851247491,-60.193829715,4070.0
4.7278099038,-113.28397884,-74.000029839,-25.487468341,4080.0
4.6739570965,-75.912381108,-70.77797865,41.874289106,4090.0
6.2475122222,-33.473423379,-71.394589618,109.84725251,4100.0
10.73371048,33.40705947,-66.222494067,174.81229361,4110.0
11.001224936,151.58166608,-65.298924854,-70.84032109,4120.0
6.6541426249,-141.17473425,-71.108571008,-22.774063737,4130.0
5.2138585684,-98.348783077,-74.808035622,4.981328729,4140.0
5.5916271415,-58.543549409,-73.910958212,33.698570682,4150.0
7.9774812991,-8.4796041194,-70.665410853,70.927238392,4160.0
12.002960633,81.517891565,-64.055509613,150.32758982,4170.0
8.516197072,179.74079284,-62.468916672,-117.50182543,4180.0
5.6811277905,-127.4278684,-58.876096112,-49.265269248,4190.0
5.0374114568,-87.491957182,-62.43950142,14.795672315,4200.0
6.0280159588,-47.189923248,-64.873293267,51.682248896,4210.0
9.640626353,8.3874825618,-62.634451293,100.68898081,4220.0
12.934162113,119.65176015,-61.924959068,-170.75000853,4230.0
7.799803009,-156.90750214,-69.862643181,-111.85908161,4240.0
5.4925625798,-110.92017877,-73.495085015,-85.620926441,4250.0
5.1992645858,-72.429403911,-74.738413693,-56.58575515,4260.0
6.5876506765,-30.072680625,-73.614536575,-5.0150972455,4270.0
10.550036871,34.519975983,-65.387817003,97.433407319,4280.0
11.067714399,144.42779298,-57.471292548,-134.85360212,4290.0
6.9867346461,-146.68107022,-61.024219489,-39.06903227,4300.0
5.3835097012,-103.14138594,-66.160238001,7.9419304833,4310.0
5.5185860965,-65.117925985,-68.376758005,34.896744679,4320.0
7.5721511286,-21.046517174,-66.311224654,69.38405012,4330.0
12.598763142,52.841781972,-62.383235441,128.94101496,4340.0
10.87476823,166.42541313,-65.175641018,-132.5081706,4350.0
6.8608019429,-134.2754842,-70.501092343,-85.088233885,4360.0
5.5209985998,-93.793253537,-72.113309199,-42.336168824,4370.0
5.9332189656,-56.305093654,-67.276036718,26.668963112,4380.0
8.5483415108,-11.060493229,-59.24378733,100.04949865,4390.0
14.176033713,71.386689754,-53.630666989,-162.93961084,4400.0
11.011039462,-178.44871133,-61.402947196,-48.915731133,4410.0
7.3033297456,-124.70779688,-68.703355069,0.75725790125,4420.0
6.3710055868,-86.121165106,-72.043174732,36.026387481,4430.0
7.409905306,-48.812714591,-69.886603355,78.929160757,4440.0
11.617318848,-1.6146629681,-63.730104969,116.30446812,4450.0
18.425632713,115.49411704,-55.369845418,-142.69206287,4460.0
10.638365767,-151.39435065,-62.822736045,-62.907508554,4470.0
7.4960589058,-107.95150819,-66.498911989,-7.4721753274,4480.0
7.145880226,-72.002973296,-58.950098868,170.5566553,4490.0
9.3090822015,-33.763530881,-56.402249792,-146.52721164,4500.0
16.603534153,23.204943333,-50.270609946,-117.32609073,4510.0
16.140454278,179.26557886,-52.974339373,16.196925181,4520.0
9.4004262523,-126.98620356,-62.047171901,51.130925804,4530.0
7.5487541448,-89.936394569,-65.158633994,69.387536476,4540.0
8.1112688624,-54.752239766,-64.158853042,94.596879731,4550.0
11.807246701,-12.034500181,-58.565788995,142.80070124,4560.0
20.85240117,93.070644429,-42.149974834,-104.06368529,4570.0
11.820754728,-156.3094326,-35.740056263,-166.37695166,4580.0
7.801504513,-112.92665196,-59.769040975,-146.38270509,4590.0
6.9283283382,-77.578642383,-65.383574864,-154.32247295,4600.0
8.1218818412,-40.926417064,-72.003530328,-153.60750379,4610.0
12.631005836,7.4529284228,-69.190239842,-121.41148504,4620.0
18.070705726,129.27803652,-67.153862213,-38.751049527,4630.0
10.359284149,-148.1079191,-83.730735196,13.558056821,4640.0
7.3153204109,-106.25501311,-81.713131346,-168.06107042,4650.0
6.8111007958,-70.817651391,-73.677222185,176.83834061,4660.0
8.346488072,-32.172246232,-61.831206106,155.09551637,4670.0
13.212622501,23.904933834,-61.908693171,137.6165492,4680.0
15.308389877,146.69805459,-62.952430611,-55.319180514,4690.0
9.0662293176,-143.74695291,-64.323741519,23.453223837,4700.0
6.7082785201,-102.79326387,-62.36673069,29.552983352,4710.0
6.4679478266,-67.508433331,-62.423164909,27.214245015,4720.0
8.1806376389,-29.328443456,-61.015537322,46.837245098,4730.0
13.308562719,26.48701351,-53.97584294,85.864821237,4740.0
15.420817091,151.83913174,-49.396613048,178.61664882,4750.0
9.1068734524,-139.12336845,-52.548554515,-160.71998624,4760.0
6.8059574635,-98.03647166,-52.760783851,142.29701966,4770.0
6.6961621656,-60.988072148,-58.120028949,106.61370132,4780.0
8.6829834075,-18.770233135,-59.467430155,116.22392085,4790.0
14.098693192,51.572686946,-56.121241994,-179.1707651,4800.0
12.359386145,168.88651579,-54.266803041,-49.829096114,4810.0
7.6808090449,-131.44612761,-54.816158368,-18.350577961,4820.0
6.080518108,-90.727263928,-55.251573955,-14.283751233,4830.0
6.4630288955,-51.774844221,-53.834861845,-1.1350042614,4840.0
9.3168386656,-2.5899037355,-49.025507796,26.008468491,4850.0
14.472541868,98.002691143,-39.223197038,106.32880754,4860.0
8.744630807,-159.03201326,-34.192648322,-33.90175025,4870.0
5.3288433694,-105.56542721,-56.700648397,-1.6340749039,4880.0
4.1893062614,-59.785846596,-61.925612213,3.1559600076,4890.0
4.0336764669,-4.1204200396,-61.140154125,29.067196202,4900.0
2.6247974795,78.465344574,-59.152668307,91.515834314,4910.0
-0.87408912898,164.07112114,-59.509625438,147.55811787,4920.0
-2.8231183028,-135.16968424,-64.411403738,-178.46895226,4930.0
-3.8048117795,-91.767080587,-71.564140505,-132.28237735,4940.0
-5.3249161751,-49.789870839,-68.785463212,-178.21386765,4950.0
-10.100837158,9.9548359824,-59.017935274,-123.61216433,4960.0
-13.45592047,170.52332319,-53.950511835,-42.386562982,4970.0
-6.0626443836,-103.44033489,-53.462397318,46.176317867,4980.0
-3.8566666471,-39.612699706,-57.113884038,109.56564127,4990.0
-1.8618268867,46.135773147,-58.756404827,167.86718927,5000.0
1.4931150154,154.44056631,-60.438379659,-109.6371926,5010.0
2.3032208608,-127.59169531,-61.680016941,-40.632717793,5020.0
2.6000897654,-75.286278325,-59.599135916,5.117204771,5030.0
3.738631622,-24.568018636,-56.563881266,14.254541068,5040.0
6.3054896175,44.709944732,-50.735767135,42.470560293,5050.0
7.2361375915,140.49425862,-47.323459296,145.55959209,5060.0
5.307917907,-147.99770543,-53.97319904,-120.35843192,5070.0
4.5770445359,-101.34776232,-58.064723909,-65.017324203,5080.0
5.243272453,-61.898648042,-59.160069261,-13.705399423,5090.0
7.9778191373,-18.633723354,-57.822981251,32.119981835,5100.0
15.299377901,54.354467029,-52.998929633,89.424402404,5110.0
12.617525502,-172.10234044,-58.008121669,-161.15205516,5120.0
7.7612349814,-118.00832409,-61.875256774,-111.85833648,5130.0
6.4180164857,-79.776366473,-57.713580431,-64.630812148,5140.0
7.168021707,-42.537480828,-54.239481785,-4.5996726488,5150.0
10.584940462,3.618949249,-49.311045184,64.697770476,5160.0
16.865492463,99.576134601,-46.046676575,165.65318934,5170.0
11.260116371,-160.3093992,-55.187801494,-107.86913081,5180.0
7.8236464502,-114.53275546,-60.062791549,-79.903588973,5190.0
6.9771022885,-79.431305301,-61.251714944,-57.627532932,5200.0
8.1408308158,-45.692937081,-60.420640009,-28.387535583,5210.0
12.638105426,-5.0188575981,-55.519259067,2.2638126513,5220.0
23.517652644,117.72520801,-43.021500281,102.48085559,5230.0
11.978159003,-144.34947902,-48.300725401,-171.5248825,5240.0
8.2369903941,-106.37183998,-52.255573241,-69.860689597,5250.0
7.3879221829,-75.017426767,-56.730993399,-37.022634084,5260.0
8.5272241525,-44.91179982,-55.678850614,-10.358305482,5270.0
