S11m,S11p,S21m,S21p,Frequency
6.0128514947,32.601955749,-46.729197284,-71.147188101,2000.0
5.4874239655,69.083197095,-54.147773872,-81.650775581,2010.0
5.1940175494,107.1135425,-59.847342398,-42.195008691,2020.0
5.5531340345,146.29022919,-54.580964949,-23.59870382,2030.0
7.0480530104,-173.89827693,-46.944674535,-36.858796134,2040.0
11.895258029,-138.39396442,-36.266156141,-72.433588494,2050.0
14.544434364,-169.99629833,-28.533331617,172.33114885,2060.0
8.8266167253,-149.23101134,-31.166183369,84.860892857,2070.0
6.7801082837,-112.26993633,-37.463299352,24.922665296,2080.0
6.0296151233,-74.932697098,-42.433527618,3.3033262972,2090.0
5.6916757436,-38.211089425,-45.190282089,-6.5650379335,2100.0
5.3553307171,-1.7385938521,-46.887940247,-26.345608741,2110.0
5.2859911108,36.668749307,-52.840593104,-36.152534059,2120.0
5.5082301095,76.597292269,-50.954011385,-2.1078688157,2130.0
6.6944850831,117.72512524,-43.260117853,-2.4608133097,2140.0
10.872883052,153.32641298,-27.141373047,-39.41698877,2150.0
13.599967952,130.44587973,-27.142877702,114.42461685,2160.0
8.1587499686,149.03129373,-40.49642026,70.437588543,2170.0
6.0838653105,-175.89917827,-46.831060907,64.215719711,2180.0
5.2509501357,-141.25346066,-49.652565031,64.238469188,2190.0
4.9509035926,-106.77816221,-50.314814478,63.760454108,2200.0
4.8783670374,-72.036860296,-49.92927616,54.547712963,2210.0
4.9841156064,-36.19341347,-50.913504708,33.854417705,2220.0
5.3947039479,1.8991443912,-52.274822337,64.790525331,2230.0
6.5912727055,42.798288706,-39.083350907,83.334035297,2240.0
10.353819477,80.183638145,-29.344577114,-97.459792133,2250.0
13.709244711,64.522022594,-36.264301652,-175.37814159,2260.0
8.4396318777,80.937491415,-47.618300716,152.37610785,2270.0
6.2102164036,117.16257112,-53.770572277,152.78612548,2280.0
5.2198961627,152.26247086,-56.611383765,156.26307866,2290.0
4.7657122587,-173.74223341,-57.454705661,158.58434475,2300.0
4.6003741353,-140.22723868,-56.417043224,153.35326196,2310.0
4.6597813898,-106.21925598,-54.021360163,139.10133124,2320.0
5.0133171396,-70.95852064,-52.347229392,125.47051762,2330.0
6.1930822326,-32.371390458,-34.478218308,146.03291292,2340.0
9.9391374592,4.3601629749,-40.449423383,-47.194196965,2350.0
12.99314839,-10.957804148,-45.680358542,-127.77343892,2360.0
8.0590139687,8.7222435012,-59.072887431,-147.73420278,2370.0
6.1211598753,46.064460244,-65.565571228,-120.76556212,2380.0
5.2968725481,82.963502995,-66.421734454,-100.3726978,2390.0
4.8316931861,117.89903881,-65.691535263,-94.168428417,2400.0
4.599691701,151.80243717,-64.256911454,-92.582772986,2410.0
4.5442520801,-174.50471564,-61.8734428,-96.036932922,2420.0
4.718456614,-140.35976353,-57.065726246,-107.51969015,2430.0
5.5161696828,-104.5639538,-45.33259703,-150.15608968,2440.0
8.3306610587,-69.64880121,-50.047932387,113.31429691,2450.0
11.788953553,-73.755643632,-50.437746275,55.950680129,2460.0
7.5932627843,-61.646878994,-57.31691003,16.375381493,2470.0
5.6641925993,-26.174417703,-61.030570747,6.9265254074,2480.0
5.0130004018,9.591808171,-62.434374037,-1.8834399117,2490.0
4.7593601991,45.018712637,-63.134580026,-2.1383189096,2500.0
4.6706377205,79.503999951,-62.328364301,-4.1396078321,2510.0
4.7057904377,114.19355024,-60.176286227,-8.5567872558,2520.0
4.897494048,149.31081168,-55.475362742,-16.045006342,2530.0
5.5377444937,-174.35243278,-44.080386988,-71.397360231,2540.0
7.7797556481,-138.56468505,-49.819204268,-149.12444838,2550.0
11.568227478,-134.26930467,-50.007047415,148.11942804,2560.0
7.8877191454,-128.26659907,-58.249913036,97.174999475,2570.0
5.6700977379,-94.723268398,-64.229266974,87.837038174,2580.0
4.8600277041,-60.247354425,-67.229022854,84.902262779,2590.0
4.5812307418,-26.570728309,-68.063187183,83.450706726,2600.0
4.5043518594,6.9449863646,-67.573634405,85.47070944,2610.0
4.569205412,40.8223225,-65.197587894,90.194592484,2620.0
4.8480458798,75.508884187,-59.106703741,87.403437884,2630.0
5.470317079,112.37029331,-46.481514317,56.006363633,2640.0
7.3902468725,150.97290312,-51.98164619,-58.394459729,2650.0
12.349651603,163.32813165,-49.86471448,-97.508690113,2660.0
8.4812342174,160.54718616,-58.983686621,-157.65763263,2670.0
5.9604847119,-164.86877042,-66.260948021,-160.47242101,2680.0
4.9811977428,-129.27758718,-69.90122216,-150.74852674,2690.0
4.5628421463,-95.660984735,-71.504829903,-143.90387547,2700.0
4.4019046781,-62.814968032,-71.391018775,-142.7121135,2710.0
4.3963292343,-29.82581521,-68.736508737,-142.07082018,2720.0
4.5855185336,3.6113918768,-62.934135468,-148.44108167,2730.0
5.1649970363,38.377788966,-51.89705518,178.2901206,2740.0
6.736612626,74.319178559,-51.473624236,74.127685842,2750.0
10.844982117,98.585534884,-50.684355183,65.937179913,2760.0
9.4469714272,88.118424254,-49.557909432,-9.1584403722,2770.0
6.1624870586,120.97110841,-54.070015923,-38.927389469,2780.0
5.1940621319,158.05119062,-57.300542589,-52.267438607,2790.0
4.8302795645,-166.64451484,-59.921398556,-58.696949208,2800.0
4.7014303452,-133.25523685,-62.147669281,-69.113407853,2810.0
4.6761070144,-100.03213125,-62.05994333,-77.192536984,2820.0
4.7760773164,-66.528415112,-60.736316131,-91.045222856,2830.0
5.1683708626,-31.921154601,-58.698865392,-117.26263662,2840.0
6.3866364367,3.9323295248,-57.081890563,-167.08133707,2850.0
9.8617706184,31.692835558,-58.482446979,157.83423377,2860.0
10.518283854,21.691517378,-56.598077256,103.01256625,2870.0
6.5263287551,47.228686016,-61.106868714,63.102509195,2880.0
5.1999538757,84.340633108,-64.063847091,43.826316944,2890.0
4.7984977073,119.95615141,-65.545860027,31.21191793,2900.0
4.7031892153,154.38020309,-66.626187458,24.256467383,2910.0
4.7762406426,-172.18740377,-66.935882245,5.3662564738,2920.0
4.9361545042,-138.02461508,-66.770295405,-19.897865701,2930.0
5.3192539763,-103.03551618,-65.088622844,-35.208271709,2940.0
6.2296445679,-66.23595368,-61.380577763,-56.023646454,2950.0
9.3586990075,-31.050138409,-57.369048378,-105.2444745,2960.0
12.239345597,-43.701357162,-56.978321158,-157.51524151,2970.0
7.2266059852,-24.739328158,-57.28575036,162.51234723,2980.0
5.387820167,12.27886284,-57.254805173,120.46704181,2990.0
4.8450396882,47.826638979,-60.499239752,77.179853229,3000.0
4.7071850836,81.944636895,-64.132880422,52.125442919,3010.0
4.802190222,115.55501418,-65.803449769,43.51398097,3020.0
5.0579087492,149.48036385,-66.351165959,41.172854213,3030.0
5.5286867555,-175.49688421,-65.740969575,34.96274833,3040.0
6.4961052691,-139.22503413,-62.102154275,21.761590953,3050.0
8.894206188,-101.27655893,-56.540809171,-4.1962396785,3060.0
15.180550096,-99.131839556,-51.257548598,-59.374428059,3070.0
8.7299705094,-102.03470205,-52.878015061,-103.66136788,3080.0
6.0570595172,-60.0965287,-50.872461355,-155.05117551,3090.0
5.2734558735,-22.058582206,-56.285202091,141.8033686,3100.0
5.0177509586,13.231218184,-61.906477447,129.32750538,3110.0
4.9271649049,47.200710946,-63.904617282,117.25052344,3120.0
5.0565336065,80.941055872,-64.505464176,116.68600282,3130.0
5.4149640813,114.92617347,-63.935751566,115.32311889,3140.0
6.2954636495,150.25250051,-61.368373615,107.5379148,3150.0
8.5044304277,-174.24542078,-57.232352335,88.92141744,3160.0
14.415146022,-157.14251301,-51.797954739,41.714363546,3170.0
10.351233503,-179.94892909,-54.66537574,-22.2625458,3180.0
6.6606996243,-139.33140037,-53.643536047,-47.740473028,3190.0
5.7562708251,-98.215820591,-55.611008785,-136.50797274,3200.0
5.5556166766,-60.254187401,-64.437353461,-169.47739163,3210.0
5.5755088736,-24.072903623,-70.07347143,-172.77960902,3220.0
5.6774793908,11.885174257,-71.423375255,-175.80265186,3230.0
5.938124311,48.067390103,-70.843077501,-172.75438292,3240.0
6.6176161274,85.014085483,-68.301762649,-174.56245574,3250.0
8.5862971509,123.71434513,-62.572446476,177.06111797,3260.0
15.16925805,149.5617228,-52.47262841,136.55977261,3270.0
12.199520728,105.0099855,-55.562589851,41.733665608,3280.0
7.048799867,144.38766692,-55.551009686,39.771490033,3290.0
5.8292076181,-173.31788295,-47.425699839,-21.11238342,3300.0
5.6998660506,-134.37645118,-57.741962237,-94.941528114,3310.0
5.8993741201,-96.953278372,-62.619420534,-97.499656496,3320.0
6.266923773,-59.781630876,-64.619900206,-92.659571804,3330.0
6.8045249803,-21.922881661,-65.008966218,-88.927948664,3340.0
7.609053187,17.179856277,-64.084101966,-88.748188181,3350.0
9.1590905191,57.852155511,-60.5196269,-89.292255238,3360.0
14.187907442,103.7681813,-54.017522494,-96.307188751,3370.0
18.370697758,20.232213645,-48.727098412,132.55297879,3380.0
8.4104316512,66.588989968,-55.038757902,134.34570991,3390.0
6.2802204418,113.9615473,-49.839902984,117.940117,3400.0
5.8460323979,154.48659306,-53.620360568,9.469015536,3410.0
6.024167567,-168.12873473,-61.358314713,1.6073196412,3420.0
6.5882955333,-131.19623329,-64.17750936,2.6694367145,3430.0
7.4996259176,-92.730328657,-64.06605018,8.5847664483,3440.0
8.9420994971,-51.997355678,-62.576852396,16.789283431,3450.0
11.513539336,-8.7657817974,-58.833621196,19.368006883,3460.0
16.9137727,48.251214302,-53.733461227,31.743311341,3470.0
20.783936169,-100.4806047,-49.838768377,-155.72050864,3480.0
10.475423049,-23.436082065,-57.905806801,-121.14859978,3490.0
7.6320873312,35.640721157,-56.274061501,-108.96256436,3500.0
6.8473414873,83.90471513,-46.32403049,154.34825688,3510.0
6.8201317926,125.9999016,-61.509040536,114.32107458,3520.0
7.2186741321,165.06603219,-67.400033935,126.85803593,3530.0
8.0668381044,-156.4386357,-68.830152238,138.82100133,3540.0
9.6550442457,-115.86700616,-66.716341316,148.64372106,3550.0
12.692773105,-70.272962224,-63.19927924,155.92250955,3560.0
19.137146836,-4.0865868826,-56.207556443,-164.2629914,3570.0
18.345852169,159.11147154,-54.556635101,-37.785829282,3580.0
11.090995054,-119.5522992,-58.143607167,-14.221901892,3590.0
8.7358317254,-54.261199928,-52.869670694,-16.824001074,3600.0
8.3463082642,3.4616489837,-47.386695821,158.10356413,3610.0
8.6653778451,55.383379792,-58.380447009,166.58055079,3620.0
9.2667283379,103.25427598,-61.454561913,-173.23192647,3630.0
10.169305666,148.52125226,-61.379824889,-155.09437761,3640.0
11.686066384,-168.0425292,-60.398890997,-144.87312998,3650.0
14.052335194,-116.66405624,-58.901385276,-120.8122229,3660.0
19.485083993,-32.663000963,-53.05697187,-59.370570738,3670.0
16.147836041,87.86791256,-54.466865231,26.369959619,3680.0
10.494534128,160.9272389,-55.707650449,46.504356341,3690.0
8.2013069133,-138.87496585,-46.974707999,-66.47431533,3700.0
8.2948238741,-82.545834173,-60.309122362,-128.21346732,3710.0
9.8528445128,-27.527477086,-62.337741444,-133.27361477,3720.0
12.183839403,29.950953855,-59.594648311,-121.40533316,3730.0
14.552969996,91.558058047,-56.061307436,-107.93344449,3740.0
15.865755861,154.98558295,-52.682787733,-90.490529597,3750.0
15.842222555,-131.03555686,-50.01978386,-78.469175983,3760.0
15.03569451,-59.954286626,-52.420301391,-80.908881896,3770.0
13.154347163,11.588329065,-59.210083988,-46.585250821,3780.0
10.657746217,78.860510411,-62.413018676,-5.5026088293,3790.0
8.8108604689,140.82617371,-64.072460827,15.310184139,3800.0
8.5627658099,-160.961847,-64.527691135,24.215363108,3810.0
10.273461486,-105.30191218,-62.551281265,27.490239104,3820.0
14.432773602,-48.228914528,-56.992505896,31.638666726,3830.0
21.465212693,37.080626539,-45.052402352,64.054420793,3840.0
18.482218618,152.47922971,-40.265229991,61.171959721,3850.0
13.774061903,-148.97592253,-57.714716336,45.262182233,3860.0
11.212543317,-101.93485709,-63.770451308,67.852942138,3870.0
9.809792733,-55.187127491,-66.926465714,78.036176756,3880.0
9.1143853028,-4.6892697913,-68.34545076,90.887385797,3890.0
8.9223844269,51.464015679,-67.81773385,106.53169965,3900.0
9.6028270782,113.29271726,-66.775530044,118.86588721,3910.0
12.025912292,177.92057352,-64.731254692,126.95447582,3920.0
18.083352872,-114.77869461,-57.333278472,135.50481368,3930.0
26.385482247,37.364064511,-43.457860741,-126.63368214,3940.0
15.925694546,124.58075664,-44.280227267,105.69504327,3950.0
11.395224805,171.25034794,-66.663284764,122.71406995,3960.0
9.0816635336,-149.46247876,-72.790656239,161.50392576,3970.0
7.7198182409,-111.93850516,-74.847170231,176.90020964,3980.0
7.0977366131,-73.531894371,-75.633651486,-170.7697999,3990.0
7.1199523059,-31.390090823,-75.006409963,-154.20071391,4000.0
8.4259708078,18.089492017,-72.297276407,-146.72660841,4010.0
12.820031566,76.59744751,-68.142812819,-148.25723787,4020.0
28.164900163,141.90283697,-53.693768919,-144.83790218,4030.0
18.735734802,11.117099262,-60.544223754,28.966689402,4040.0
13.009699272,62.679823578,-44.980207157,1.2580364235,4050.0
10.399637816,108.55785194,-73.141790583,-164.15917174,4060.0
8.6311094869,149.4765496,-79.659763169,-96.970237441,4070.0
7.3413003478,-172.39365878,-76.779816593,-84.243344072,4080.0
6.4871676797,-135.93120299,-76.279359151,-81.341316278,4090.0
6.1518099743,-99.310301671,-75.899794587,-81.20857282,4100.0
6.6771508327,-60.302930855,-74.018855414,-85.559835838,4110.0
9.5822741419,-19.832764071,-68.554795404,-91.873847517,4120.0
16.624402664,-15.351650148,-59.985545709,-145.08833869,4130.0
12.610466543,-31.713203302,-62.268632813,143.4075926,4140.0
9.5178682043,0.00056992406793,-59.236493405,129.53641855,4150.0
8.2969519406,38.172899631,-64.314368525,-62.811491055,4160.0
7.6605562873,76.844708566,-79.380512462,20.572219831,4170.0
7.1442730632,115.88343865,-75.399816503,45.220186404,4180.0
6.6237700128,154.54302917,-73.681205788,46.703506795,4190.0
6.298048112,-167.09215075,-72.485367802,48.571773129,4200.0
6.3437916786,-128.18324744,-70.846325115,50.662075752,4210.0
7.835657899,-89.683580974,-67.174473673,38.780419924,4220.0
11.945633736,-72.390977122,-60.630188108,-7.0474394241,4230.0
10.413717697,-79.545333151,-59.985310884,-73.868097023,4240.0
7.7499146214,-54.510625912,-58.835278203,-107.38918763,4250.0
6.6046483915,-24.049853973,-51.785838106,102.38279476,4260.0
6.1294661262,7.9522300921,-69.6674277,82.000173645,4270.0
5.9948267027,41.395882921,-73.768329166,105.3657899,4280.0
6.0229850347,76.084569778,-74.9845863,119.30286748,4290.0
6.1923876631,113.64466942,-74.418878916,115.24946117,4300.0
6.4994629353,153.63069568,-70.66612988,115.30738107,4310.0
7.5910896042,-165.38984342,-66.975623484,113.58891543,4320.0
11.044855884,-138.04097249,-60.993523994,89.060055904,4330.0
10.353356236,-140.29103955,-60.204143529,29.951380435,4340.0
7.449966999,-114.70684084,-60.540086283,-3.4266045047,4350.0
6.162349027,-84.633315759,-55.302650361,-71.511303927,4360.0
5.4975850326,-54.599543692,-67.160335328,-179.5726804,4370.0
5.1980999957,-24.620012009,-80.136053371,-175.43755259,4380.0
5.1516978607,5.9073832773,-78.87650896,-137.23139081,4390.0
5.3455028953,37.869229601,-75.475490635,-146.8656432,4400.0
5.9031681008,72.454460014,-71.026539981,-164.70196487,4410.0
7.2512537058,109.91119987,-64.350422512,169.78587288,4420.0
10.367275367,140.43369193,-56.748481011,123.2294121,4430.0
10.506252326,146.23220365,-54.723622502,47.215644533,4440.0
7.8380835195,174.1237438,-58.305456903,0.65836108981,4450.0
6.4216893943,-151.07801777,-62.20067701,-28.647562502,4460.0
5.6701287569,-118.16043593,-66.584080757,-56.805358378,4470.0
5.1207642321,-87.888489476,-74.396684686,-54.661945217,4480.0
4.8651654796,-57.724411222,-74.239754277,-28.166479761,4490.0
4.7601457208,-28.388666034,-71.191092027,-36.434226208,4500.0
4.9027023847,1.410379461,-68.04702473,-59.984866379,4510.0
5.7138466271,32.925951727,-65.317308936,-108.9920595,4520.0
7.878023826,60.587406253,-61.958511328,-169.88725691,4530.0
8.74659252,71.874928348,-63.37388802,115.72859366,4540.0
7.2914905043,97.079234491,-68.561965742,60.615280651,4550.0
6.4875843905,130.96656632,-73.855299397,36.129568044,4560.0
6.0598868714,166.78831715,-81.625930597,23.204236509,4570.0
5.6525339477,-158.20566631,-91.501679398,-9.9142459367,4580.0
5.2864156068,-124.91052082,-87.734914627,177.57398236,4590.0
5.0226788621,-92.900322544,-81.889155224,179.7986426,4600.0
4.8904045126,-62.380238474,-71.658486718,151.07550277,4610.0
5.089285621,-32.04428649,-70.446423901,89.20840297,4620.0
6.3202674172,-4.6573590909,-71.595611785,51.927564146,4630.0
7.2862533701,8.7213513799,-71.821442336,-3.9593811921,4640.0
6.0375198401,28.810865681,-77.381670834,-51.854130965,4650.0
5.492599024,57.684775184,-79.851039751,-68.006007789,4660.0
5.4013323085,88.90520433,-80.324003564,-69.369246698,4670.0
5.4440984141,121.64376116,-80.566093011,-71.563771281,4680.0
5.4765504826,155.23610554,-81.261419761,-109.79622586,4690.0
5.4651278429,-170.24028894,-86.067853548,128.5024679,4700.0
5.4342660384,-135.07835475,-73.115317608,18.541083045,4710.0
5.5307411083,-101.24856132,-72.453262364,-58.462838266,4720.0
6.0420840759,-69.056945212,-73.872580049,-80.688787272,4730.0
7.2689308715,-47.755127146,-74.436979355,-128.57099849,4740.0
6.2195785448,-32.644551328,-77.747373288,164.85945023,4750.0
5.0479463873,-6.172278688,-81.409535707,135.41766906,4760.0
4.6238547319,22.224209422,-81.520462647,121.26060174,4770.0
4.6496964463,50.044103721,-80.489142466,111.488119,4780.0
4.7509257605,79.096834387,-78.96052114,115.93783829,4790.0
5.0314828489,110.41335413,-74.045083366,104.40766941,4800.0
5.3949925356,143.49981983,-66.007468496,75.028892841,4810.0
5.783701849,178.36536535,-68.186550802,-6.3383437949,4820.0
6.5948652058,-146.70758524,-70.961641146,-34.019325967,4830.0
7.8598363396,-119.65537412,-71.842064821,-66.408331712,4840.0
7.0389441641,-99.758281757,-76.018407322,-110.62901633,4850.0
5.6545138099,-70.951213418,-81.348517603,-141.74937214,4860.0
4.9235471426,-41.032179685,-85.596794571,-172.28444433,4870.0
4.5093344485,-12.802125577,-85.587624399,137.98117404,4880.0
4.4301151233,15.051089208,-78.925631347,123.65867436,4890.0
4.43035124,43.048691461,-74.078141787,115.70169003,4900.0
4.439118018,71.813318601,-69.525188558,65.482353584,4910.0
4.9810599954,100.43153645,-69.377024833,1.3903681825,4920.0
5.8448160189,131.49657817,-70.756291212,-34.081966714,4930.0
7.3398413847,159.34868803,-69.435133352,-65.332747605,4940.0
7.4318863461,179.23553967,-70.925396424,-101.98327485,4950.0
6.2274311322,-149.74866216,-74.737842268,-130.02043662,4960.0
5.5809381412,-115.23727138,-75.067704675,-148.4227719,4970.0
5.1221441759,-82.345025912,-75.132371021,-159.42106519,4980.0
4.7688001322,-51.2899717,-72.697639552,-165.03430039,4990.0
4.5950209634,-21.429120864,-68.490878023,-167.30428113,5000.0
4.5340838321,7.4290255646,-64.873972062,148.02076782,5010.0
4.6190095342,34.273077427,-68.47996659,97.576211447,5020.0
5.074268777,62.124902909,-68.97684751,83.157149373,5030.0
6.1365093867,87.861288185,-69.587571501,46.09000216,5040.0
6.757263225,104.61787034,-68.410465342,-15.24745531,5050.0
5.7118271324,130.11587434,-70.790312654,-33.351843123,5060.0
5.3672503366,162.72093445,-71.327029569,-33.439318556,5070.0
5.4125535649,-163.23842096,-72.011866294,-33.820599204,5080.0
5.467827655,-129.12130653,-72.900988867,-27.970578794,5090.0
5.3112918432,-95.605080221,-70.205560162,-50.092624151,5100.0
5.1853624064,-62.494711216,-67.330009912,-96.458466865,5110.0
5.1187927899,-30.774622718,-73.289659186,-121.0942555,5120.0
5.240332861,-1.0122365352,-71.999613135,-114.75822259,5130.0
5.8871806337,25.579586539,-67.905436862,-149.48846126,5140.0
6.3516468045,42.371415478,-64.047689008,147.71961906,5150.0
5.1448215994,62.866189828,-64.093830756,113.67985655,5160.0
4.5487916119,91.674007953,-65.68170165,109.05477882,5170.0
4.5657003356,120.66184503,-67.354731733,107.69258332,5180.0
4.8666853925,150.47897889,-67.24011898,118.08330047,5190.0
5.1758027234,-176.96493189,-67.82530899,113.37778301,5200.0
5.4524286161,-143.96190139,-68.741585842,74.032095874,5210.0
5.8637497969,-109.81611047,-70.694366749,71.062906057,5220.0
6.0477661652,-74.436718297,-68.898713116,83.594421917,5230.0
6.548873739,-41.542442945,-61.013938381,62.022182959,5240.0
7.2817880741,-19.50967849,-54.000200624,-1.9943328764,5250.0
6.1090419918,-2.7619742245,-53.905565266,-91.360147027,5260.0
4.8345650014,25.314860873,-57.575860699,-133.98679047,5270.0
4.2894357264,55.698602458,-61.610082517,-138.13037084,5280.0
