S11m,S11p,S21m,S21p,Frequency
5.0185624865,-57.092968601,-45.198113853,-71.558696283,2000.0
5.3766972226,-33.891317596,-46.8747497,-53.194270811,2010.0
5.613832384,-9.0670153811,-46.989196696,-57.618428026,2020.0
5.6496059554,16.773688689,-47.987437407,-67.136124283,2030.0
5.4874561764,42.910543387,-48.399823916,-76.239334041,2040.0
5.1756552362,68.567198678,-47.924179492,-79.339715286,2050.0
4.8031956632,93.358224842,-42.651406183,-88.842771453,2060.0
4.4651638595,116.81806585,-37.691258394,-153.48858437,2070.0
4.2621777981,138.92007163,-43.144299709,133.9618161,2080.0
4.2563816551,160.11722116,-50.438440635,93.735015309,2090.0
4.4381863875,-178.50854703,-61.687647782,43.550868722,2100.0
4.6874355051,-156.12572873,-68.192756964,-73.781506605,2110.0
4.8736650558,-132.62776114,-60.674552235,-92.044239015,2120.0
4.949157314,-108.38558802,-54.190050974,-102.94211637,2130.0
4.9162326123,-83.735496827,-47.570661434,-122.61301013,2140.0
4.7793850921,-59.01631558,-35.634789975,-152.3064831,2150.0
4.5837728938,-34.621529876,-38.734049881,53.826674065,2160.0
4.3980974015,-10.787019554,-45.199140321,35.128150674,2170.0
4.2805062653,12.427464723,-47.42776124,24.108924545,2180.0
4.2583303626,35.031429244,-48.490579553,9.4976129383,2190.0
4.3685543199,57.456151327,-49.998202533,-8.9031868228,2200.0
4.5461499911,80.481479619,-53.059330515,-22.066104904,2210.0
4.6696857067,104.02420339,-54.559418809,-12.759858076,2220.0
4.7266055238,127.86936733,-52.449279491,-7.4334591245,2230.0
4.7135527494,152.04859168,-46.279234071,4.0905523958,2240.0
4.6378214136,176.24487597,-44.074241478,172.50539504,2250.0
4.5195433244,-159.86806491,-54.988401416,-157.97342028,2260.0
4.4085442149,-136.38368623,-59.84552712,-143.68364358,2270.0
4.3456071869,-113.24668625,-61.865164772,-121.1441661,2280.0
4.3537682468,-90.403032414,-61.405444176,-110.98485369,2290.0
4.4410818809,-67.5522504,-61.675435578,-113.43788294,2300.0
4.5704506967,-44.202215222,-61.844924101,-110.3098646,2310.0
4.6633304216,-20.369001242,-60.151635222,-115.09979874,2320.0
4.6918291235,3.6943108606,-57.456583238,-119.68805984,2330.0
4.6612684693,27.893756047,-48.952946707,-95.999825383,2340.0
4.56925507,52.075721062,-66.075878961,58.536818539,2350.0
4.4461059476,75.610725323,-65.704600357,124.52123677,2360.0
4.3611145099,98.775002159,-65.291834693,123.42001193,2370.0
4.3304337092,121.56945955,-65.975091383,128.97919181,2380.0
4.3751956253,144.22653442,-66.001134047,133.6507603,2390.0
4.4758989316,166.93584532,-65.428655578,142.82671379,2400.0
4.6172179801,-170.03270899,-63.628179706,149.8122241,2410.0
4.7545722261,-146.54711596,-60.312596389,151.14975438,2420.0
4.8554189211,-122.75961869,-55.508089307,151.38155342,2430.0
4.9167986773,-98.740222218,-41.657778067,154.86060045,2440.0
4.9182005699,-74.48912976,-50.284248749,-45.323787732,2450.0
4.8355675544,-50.299396495,-59.893659188,-51.743977419,2460.0
4.7482096103,-26.602619155,-66.437905714,-35.76688393,2470.0
4.6923078519,-3.335157596,-68.368733175,-19.360958913,2480.0
4.7239601727,19.786291232,-68.028656642,-7.6834663849,2490.0
4.8022942805,42.83849747,-66.913130607,-9.4586940651,2500.0
4.938966619,66.090029557,-66.908078959,-8.3718719672,2510.0
5.0698490168,89.529162709,-65.912284827,1.2133660444,2520.0
5.1597860304,113.33715139,-61.568205425,24.326569701,2530.0
5.2322506147,137.05487707,-49.668008526,28.290981931,2540.0
5.2834053745,160.96849602,-49.734473923,-136.11896177,2550.0
5.2737731689,-175.11787694,-58.9083603,-131.93926223,2560.0
5.2682874112,-151.58764641,-62.838434113,-126.61279092,2570.0
5.3103440219,-128.39784766,-66.125560592,-110.13651466,2580.0
5.4200785915,-105.29288327,-64.526279016,-97.39521324,2590.0
5.5984936327,-81.962768149,-62.2146838,-112.82496971,2600.0
5.8074261777,-58.136535738,-61.194810661,-136.69651516,2610.0
6.0273115809,-33.775787378,-60.813888773,-154.1313407,2620.0
6.2018857911,-8.8512568703,-59.087133579,-160.82529928,2630.0
6.317840913,16.024289838,-53.701613448,-171.98915706,2640.0
6.3634106698,40.984736192,-51.735998183,62.121999504,2650.0
6.3694451533,65.564483996,-79.686577009,-52.817768802,2660.0
6.3071874632,89.310662635,-65.95260837,-146.42560909,2670.0
6.3378583203,112.34807118,-62.98202454,-147.33489984,2680.0
6.4654267597,135.05965586,-60.295494683,-144.73184187,2690.0
6.7478271928,157.55814299,-57.878478687,-151.1242848,2700.0
7.1408722281,-179.36383683,-56.167328924,-161.38244679,2710.0
7.6106239578,-155.3966297,-53.52531991,-175.75109055,2720.0
8.085958,-130.53707516,-49.481322249,165.97093991,2730.0
8.475608209,-104.71922019,-43.669241134,139.69881508,2740.0
8.7454204403,-78.409193831,-39.067760281,77.274302168,2750.0
8.8581707379,-52.134869047,-42.850856304,33.433327494,2760.0
8.8650230288,-27.004907874,-45.752641042,24.332478375,2770.0
8.9971698304,-3.387493082,-47.75744107,25.067182193,2780.0
9.3454309917,19.726623435,-48.436509287,31.838929413,2790.0
9.8725671485,42.615304019,-48.185225119,31.977692418,2800.0
10.585038925,65.565048085,-47.533606233,26.061754013,2810.0
11.442104143,89.498031142,-45.88939478,23.243833904,2820.0
12.377481864,114.08778038,-44.041059985,16.674549706,2830.0
13.336968175,139.73892245,-42.190654426,0.086458089318,2840.0
14.210515565,166.44247214,-40.583656753,-20.77968797,2850.0
14.80128351,-166.84056073,-39.849433818,-44.24545019,2860.0
15.172885457,-142.30209176,-40.145350238,-65.172857274,2870.0
15.75088947,-121.6257482,-40.56081989,-94.196835857,2880.0
16.963058275,-102.72876584,-41.427834377,-125.7916106,2890.0
19.030441485,-85.89885184,-43.439809197,-146.59272236,2900.0
22.231311879,-73.062259638,-42.176570249,-146.09890769,2910.0
27.291381946,-71.000322264,-37.588697764,-178.8806072,2920.0
32.045292675,-109.22504616,-34.218041321,106.10684139,2930.0
27.728349188,-140.00104322,-38.520314475,40.981072612,2940.0
24.214538335,-134.31988847,-43.368676046,6.3762745228,2950.0
22.858929917,-120.19973692,-47.052959037,-21.121722957,2960.0
23.223454937,-96.37071922,-47.975359001,-55.276118658,2970.0
23.813893663,-57.372945864,-47.201615377,-73.454319479,2980.0
21.987891291,-12.683737291,-49.001072053,-65.766397591,2990.0
18.969086684,23.607066785,-50.375695382,-64.184114418,3000.0
16.636086403,45.598906285,-52.212219876,-89.782465504,3010.0
14.658046912,67.536452644,-55.36682289,-102.50958837,3020.0
13.179993506,87.975453735,-57.624821312,-95.808083453,3030.0
12.043176566,108.06549738,-57.076315346,-89.055800192,3040.0
11.207628663,128.0849773,-54.880710816,-101.26981313,3050.0
10.758035424,148.65325357,-53.373491207,-112.77085985,3060.0
10.629442381,170.84766212,-49.570945097,-114.53111421,3070.0
10.639051686,-164.59521376,-44.177117494,-134.1447168,3080.0
10.517949051,-138.54683419,-41.616529262,162.27112466,3090.0
10.259824341,-112.21712983,-47.445065119,131.84083452,3100.0
9.9194829406,-86.360050755,-50.871514497,131.30853754,3110.0
9.4297195023,-61.523692685,-52.522955004,127.1176242,3120.0
8.9808493295,-37.864539275,-53.497951851,124.57877987,3130.0
8.6082912283,-14.563065819,-53.159113897,121.82228988,3140.0
8.3446742997,8.5482517915,-52.259356211,118.90832174,3150.0
8.2411473278,32.017010713,-52.056238552,122.55559116,3160.0
8.2510430488,56.989423021,-51.002660079,126.15516971,3170.0
8.1527780636,83.348807216,-47.779599034,119.03421264,3180.0
7.8612882824,109.72421451,-41.980615357,82.024255263,3190.0
7.4569425522,134.9577984,-49.475663459,2.1126854507,3200.0
7.0295077879,158.88111545,-56.141170234,-4.3464053575,3210.0
6.6589697784,-178.23059527,-58.726090061,-13.280895458,3220.0
6.301883844,-156.52425265,-60.255043685,-23.34637369,3230.0
6.0834734576,-135.49054902,-61.080442594,-30.652635915,3240.0
5.9663858681,-114.60151068,-60.716294318,-39.289844348,3250.0
6.0201516083,-93.37287373,-59.55819538,-43.350769688,3260.0
6.2316572257,-70.907248423,-56.890978302,-47.665305336,3270.0
6.488714487,-46.418888379,-53.059376879,-46.504953388,3280.0
6.6552778806,-20.46102339,-46.290471081,-51.432143114,3290.0
6.6674622421,6.0121399591,-39.996760339,-172.20840213,3300.0
6.5649873368,32.472765196,-52.049866925,172.01991517,3310.0
6.3147098695,58.11049173,-56.591297457,177.48778008,3320.0
5.9601695917,82.425085842,-58.830777747,-177.00544685,3330.0
5.5759702217,105.29657543,-59.604581367,-174.55532634,3340.0
5.2356426399,127.05531755,-59.722163145,-172.85909522,3350.0
5.0213570191,148.22249524,-58.604549517,-169.47465277,3360.0
5.0085970469,169.43442523,-56.75191767,-167.00940432,3370.0
5.1723316665,-168.05611446,-53.897135555,-170.90003164,3380.0
5.3285698026,-144.38985925,-49.822945361,-173.85386388,3390.0
5.3951634885,-120.61835961,-36.096775007,153.20561817,3400.0
5.4314709879,-97.016358535,-50.392041836,38.734525359,3410.0
5.4421213106,-73.640728528,-56.179133864,49.117634425,3420.0
5.4185135457,-50.307024641,-57.727984145,54.368174877,3430.0
5.3336550785,-27.410416172,-58.656170909,58.626728907,3440.0
5.2111101375,-4.7130341262,-58.793448198,61.553055374,3450.0
5.0962948058,17.715926249,-58.126486303,61.938220699,3460.0
5.1410147809,40.550914927,-57.313991122,65.654276799,3470.0
5.3795695267,64.895545418,-56.0061775,73.337876328,3480.0
5.6264430099,90.970784678,-53.140566302,81.578973825,3490.0
5.7077833785,117.63883878,-46.100446385,84.922209205,3500.0
5.6270767037,143.57729585,-43.576870996,-95.741422798,3510.0
5.4295360955,168.38548359,-57.294070462,-78.956883215,3520.0
5.1209959616,-168.35926966,-60.906871332,-65.754478435,3530.0
4.7716741476,-146.99131565,-62.945677234,-67.453529741,3540.0
4.4968618692,-126.69874068,-64.903664485,-70.290778777,3550.0
4.3365785471,-107.00186033,-66.024511765,-62.201920289,3560.0
4.3662183131,-87.162285488,-64.474298894,-55.510451801,3570.0
4.6600087382,-65.947050114,-61.38747985,-62.998631755,3580.0
5.078640404,-42.394377812,-56.184080014,-64.038031538,3590.0
5.4517996698,-17.123291022,-45.557429743,-55.582672346,3600.0
5.7354114334,9.0099157689,-44.525735839,76.584516462,3610.0
5.8943332162,35.551209125,-54.594193423,103.68681864,3620.0
5.8443765415,61.817019536,-57.428547139,137.14573872,3630.0
5.5453367956,86.769090763,-56.764827802,156.87698035,3640.0
5.123428074,109.63480814,-56.032527483,164.63983248,3650.0
4.7919821742,130.7888829,-55.326591912,167.29332169,3660.0
4.6977247125,151.49004418,-54.269053204,165.21322507,3670.0
4.8437574011,173.22348465,-52.213228514,160.06566235,3680.0
5.0590508264,-163.4191733,-46.847639058,153.07991123,3690.0
5.2190321457,-139.14260551,-27.945402079,4.7149017953,3700.0
5.3484262663,-114.71278301,-47.984243187,-41.41518989,3710.0
5.4048696198,-90.399838373,-53.953712737,-55.258795662,3720.0
5.3759274503,-66.661379452,-58.094707163,-44.839975989,3730.0
5.2489933822,-43.709194992,-56.995270562,-31.294805086,3740.0
4.9921817673,-22.243378,-53.697927505,-29.975567427,3750.0
4.8026157284,-2.1900976245,-47.580749623,-51.377242365,3760.0
4.8621730399,17.686331729,-49.096641602,-118.65649841,3770.0
5.1547137303,38.84749022,-54.997583823,-144.04623014,3780.0
5.5733129574,62.168927463,-58.093185689,-151.6640242,3790.0
6.0031662669,87.720195176,-59.043381943,-155.15139935,3800.0
6.3595367471,114.93170283,-58.318141494,-156.22094666,3810.0
6.5883606667,142.93074576,-56.910007217,-167.16544885,3820.0
6.5828030773,170.73467471,-58.031857483,-177.72101013,3830.0
6.3631239107,-163.23246697,-59.31740423,-166.96611654,3840.0
6.0191908141,-139.41037581,-57.132268908,176.19466695,3850.0
5.5933913922,-118.18584302,-63.032647564,131.91784937,3860.0
5.3533674986,-98.680389441,-72.083559463,145.72967239,3870.0
5.3738965089,-79.258112798,-76.298152918,-175.13502591,3880.0
5.6063570694,-58.703169624,-76.269814567,-146.55350381,3890.0
5.9388842432,-36.531009974,-74.417716842,-146.15253161,3900.0
6.3524194874,-13.026400018,-72.990024428,-164.51436677,3910.0
6.8550665625,11.929462309,-69.583297907,166.35237064,3920.0
7.383240982,38.110187064,-64.96018248,136.01949503,3930.0
7.7581280861,64.899381435,-61.01142162,102.17712887,3940.0
7.8581863999,91.310866369,-57.257848865,70.586144798,3950.0
7.6612996341,116.32722738,-58.402597764,38.130493433,3960.0
7.3221802434,139.00989256,-63.083899719,24.461349735,3970.0
7.0978728914,160.41211872,-68.58516936,21.652836408,3980.0
7.0910829917,-178.23573222,-74.483978898,52.124736207,3990.0
7.2386747673,-155.94331035,-71.662345113,80.944404009,4000.0
7.6216096195,-132.41099835,-70.682858814,68.190936489,4010.0
8.0344664381,-107.75624526,-69.175726597,66.454349169,4020.0
8.4880379854,-82.705063748,-63.16696832,49.599215441,4030.0
8.9282497543,-57.982838505,-56.304538024,12.787541114,4040.0
9.3274380029,-33.778072042,-54.249387035,-37.645416378,4050.0
9.5109126573,-10.083090163,-54.992323858,-67.21821149,4060.0
9.4123205608,11.904762476,-56.42864635,-81.305198877,4070.0
9.273697114,32.099258842,-58.502539157,-82.826596161,4080.0
9.3406542274,51.928023391,-59.944773395,-80.077729262,4090.0
9.731814939,72.365322754,-60.901389713,-85.462993328,4100.0
10.49020649,93.545437136,-60.248082044,-93.093453306,4110.0
11.721115732,115.82381949,-58.553397755,-101.01410942,4120.0
13.389736676,139.05744764,-55.465259555,-110.2625131,4130.0
15.474582942,162.87992767,-50.497552132,-126.15673744,4140.0
17.937635354,-171.20273667,-43.642877875,-162.31074726,4150.0
20.061130601,-140.654075,-45.826607591,169.84986683,4160.0
20.263525611,-105.17549325,-45.966605627,-165.66819764,4170.0
18.307503072,-78.604920865,-48.893570846,-163.86047276,4180.0
16.413629154,-61.001440392,-51.122677117,-168.61144308,4190.0
15.287351214,-48.164596358,-53.383865604,-176.99473736,4200.0
14.971009648,-37.604424757,-55.367576596,173.09624343,4210.0
15.183041806,-28.689431609,-55.705698311,154.87306426,4220.0
15.466109649,-22.214003206,-54.892601402,130.22439935,4230.0
15.332634318,-17.372053246,-52.103091327,99.634388607,4240.0
14.65532947,-11.129118164,-48.200689421,36.835527439,4250.0
13.898495366,-1.8162177527,-51.949959696,-52.532034238,4260.0
13.505427953,10.170939605,-55.763900932,-87.232144428,4270.0
13.831818695,25.595663748,-56.711020542,-99.458332754,4280.0
14.886772348,46.098970303,-56.775415829,-102.07384646,4290.0
15.905259449,73.615087822,-57.978581391,-91.82149553,4300.0
16.189183763,105.74490456,-59.112100247,-71.14458724,4310.0
15.3785628,136.31377974,-60.669601386,-46.708905506,4320.0
14.124966532,162.68416056,-60.903572324,-37.399025826,4330.0
12.786392678,-173.24715817,-61.318440268,-50.598554449,4340.0
11.529849552,-150.33936014,-60.394069486,-94.516701459,4350.0
10.478971468,-128.18334965,-63.226869918,172.23470587,4360.0
9.6786287999,-106.76220645,-67.634836095,97.460460114,4370.0
9.2258523698,-85.893718661,-70.885394617,38.756267959,4380.0
9.1621536578,-64.546095238,-82.987854651,-59.915150819,4390.0
9.240239831,-40.837176131,-70.853071146,-158.9708831,4400.0
9.1049616177,-16.896791947,-65.061831943,-175.46027465,4410.0
8.8626745598,6.5173275621,-61.081579731,162.66039117,4420.0
8.6058326876,29.604680301,-59.404272532,129.80280185,4430.0
8.3361639261,52.787917078,-59.722271601,102.37833427,4440.0
8.0710907846,75.63388972,-62.188511463,72.093864351,4450.0
7.8752725398,98.884240355,-69.533899134,58.098827776,4460.0
7.6833984325,122.27197896,-73.494495766,107.9446536,4470.0
7.6075648671,145.67763185,-72.81518783,121.8304382,4480.0
7.6894157408,169.43513218,-72.754413271,143.0647737,4490.0
7.8107047482,-165.46119092,-69.404824777,134.86414442,4500.0
7.7773748106,-139.56177005,-68.542134877,96.19191109,4510.0
7.5782528593,-114.05849026,-70.744007272,39.89088803,4520.0
7.2825748685,-89.156041559,-74.558379631,29.572067535,4530.0
6.9205802216,-65.034216883,-75.665675429,5.6408361089,4540.0
6.5444004097,-41.857876561,-78.271628675,-32.862335668,4550.0
6.2251081654,-19.678675245,-80.788555591,-81.87488842,4560.0
5.9938540761,1.9438594751,-79.500079254,-141.82552144,4570.0
5.8579969091,23.128141365,-73.716733247,-176.56337321,4580.0
5.86201749,44.331173835,-67.878508585,168.07019116,4590.0
5.9372777066,65.832337415,-61.086319829,156.79405947,4600.0
6.1724464007,88.300786475,-50.511311567,110.16448756,4610.0
6.3209225308,111.51121123,-57.67970761,23.7008775,4620.0
6.476637807,135.44213025,-63.152935166,14.668078762,4630.0
6.5522056442,160.16466287,-65.832915467,13.26348971,4640.0
6.5300707659,-174.70554144,-67.650520214,22.798103685,4650.0
6.4370431226,-149.69595939,-68.605685911,37.358116671,4660.0
6.2829717115,-124.94009361,-69.278152159,45.298809626,4670.0
6.1039800102,-100.70390158,-68.486907697,56.780388607,4680.0
5.9384114991,-77.048965513,-66.210489417,67.044606447,4690.0
5.8172221996,-53.893794158,-60.992875913,71.432176899,4700.0
5.7414932206,-31.050149693,-45.561465841,42.227145306,4710.0
5.688711533,-8.3953407272,-59.323944683,-90.319685754,4720.0
5.6662978755,14.261072428,-67.126061582,-96.746351217,4730.0
5.6408286083,36.971229124,-73.10139596,-98.927790166,4740.0
5.5932444526,59.514903227,-76.548687165,-108.9673829,4750.0
5.5841204121,82.006060953,-76.862049499,-106.85911561,4760.0
5.5560431361,104.63148578,-76.976936626,-98.467991233,4770.0
5.5340112632,127.2358508,-75.959244808,-77.935668448,4780.0
5.5705866237,150.01407178,-72.981162905,-50.599546884,4790.0
5.6762768708,172.90814178,-68.021185771,-33.230654208,4800.0
5.8174363634,-163.58737483,-57.214896063,-10.348101957,4810.0
5.9463337431,-139.33319198,-61.182139771,158.64222714,4820.0
6.0122954847,-114.6054384,-69.725972835,172.54684631,4830.0
5.9762442763,-89.804052582,-74.390863228,176.1620218,4840.0
5.8521450199,-65.32503416,-78.230598282,176.99315489,4850.0
5.6813460755,-41.346800106,-81.023773127,-177.7902766,4860.0
5.4699465691,-17.939758183,-81.769079897,-179.58561172,4870.0
5.2162237169,4.4657704336,-77.305521211,162.38913019,4880.0
5.0535312936,25.674122334,-71.96011248,159.1886139,4890.0
5.1167674506,46.771232437,-67.409679826,166.39930947,4900.0
5.2681561597,68.557652143,-59.275044089,-176.45497075,4910.0
5.514140955,91.151338981,-57.30258713,-19.974720692,4920.0
5.6653857667,114.05880079,-66.345443432,-1.4286255889,4930.0
5.8516974405,137.76405914,-70.462823835,10.48353445,4940.0
5.9500373814,162.19162976,-71.294168803,17.971351839,4950.0
5.9275703888,-172.94026002,-71.405311245,23.308003737,4960.0
5.754459019,-148.06176988,-70.733683917,31.177984672,4970.0
5.4494301864,-124.12387706,-68.655379906,41.308966788,4980.0
5.2033808227,-101.76817833,-65.424078319,42.588434729,4990.0
5.2158399044,-80.019357314,-61.357689872,40.716856024,5000.0
5.4070837557,-57.411905855,-54.280878176,44.165762566,5010.0
5.6172322631,-33.889604455,-39.467669896,-144.9013691,5020.0
5.7638912019,-9.9968819538,-58.499410899,-133.82193701,5030.0
5.7939353575,13.990508038,-64.011634232,-122.25659096,5040.0
5.7198023084,38.222236147,-65.7448191,-112.24453288,5050.0
5.5543024785,62.042808301,-65.826098604,-99.766044559,5060.0
5.2804353254,85.196397814,-64.88687018,-95.640027244,5070.0
4.948696954,106.92238451,-63.319917393,-98.312062183,5080.0
4.8662491792,127.42801431,-60.833230757,-96.153958052,5090.0
5.1631151618,148.45916767,-58.086090245,-98.526464396,5100.0
5.6476306797,171.33726992,-53.756900647,-116.98247704,5110.0
6.1369614379,-164.33929633,-45.964935303,179.14654234,5120.0
6.5381639208,-139.0567295,-54.496701712,92.453962966,5130.0
6.7410829045,-112.89303229,-64.467188208,84.084371299,5140.0
6.6036368686,-86.127491202,-70.259669684,119.5291142,5150.0
6.0445357554,-59.922893294,-69.387466236,156.33125588,5160.0
5.1194451854,-36.287384403,-67.059326853,-172.79070198,5170.0
4.3056743474,-16.96090263,-66.372123016,-152.31308127,5180.0
4.2024811246,0.86572954711,-65.994296016,-133.54873314,5190.0
4.679759908,21.295685404,-63.304146726,-130.5741925,5200.0
5.2912371048,43.862212738,-60.368260193,-142.49380702,5210.0
5.9372450858,67.848718797,-59.216351463,-162.15478682,5220.0
6.5939467821,92.269824615,-57.403584436,166.27018003,5230.0
7.1555476122,117.67173583,-57.522034563,135.26201802,5240.0
7.3506426893,144.63044273,-58.143752759,132.83536121,5250.0
6.9044421044,172.73121703,-57.19393883,132.09983705,5260.0
5.5236800617,-162.25766715,-56.603866151,121.57587784,5270.0
4.2109701822,-145.93644133,-56.426351412,121.65906363,5280.0
