S11m,S11p,S21m,S21p,Frequency
5.8214025365,-107.42830755,-58.904424403,-68.116350124,2000.0
5.5317913774,-79.271798608,-65.143642678,-86.945558186,2010.0
5.3919297774,-47.848117801,-63.845205694,-79.96591649,2020.0
5.8210143192,-14.949398633,-58.805528989,-110.5356957,2030.0
7.0960924691,18.639388706,-55.655368398,-156.9339598,2040.0
11.01033586,47.848308589,-53.329948675,158.76122977,2050.0
13.264743178,27.023631223,-51.919749035,110.87860227,2060.0
8.5227185929,40.507378168,-50.958934786,65.087332517,2070.0
6.5611159235,69.384298579,-50.151446079,15.804750105,2080.0
5.7591772185,98.344249733,-50.300874058,-37.485788105,2090.0
5.3884562003,126.30464287,-52.051060113,-90.758710347,2100.0
5.0729564486,153.11008835,-55.031930772,-130.30902697,2110.0
4.998487435,-178.07336594,-56.138020467,-158.50860856,2120.0
5.2987210205,-147.59587677,-56.314392016,168.90040749,2130.0
6.3963890106,-115.73401122,-56.50924264,138.41914571,2140.0
9.7574931632,-88.718420309,-55.604927783,108.74355199,2150.0
11.734478631,-103.55664328,-54.636996688,71.802866005,2160.0
7.8400846955,-90.010553687,-53.844879687,34.081443851,2170.0
6.1812335435,-60.857935583,-53.535287802,-6.0012676632,2180.0
5.4402865723,-31.959687188,-53.389166431,-45.306032072,2190.0
5.0871357549,-3.8622474982,-53.157212677,-84.950925856,2200.0
4.9412969309,23.720467385,-53.879087116,-127.01731999,2210.0
4.9424043904,51.815326834,-54.948035104,-159.99167466,2220.0
5.1259821525,81.079869789,-55.276556526,169.80952631,2230.0
5.9801394404,111.63116597,-54.905740026,140.27141607,2240.0
8.8545312598,139.11578833,-54.351190704,104.98746483,2250.0
11.196041261,130.76141349,-54.450133211,66.941135915,2260.0
7.5788963879,141.87665329,-54.871127447,31.620685719,2270.0
5.9248252212,169.59903828,-54.96828741,-4.0959594918,2280.0
5.233755841,-162.58539213,-55.162887194,-43.900804003,2290.0
4.930201042,-135.08449087,-55.694459357,-84.903926352,2300.0
4.8229844483,-107.64341134,-57.139463934,-127.47979517,2310.0
4.7979961813,-79.88919994,-59.187708184,-154.68579763,2320.0
5.0107031071,-51.732123803,-57.709901227,179.76356985,2330.0
5.7725928947,-21.238244543,-56.488772389,136.14246404,2340.0
8.2161851724,8.1357594064,-57.097230822,91.370003592,2350.0
10.990422448,3.1907638094,-58.747974866,54.22507622,2360.0
7.4512081818,12.164230107,-60.357327168,27.353748323,2370.0
5.7268338919,39.793529283,-60.577784103,6.0732934958,2380.0
5.0723521486,67.712377005,-59.502753468,-21.801172426,2390.0
4.7108764624,94.891454743,-58.446766801,-59.596473906,2400.0
4.5711554323,121.1394932,-59.259751591,-102.87114875,2410.0
4.6018649184,147.40350325,-61.845796521,-137.56848564,2420.0
4.8050252254,174.61383988,-63.02200212,-151.70315993,2430.0
5.3966860279,-156.67947994,-61.808844778,-176.72338368,2440.0
7.369625483,-128.29777564,-60.990723178,153.36447844,2450.0
10.488632306,-125.78359798,-59.615001608,124.27166854,2460.0
7.5304887515,-120.73273558,-57.806767177,89.039660335,2470.0
5.7789215464,-93.025152535,-55.882624163,49.549189605,2480.0
5.039709147,-64.646257884,-54.66508054,3.59282111,2490.0
4.7571829552,-37.750337789,-54.015173748,-39.484911431,2500.0
4.6919189151,-10.756877477,-53.566019404,-85.49920137,2510.0
4.6298632642,16.523938478,-54.361958552,-131.82467898,2520.0
4.6877692106,43.48972778,-56.145405291,-172.11675072,2530.0
5.1914887726,71.390888214,-58.192451168,153.76393995,2540.0
6.7914032776,99.767291932,-60.176487741,127.75147067,2550.0
9.9088531911,108.0745215,-60.739340188,105.29308916,2560.0
7.5693502006,109.22040968,-60.677626341,78.154507959,2570.0
5.5868578229,134.56659461,-59.969480372,45.93124342,2580.0
4.9410452164,162.03026988,-59.357136927,7.3367514956,2590.0
4.7161722041,-170.86915766,-59.366967536,-33.109355172,2600.0
4.5439063433,-144.38442591,-59.609241716,-70.656449334,2610.0
4.5644517318,-118.62611424,-59.314527916,-101.08548482,2620.0
4.8517451193,-91.845294575,-57.854706372,-137.26664216,2630.0
5.3271184733,-62.820697701,-57.262972903,-179.17661067,2640.0
6.5891166608,-32.287629505,-58.067218447,138.25890362,2650.0
10.212323579,-16.228351744,-59.645293513,102.44665211,2660.0
8.3677736989,-22.800942848,-61.903847356,70.067382897,2670.0
6.0843268709,3.3069514465,-64.526600471,49.248896644,2680.0
5.0585466201,32.462399788,-65.415886092,33.986387528,2690.0
4.5998506862,59.169334961,-64.985131084,10.147232902,2700.0
4.5146281923,84.935337578,-64.704032845,-16.034402984,2710.0
4.5567155979,111.03781236,-63.371697551,-43.833041965,2720.0
4.6539026506,137.28854795,-61.535167319,-75.417826579,2730.0
4.9797967358,163.85669707,-59.257680982,-113.21475422,2740.0
6.0017268448,-168.83135442,-57.380964304,-153.23846284,2750.0
8.920587406,-147.08575241,-55.981035898,166.31086468,2760.0
9.2458637807,-155.60682044,-55.175389868,125.59076024,2770.0
6.1154269071,-133.44430496,-54.992845091,85.777290951,2780.0
5.1582051622,-105.30599198,-55.5134327,46.112290912,2790.0
5.0487367767,-77.113162493,-57.110958039,6.755121581,2800.0
4.9723138144,-48.506273914,-59.715407217,-24.903892379,2810.0
4.8513358851,-20.857574923,-61.771982805,-47.64663938,2820.0
4.9198084609,5.8840709094,-62.888284437,-68.630892613,2830.0
5.2470380594,33.755714505,-62.390658729,-92.545113085,2840.0
6.0681375693,62.883178029,-61.433548975,-125.77593936,2850.0
8.365632879,88.660589868,-60.458656784,-166.52563979,2860.0
10.347099779,84.613705707,-60.232109327,150.92009655,2870.0
6.833550251,95.629156794,-60.403665416,111.65703493,2880.0
5.3290259561,124.96448789,-60.757081259,74.879095174,2890.0
4.7676902962,152.88895871,-61.236981164,41.845329732,2900.0
4.5895314015,178.60281815,-61.553860429,9.8874790358,2910.0
4.6803094724,-156.21478237,-61.820884225,-25.540749259,2920.0
4.9347151149,-129.92761566,-63.205459734,-63.323060615,2930.0
5.3161553803,-102.42290347,-65.148925986,-91.265237341,2940.0
6.0730884176,-72.625054212,-64.732291277,-118.11841177,2950.0
8.2917011454,-43.756830583,-63.150929313,-159.97106759,2960.0
12.350052314,-45.326896696,-62.498485227,154.54073472,2970.0
8.1767298641,-41.174515557,-61.511498439,113.05854674,2980.0
5.9473714296,-9.98606741,-60.143079196,71.5004643,2990.0
5.3627962992,20.36091056,-59.290944051,28.982725009,3000.0
5.1896872671,49.078464354,-59.028955426,-10.064527508,3010.0
5.1087795931,76.747683161,-58.737538528,-47.473983239,3020.0
5.0763908762,103.88541688,-58.705339457,-83.87493584,3030.0
5.2202043641,130.74223036,-58.757145172,-118.03429911,3040.0
5.8168195021,157.7053794,-58.438283588,-152.96771613,3050.0
7.3352587267,-173.92327705,-57.938740286,170.14744103,3060.0
11.653819085,-159.54597199,-57.737424815,128.84778912,3070.0
8.7918425888,-177.14141249,-58.684525236,89.92224301,3080.0
6.0661334415,-147.74258725,-59.622788742,61.850239961,3090.0
5.4071225445,-117.03887219,-58.881170237,37.01786163,3100.0
5.3101012131,-87.826912232,-57.465145851,3.9277115436,3110.0
5.2380060701,-60.125599796,-56.391075852,-34.297495625,3120.0
5.4737549154,-32.64024931,-56.127901682,-75.294199741,3130.0
5.9981765458,-3.9115670031,-56.152421304,-115.40737437,3140.0
6.710617521,27.24472343,-56.133749946,-157.32453503,3150.0
8.1045354645,58.602063432,-56.717484996,157.63714005,3160.0
12.153905381,83.784738461,-57.850843428,114.75447825,3170.0
12.485413641,53.637212729,-59.069563763,71.868727618,3180.0
7.3505164965,80.513918657,-61.305851686,29.294160011,3190.0
5.8507517799,114.83626038,-64.291482685,0.086520151696,3200.0
5.3975091783,144.2552658,-65.381707519,-21.398374808,3210.0
5.4161933442,171.98513548,-64.925882062,-47.084919215,3220.0
5.6888958806,-159.99478904,-63.988314612,-80.82422083,3230.0
5.9092321514,-132.04006346,-63.361730948,-119.70390042,3240.0
6.4410691515,-104.40965439,-62.495853545,-158.37483302,3250.0
8.1426936812,-74.466102834,-61.496937113,158.71991547,3260.0
12.585538297,-47.270614886,-60.806223683,116.04228104,3270.0
15.1349833,-87.104748937,-60.252179277,72.719287008,3280.0
8.2684061865,-65.842994039,-60.08252957,30.141591746,3290.0
6.5249048818,-28.073131617,-61.037761695,-13.07360117,3300.0
6.3204636584,6.9360352766,-62.870376534,-41.931008818,3310.0
6.4050896275,40.198044628,-62.671787695,-64.626812369,3320.0
6.501028153,71.58657027,-61.761281317,-95.787921486,3330.0
6.8387178957,101.96958077,-60.885574748,-131.14867184,3340.0
7.5347900478,133.28074339,-60.72335057,-168.0803473,3350.0
8.600889013,165.35657774,-60.595099249,155.2337037,3360.0
11.509942469,-158.93224668,-60.291510612,119.78753197,3370.0
22.416553078,170.86378079,-60.15068319,80.922783489,3380.0
9.8511011129,157.91915626,-60.848346726,43.790235118,3390.0
6.8886517246,-159.24993001,-61.81054555,10.188572004,3400.0
6.1714840142,-123.74948619,-63.323164349,-16.266823652,3410.0
6.218800052,-93.607310764,-63.460223071,-36.516031044,3420.0
6.8623142292,-63.673466208,-62.557636153,-64.898721218,3430.0
7.7474141697,-32.535541602,-62.7467429,-101.36962943,3440.0
8.9293163206,0.54012714663,-63.239034298,-135.82199974,3450.0
10.945854267,35.050763058,-63.856507963,-174.51368347,3460.0
14.711346237,76.929340312,-65.172092604,145.13995263,3470.0
33.02103961,-124.71114846,-66.239842768,105.63260616,3480.0
12.940019533,-3.7080336373,-67.584290215,67.586148443,3490.0
8.7778466718,54.618500249,-68.982643875,35.201510009,3500.0
7.8320844119,101.16550087,-70.645790685,10.859090941,3510.0
7.8933773219,141.3226355,-70.373655427,-5.8049054571,3520.0
8.0874123651,177.55684169,-69.907815183,-28.177256927,3530.0
8.5367246871,-149.36743079,-68.991388631,-54.094449724,3540.0
9.6151312402,-115.80766982,-68.794788542,-85.240147796,3550.0
11.487430657,-80.911281773,-69.58990081,-116.73044359,3560.0
15.534541985,-40.075693418,-70.43150301,-150.27540044,3570.0
29.030390313,84.165766743,-71.43433048,170.86114453,3580.0
13.287893256,-146.34170422,-72.520163725,120.51533171,3590.0
9.0169126009,-90.151365621,-73.11769169,58.086069171,3600.0
8.3156968839,-41.049518428,-74.030189619,-6.0935500128,3610.0
8.9713045399,2.0642775107,-78.811575792,-42.632426863,3620.0
10.344499304,43.488109019,-76.5397168,-30.277538443,3630.0
12.068075452,86.979710844,-72.343038536,-61.542309631,3640.0
13.800124264,135.8301258,-70.555278486,-97.482942084,3650.0
14.488849532,178.98746636,-70.184146546,-135.54805512,3660.0
16.564413253,-107.98526432,-71.2185103,-177.4800232,3670.0
16.193246703,-31.094078851,-73.871211133,144.13980538,3680.0
13.452775002,46.385319677,-76.130898029,102.85720592,3690.0
10.663990567,118.72776707,-77.411852098,46.819703859,3700.0
9.5179658541,179.99090926,-76.305488631,-11.497919486,3710.0
10.070379798,-127.62941353,-76.628385385,-71.385827065,3720.0
11.555930225,-81.077368095,-81.463587939,-101.14166729,3730.0
13.997680671,-36.344860817,-79.936705416,-84.461340908,3740.0
17.662642756,11.260766828,-76.178104375,-103.66864789,3750.0
19.97571862,93.252170046,-74.689938582,-129.0411413,3760.0
16.638587995,171.37396075,-73.844563079,-155.84440197,3770.0
12.893296807,-133.92210435,-74.575599284,177.821713,3780.0
10.352045468,-85.320848002,-73.737327821,159.82294099,3790.0
9.1524512517,-36.104684873,-72.82261157,123.88634586,3800.0
9.7933591298,18.176111123,-72.309404149,75.828587556,3810.0
12.656770062,78.790313735,-72.916005306,20.51919806,3820.0
17.60285538,150.00202714,-75.677566372,-39.207157157,3830.0
20.012118284,-116.59824033,-80.670664182,-54.617593119,3840.0
17.42607102,-41.425881901,-77.134258454,-55.674372319,3850.0
14.850280114,10.265155257,-73.820413486,-86.680132512,3860.0
12.988707314,56.407478107,-71.715199895,-122.79701982,3870.0
11.196826515,100.70352725,-71.313469503,-155.88138481,3880.0
9.8072352726,144.78602729,-71.057961081,175.04212501,3890.0
8.8259520449,-169.6752779,-70.572555906,143.18506773,3900.0
8.9004305991,-121.24969531,-70.61209207,103.61734902,3910.0
11.593905396,-69.958856884,-71.717940523,58.227027952,3920.0
20.424894501,-21.522937526,-73.241440654,12.173993392,3930.0
23.716155407,-151.88565002,-76.310383503,-32.358547683,3940.0
14.574340516,-118.1555872,-78.229595317,-50.240123299,3950.0
10.978650245,-85.326470029,-75.820501338,-74.401154257,3960.0
9.3987973919,-54.551999493,-73.819867303,-107.3575401,3970.0
8.369076666,-23.686456651,-73.067572163,-138.85430689,3980.0
7.7583778427,8.6165456336,-73.034646397,-170.94555102,3990.0
7.5665843098,43.523833777,-73.104615199,161.89575999,4000.0
8.4064263176,85.282284499,-72.308427996,127.9830032,4010.0
11.73382426,133.50928138,-73.584556668,80.182449598,4020.0
23.652150971,155.64869226,-76.146369784,28.645276513,4030.0
17.538255407,87.133182299,-79.304831538,-23.868518856,4040.0
12.27201564,119.35107472,-82.580370234,-59.289888432,4050.0
10.08580704,154.15448816,-79.578901883,-66.57551179,4060.0
8.6723842099,-173.56860401,-74.431443615,-96.033841932,4070.0
7.6386618181,-143.20895086,-71.381879866,-135.48162452,4080.0
6.9773933898,-113.42590853,-69.605633321,-172.96355728,4090.0
6.6154148475,-82.444731153,-68.958345907,148.52154253,4100.0
6.7494768804,-49.751585845,-69.272581869,116.65125198,4110.0
8.5671278226,-14.957309512,-69.499027137,81.009362674,4120.0
14.014573574,-1.0909381587,-69.980977122,42.001181719,4130.0
12.46822802,-22.654261232,-71.510349871,-3.5720008447,4140.0
9.2371056917,-1.9842355588,-75.402794771,-41.859999486,4150.0
7.7592492262,25.470985893,-77.256292319,-46.635392101,4160.0
7.2319930954,52.818843101,-73.80637516,-63.610694573,4170.0
6.973355191,81.718982033,-70.561064078,-96.422829137,4180.0
6.7084139391,111.46163858,-67.84141321,-132.10770872,4190.0
6.5918865204,141.92626235,-66.029615421,-168.44716516,4200.0
6.8870934687,174.78038926,-65.132596803,156.78302895,4210.0
8.2750115308,-149.6882648,-64.407092143,121.10792851,4220.0
12.295904098,-128.47917392,-64.114268701,84.182334334,4230.0
11.726348812,-139.34483026,-64.645062882,43.392789219,4240.0
8.6662547763,-119.39697967,-66.543267458,0.27246494768,4250.0
7.2572726804,-93.210982368,-69.017406173,-30.38594071,4260.0
6.4358443544,-66.486499331,-69.458544111,-57.633075494,4270.0
5.8322188439,-40.964558515,-68.502113092,-93.716542661,4280.0
5.6521858747,-16.375458642,-67.839939969,-132.93037775,4290.0
5.6443193534,9.6966563714,-67.322676103,-170.29224902,4300.0
5.8446638961,37.017538048,-67.069013503,153.95892215,4310.0
6.8217326451,67.338740983,-67.036194193,121.49944824,4320.0
9.7456847915,90.578399653,-67.092691659,91.560875397,4330.0
10.290377693,86.105064802,-67.010883545,60.412918752,4340.0
8.1242298205,106.36118012,-67.195359479,21.698061472,4350.0
6.9893757446,133.77557352,-69.615654597,-21.701140357,4360.0
6.3805891042,160.30303564,-73.677561029,-41.78114296,4370.0
6.1276985419,-172.65432223,-71.581320535,-54.932492489,4380.0
5.943583043,-144.79095489,-68.884183965,-96.207005781,4390.0
5.7567422297,-117.6061995,-67.320267466,-141.96179245,4400.0
5.6450208413,-90.577403775,-65.534623306,176.46932486,4410.0
5.9752595194,-63.144257022,-64.058406781,134.27503193,4420.0
7.6536742439,-38.445307129,-63.402457619,92.548163599,4430.0
8.9819019336,-31.457674688,-63.255363118,52.397219143,4440.0
6.9936977778,-18.857690224,-63.827943905,12.640074955,4450.0
6.0794932964,4.2877252652,-65.577174415,-26.450556372,4460.0
5.6992683386,29.79612663,-68.571467926,-54.476022055,4470.0
5.4992857898,54.490382975,-69.802290779,-67.201324308,4480.0
5.3887056739,79.201038486,-68.625309501,-92.501649453,4490.0
5.301262335,104.21712913,-67.806926481,-128.22199333,4500.0
5.58285051,129.78134739,-67.51122604,-167.99927809,4510.0
6.2749001373,158.16414634,-67.153203596,154.93424178,4520.0
7.6549053894,-172.97645146,-66.561838336,115.46853112,4530.0
9.1615408716,-159.78302145,-65.798609306,70.641678692,4540.0
7.8003245236,-146.69588661,-66.266740202,24.456495388,4550.0
6.546615841,-121.88371637,-67.888205851,-24.759685938,4560.0
5.8117057215,-96.041291428,-71.381945817,-79.324926417,4570.0
5.4350834902,-70.63871155,-76.420144363,-148.1041425,4580.0
5.1969135684,-46.440034341,-76.475703681,116.12989161,4590.0
5.2250849369,-23.572609044,-72.630402773,41.063434207,4600.0
5.2282065926,3.0725314402,-69.72254024,-13.378958638,4610.0
5.1148995592,27.702339479,-69.488533003,-60.335840811,4620.0
5.9167710627,50.392802904,-68.770682306,-97.840527493,4630.0
7.6555821272,66.124368626,-68.576227596,-145.52247878,4640.0
6.8756717345,78.415638055,-69.916962804,168.96618895,4650.0
5.8935819989,100.39892279,-72.128407127,122.1275291,4660.0
5.6078494826,124.6640502,-77.480032585,70.267216439,4670.0
5.5593047003,149.80706414,-103.32172112,-109.23840836,4680.0
5.6146911334,175.50718908,-78.563104344,151.82664155,4690.0
5.6038144819,-157.70731282,-75.214853403,115.39878785,4700.0
5.3785085329,-131.78181277,-72.402661902,77.887590275,4710.0
5.6071583958,-106.25403873,-71.323603851,34.65545534,4720.0
6.2147417555,-78.404867786,-72.074905155,-9.7656384354,4730.0
7.1952224219,-55.057394362,-74.495722118,-50.385300673,4740.0
7.3876746479,-46.313582306,-78.076931939,-89.242203048,4750.0
6.0607369971,-25.530211533,-82.804789705,-97.371481025,4760.0
5.4375115662,-0.88544974118,-79.63304898,-103.27828509,4770.0
4.9791105735,23.836771476,-75.973677578,-133.91082167,4780.0
4.6434267148,46.299201264,-73.091477648,-174.95141383,4790.0
4.8144002526,66.855625713,-70.521251802,143.45630792,4800.0
5.2977489266,91.521763244,-69.285544954,99.852687568,4810.0
5.5199627255,118.85333865,-68.725115292,60.649383634,4820.0
5.8194281341,144.77649015,-68.350922325,22.027071557,4830.0
6.9051718875,167.38718503,-68.377300418,-19.377345903,4840.0
7.5373927886,-178.69112581,-68.786080055,-64.788640605,4850.0
6.4566135474,-159.10448602,-69.504950124,-117.06512463,4860.0
5.7892255919,-133.92692312,-69.605993795,-176.89496651,4870.0
5.4788684289,-109.37328845,-69.163550567,119.86128389,4880.0
5.5915507889,-83.837471723,-68.834094751,66.033451472,4890.0
5.3115315588,-56.652838902,-68.967247814,21.140200824,4900.0
4.654184875,-34.255162116,-70.15423113,-15.654607121,4910.0
4.8865466167,-12.379223385,-70.526274081,-40.480438934,4920.0
5.2994159985,12.146735662,-70.414610925,-68.801796844,4930.0
6.0128877819,36.138780265,-70.583076715,-97.291487058,4940.0
6.8820535823,51.442599233,-70.167011164,-129.63327291,4950.0
6.0189054673,66.258386557,-68.790476204,-162.92875208,4960.0
5.4401218543,88.631403591,-67.010516918,150.61125646,4970.0
5.30123207,112.47885915,-66.415399809,103.20114863,4980.0
5.2041873642,137.16108158,-65.353627404,62.59483939,4990.0
5.2502541622,161.37385661,-64.599686079,21.230885388,5000.0
5.5364358535,-173.78715022,-64.363150996,-19.512940501,5010.0
5.6403498627,-147.51823407,-64.954498418,-59.682145747,5020.0
5.7538068434,-122.03945328,-66.772568629,-95.399207011,5030.0
6.3685374517,-95.952282823,-69.250943442,-122.25488684,5040.0
7.6205787078,-75.349276197,-70.758752226,-140.74635532,5050.0
7.006321186,-63.341989249,-71.578275263,-161.54215016,5060.0
5.7221837121,-38.333902892,-71.556400646,176.59040711,5070.0
5.0747852513,-14.352754396,-71.512843562,142.88006709,5080.0
5.0188805231,6.7924244348,-72.238928169,108.2127477,5090.0
5.2353679227,32.831471784,-71.76394626,72.374378523,5100.0
5.1724356456,57.991131956,-71.285276358,34.56319215,5110.0
5.1810546819,81.025456171,-71.714994167,-6.0824865473,5120.0
5.4833493186,104.50358028,-73.256910773,-44.587974404,5130.0
5.9821092867,128.56767644,-77.249999915,-67.366467868,5140.0
7.0262159471,149.42673891,-78.797642783,-47.613605443,5150.0
7.1248558205,159.66955834,-74.080564716,-50.726098774,5160.0
5.7950885176,-179.49741761,-71.135194116,-74.091525138,5170.0
5.4815773459,-153.41769269,-68.632087858,-100.95273276,5180.0
5.279924735,-126.06439076,-66.435443256,-128.28912052,5190.0
5.1295110253,-102.09309676,-65.041030587,-166.93249246,5200.0
5.6001590402,-78.400035159,-65.03151776,155.39963568,5210.0
5.7385150773,-51.218666327,-65.494149582,120.33331881,5220.0
5.8023868106,-25.789840477,-66.246833995,86.885809108,5230.0
6.0529442302,-0.57795433833,-67.693329339,57.086356795,5240.0
6.6779627532,22.268341658,-68.345744947,35.974472214,5250.0
7.6606076159,32.045684885,-67.347888042,8.5303132983,5260.0
6.222591707,47.054427903,-66.242724396,-24.041055676,5270.0
5.368286621,73.841760289,-65.767135949,-58.769587912,5280.0
