S11m,S11p,S21m,S21p,Frequency
5.1463547677,-49.083104857,-50.658836696,86.705786337,2000.0
5.3940891636,-26.087976073,-52.956835238,48.744999591,2010.0
5.5571375965,-1.7219354624,-57.064298351,64.728492946,2020.0
5.5686037342,23.687737763,-54.237055132,71.179103373,2030.0
5.4231646106,49.527060459,-53.028534091,60.482590667,2040.0
5.1573808465,75.010530806,-50.886779849,46.070213387,2050.0
4.8445690149,99.777446692,-47.925862687,19.822929413,2060.0
4.5764749677,123.37129613,-44.249394007,-40.936265683,2070.0
4.4230485629,145.76333889,-49.916986748,-108.49034536,2080.0
4.4387560221,167.3699187,-59.597698071,-121.33794016,2090.0
4.603182908,-170.92300045,-62.811784369,-74.092346042,2100.0
4.8130306091,-148.48515143,-58.682610713,-74.481453171,2110.0
4.9720242,-125.23575264,-61.976773257,-86.42005226,2120.0
5.0496520446,-101.352324,-60.587636622,-59.683145664,2130.0
5.0275973448,-77.016554336,-59.361916831,-61.684423706,2140.0
4.9127475533,-52.517614742,-51.800833197,-27.65579881,2150.0
4.7603900403,-28.181796849,-47.703323952,-133.1885118,2160.0
4.6131649314,-4.1770716487,-52.858972532,-151.17310188,2170.0
4.5000459441,19.336315287,-55.008115209,-159.33644697,2180.0
4.4658991151,42.191807859,-56.197626403,-159.90255252,2190.0
4.5518190932,64.910341402,-57.003488934,-161.17111256,2200.0
4.6827252901,88.052098487,-57.626352924,-161.43685472,2210.0
4.7835590848,111.49882603,-58.699942644,-170.15138306,2220.0
4.8615676113,135.3092593,-59.632850104,-133.81212852,2230.0
4.8685811333,159.38071155,-49.567195095,-122.9778126,2240.0
4.8144882433,-176.57478895,-40.735164325,76.512577778,2250.0
4.7260201738,-152.82797345,-51.83829604,62.141701746,2260.0
4.6399557114,-129.42982532,-55.125345369,55.328733014,2270.0
4.5748940877,-106.42248335,-56.193175646,46.242881152,2280.0
4.5630792909,-83.793619521,-56.634667337,34.759723513,2290.0
4.6304884306,-61.167653346,-56.651689763,25.253865673,2300.0
4.734533329,-38.04304606,-56.490363991,16.854550537,2310.0
4.8119404648,-14.413747646,-56.103139293,11.488022743,2320.0
4.8555811864,9.4147419028,-56.287450366,15.50401566,2330.0
4.8552321321,33.456982513,-43.24592214,51.938491,2340.0
4.7872608136,57.498145694,-49.654567121,-126.52522745,2350.0
4.7196742196,81.001423204,-56.769531958,-122.0242608,2360.0
4.6838466252,104.26555703,-59.502421078,-119.88393017,2370.0
4.6831552208,127.28005688,-61.112244112,-121.83613253,2380.0
4.7256297203,150.14947345,-62.105508854,-122.82452808,2390.0
4.8166314409,172.98994461,-62.299898611,-125.97785107,2400.0
4.9476744793,-163.8943228,-61.396820789,-131.77627088,2410.0
5.0736852342,-140.46820569,-59.115645084,-138.11811267,2420.0
5.1776233723,-116.81676101,-54.97982717,-151.63797875,2430.0
5.2557392765,-92.818340953,-46.592035896,-174.78466053,2440.0
5.2770219184,-68.49427425,-51.597253712,74.674778827,2450.0
5.2239688427,-44.238094065,-57.156797809,58.77993292,2460.0
5.1528301424,-20.396528453,-60.345140795,46.370425427,2470.0
5.1141507568,2.9100382705,-63.863133682,34.873191235,2480.0
5.1262687626,25.891442566,-66.38600513,26.791805673,2490.0
5.2035481053,48.749390489,-66.859747589,20.855744384,2500.0
5.3506996162,71.750997337,-65.965005289,12.143115022,2510.0
5.5051620697,95.147379468,-64.272461653,4.8651870301,2520.0
5.6220186379,118.76491602,-60.331055735,4.006027634,2530.0
5.7396539955,142.49049232,-49.09589783,-24.454180933,2540.0
5.8286067395,166.46443661,-54.30010469,-121.06470101,2550.0
5.8785159777,-169.57161388,-59.22355566,-132.96816248,2560.0
5.9265411313,-145.82556393,-61.890753832,-140.09108038,2570.0
6.012662794,-122.28257678,-63.423691043,-146.93789182,2580.0
6.1467282991,-98.840341929,-64.221002756,-152.27796923,2590.0
6.3280600558,-75.329567613,-63.395932707,-157.44302979,2600.0
6.555903532,-51.507243291,-60.939704688,-166.44484875,2610.0
6.7917566751,-27.330962294,-56.672870804,-177.47230248,2620.0
6.9877849953,-2.8121657327,-51.525186489,167.75939461,2630.0
7.1528887416,21.752093095,-41.673195391,141.11953042,2640.0
7.2605184123,46.464867446,-49.313712198,22.049071635,2650.0
7.2944053865,70.970382051,-53.373639816,22.792991955,2660.0
7.3114032875,94.678177346,-56.88064322,6.2042645046,2670.0
7.3973021821,117.76125813,-61.528924511,-7.2955576978,2680.0
7.5539078265,140.17802771,-65.883637374,-17.285365604,2690.0
7.8650083546,162.19575158,-68.865927128,-25.748748312,2700.0
8.3551160356,-175.52218992,-71.666742913,-18.583594923,2710.0
8.9670163948,-152.41885392,-68.006173355,17.646228255,2720.0
9.629457524,-128.33307373,-59.460604767,20.841209554,2730.0
10.282020857,-103.31841073,-48.768551124,5.0577552295,2740.0
10.858654084,-77.454694753,-49.390188613,-96.610821723,2750.0
11.273884439,-51.159721873,-54.751562732,-69.021559753,2760.0
11.513134972,-25.690622335,-53.276283894,-67.560932338,2770.0
11.802391864,-2.1018732961,-53.884425004,-79.260776375,2780.0
12.217995498,20.363320737,-56.460315942,-99.23405136,2790.0
12.806627233,42.221306293,-60.568923038,-124.71150107,2800.0
13.588432199,63.670150904,-60.52550272,171.49687866,2810.0
14.596706712,85.12166895,-53.647447193,117.53825072,2820.0
15.864391315,106.21930057,-47.172933903,89.497413308,2830.0
17.381967724,126.80568062,-42.904573721,56.880306778,2840.0
19.122901879,147.29201943,-41.014782713,19.098287553,2850.0
20.827330578,168.22298179,-45.242956114,22.413496239,2860.0
22.143557406,-173.08810628,-40.212505631,41.529285931,2870.0
22.832133374,-161.26986,-36.544690193,15.235962179,2880.0
22.673031893,-156.14394437,-36.211109566,-28.503176907,2890.0
21.663218474,-152.67635026,-37.772306611,-73.53225928,2900.0
20.174466555,-147.15846276,-39.486248262,-115.94259738,2910.0
18.745441311,-138.24295347,-41.324581446,-149.8659572,2920.0
17.619167685,-125.68574759,-42.020161177,-171.56462029,2930.0
16.748854809,-110.25812737,-41.771697129,166.86451586,2940.0
16.152219172,-93.463532799,-40.528951928,141.38378181,2950.0
15.905804209,-73.250253378,-41.933091334,117.43282127,2960.0
15.697973586,-49.390557906,-43.828206328,142.89192844,2970.0
15.198363549,-21.536799457,-39.84934621,147.03365881,2980.0
14.259482352,6.831353591,-38.17244332,119.61064439,2990.0
13.102172421,35.19200391,-41.867518322,88.833473472,3000.0
12.053714712,59.099937174,-47.587858051,70.509716848,3010.0
11.06036026,82.494303662,-51.461833582,64.042229284,3020.0
10.270318015,104.72561771,-53.207140663,57.841712695,3030.0
9.6460401659,126.26886889,-54.318298968,48.626620786,3040.0
9.1861731917,147.23372825,-54.473729314,39.139386036,3050.0
8.9614080382,168.2985383,-54.654589373,23.574381241,3060.0
8.9234983303,-169.66185756,-57.749870969,18.317178397,3070.0
8.9328298003,-146.11535584,-54.473042963,42.580413565,3080.0
8.8832394925,-121.48779393,-47.86544863,6.5435610428,3090.0
8.7247691463,-96.340789779,-50.486701476,-65.811756071,3100.0
8.4578041272,-71.451629227,-55.930507039,-92.393178894,3110.0
8.1037943201,-47.185808021,-59.041172097,-104.16270655,3120.0
7.861540805,-23.584992786,-60.129008932,-117.38272623,3130.0
7.6131588285,0.083917107207,-60.848902637,-127.19003564,3140.0
7.4423296332,23.823939486,-60.538465234,-136.463818,3150.0
7.3640558906,47.70207643,-60.402562728,-145.0559458,3160.0
7.315505253,72.255384611,-62.786608384,-150.07622755,3170.0
7.1951961545,97.30042975,-63.716548707,-105.3917402,3180.0
6.9857599277,122.13702513,-54.918668938,-98.70948174,3190.0
6.7494320343,146.40203644,-52.283197248,178.71092361,3200.0
6.5208284774,169.92032107,-59.564587816,154.61471299,3210.0
6.3080461798,-167.27971761,-61.850862853,149.04365415,3220.0
6.1055270331,-145.27221794,-62.378002318,147.10500789,3230.0
5.9448244194,-123.64138601,-62.296332682,148.02320607,3240.0
5.8414903405,-102.11845475,-60.922243605,145.46905479,3250.0
5.8712187302,-80.364501695,-59.710076323,138.86013368,3260.0
6.0256786912,-57.733810827,-59.875123644,127.64575194,3270.0
6.2146709283,-33.535826596,-60.220784226,142.26549025,3280.0
6.3232210058,-8.1159149257,-54.235909133,153.50726387,3290.0
6.3361510917,17.797489755,-43.888332239,90.574294012,3300.0
6.2449136813,43.516967522,-54.279233653,24.752013012,3310.0
6.0402987938,68.411199237,-60.792088299,23.52335398,3320.0
5.7884630166,92.204397762,-64.00679429,25.29306372,3330.0
5.5495309704,114.87364136,-65.502970472,28.772547849,3340.0
5.333030525,136.75227266,-65.474718873,30.383187336,3350.0
5.1885833999,158.35075886,-65.56358063,27.906814033,3360.0
5.1714122401,179.96979967,-68.35723891,21.197772231,3370.0
5.2745313201,-157.40686301,-73.696511238,42.991082613,3380.0
5.3755791626,-133.89659639,-69.879386602,71.349302761,3390.0
5.4790737415,-110.36387313,-63.731515503,58.144061818,3400.0
5.5566342932,-86.59564951,-73.198227934,-63.592869534,3410.0
5.6145391924,-62.879112339,-81.975510057,90.451908902,3420.0
5.6333984535,-39.168537295,-79.064768764,95.248649119,3430.0
5.5895193438,-15.718230168,-78.12041036,103.53230499,3440.0
5.4841032828,7.5688031002,-77.892579503,106.5876894,3450.0
5.3727673991,30.342373948,-80.325601019,109.16636217,3460.0
5.3784253586,53.263264155,-82.284432331,135.26080429,3470.0
5.5271335765,77.286302656,-89.519736685,170.9993972,3480.0
5.6821636494,102.4988483,-78.371657359,-54.8745115,3490.0
5.72905193,128.01752678,-66.993507721,-58.660183754,3500.0
5.6747834761,152.98932301,-51.631109602,157.13537578,3510.0
5.5108205422,177.10433585,-68.234814948,97.017370422,3520.0
5.2678477452,-160.0547838,-73.46981681,86.539680513,3530.0
5.0249335024,-138.69827163,-72.382207086,78.439538426,3540.0
4.8279270935,-118.06080265,-71.784297928,70.679467893,3550.0
4.7302499974,-97.723069503,-71.445598292,80.02050237,3560.0
4.7811100752,-77.252676868,-70.931559253,102.1651351,3570.0
5.0772632866,-55.406237725,-67.44577487,124.91279586,3580.0
5.4679946798,-31.48407603,-62.205401632,137.51659324,3590.0
5.8260640038,-6.0424944064,-55.062976378,144.54877769,3600.0
6.1100484692,20.215971913,-42.487112561,29.598083946,3610.0
6.2585848003,46.755321718,-56.413667292,1.8782363168,3620.0
6.1902279801,72.807954695,-60.212250127,5.463364309,3630.0
5.8895618635,97.460763022,-62.035821934,5.2232620923,3640.0
5.4602515709,120.0481654,-63.310928023,1.9689862202,3650.0
5.1209368994,140.88833197,-64.386281746,4.9411432131,3660.0
5.0165220963,161.23820287,-62.902780077,25.502874702,3670.0
5.1474321938,-177.45441469,-58.049576899,45.384670979,3680.0
5.3710731245,-154.60966482,-51.205332077,58.373857072,3690.0
5.5958887949,-130.71724969,-36.776728645,110.34135581,3700.0
5.8267625736,-106.35594761,-47.940976881,-132.6597101,3710.0
6.0100737285,-81.783384219,-53.838867188,-121.60875458,3720.0
6.1095338026,-57.518754882,-56.468748693,-118.17932388,3730.0
6.0827651789,-33.662401893,-57.558384812,-125.43906198,3740.0
5.8815318288,-11.050596812,-59.486249183,-139.61467147,3750.0
5.6806480607,10.048845297,-60.76351773,-143.28886351,3760.0
5.6867732042,30.649136679,-58.777615973,-177.58299294,3770.0
5.9202903747,52.242820467,-61.222044548,125.18290914,3780.0
6.2910331028,75.831272542,-64.862294828,102.73934491,3790.0
6.6838999905,101.4378502,-67.299701606,99.667345675,3800.0
7.0148046259,128.35410769,-65.955469859,109.59667997,3810.0
7.2246118368,155.88069485,-64.598724801,116.22048975,3820.0
7.2145734785,-177.16116442,-62.330642828,132.54438064,3830.0
7.0228728267,-152.13087104,-56.177689673,139.77381313,3840.0
6.718897336,-129.15052343,-44.595557926,65.339162341,3850.0
6.3116400095,-108.37272373,-59.402144927,16.595882286,3860.0
6.0662823282,-89.372007629,-65.305244129,9.1951897666,3870.0
6.123913346,-70.371624258,-69.094133593,-12.763815559,3880.0
6.4428574439,-50.130707159,-71.035075754,-29.623277223,3890.0
6.9184070635,-28.140207459,-71.835349097,-38.6898738,3900.0
7.5578940202,-4.5557949596,-71.217240425,-32.513812866,3910.0
8.3647109421,20.842319298,-68.855570779,-28.593713636,3920.0
9.2330631306,47.965159404,-66.76006761,-23.871653287,3930.0
9.9376327277,76.148459023,-61.273670052,-4.5368821104,3940.0
10.208183208,104.45136232,-48.300335827,-109.1485928,3950.0
9.9278830253,131.14311782,-66.216556939,-100.46608198,3960.0
9.3426372695,154.56743124,-68.342827241,-85.418788729,3970.0
8.8499818394,175.67595531,-70.138729576,-86.418377111,3980.0
8.6262888803,-163.64808145,-70.776019225,-92.465870475,3990.0
8.7218413928,-142.86999564,-69.016815073,-105.80094856,4000.0
9.166442868,-120.71448203,-67.381842612,-122.59176589,4010.0
9.7973632647,-97.62644999,-65.704291411,-131.18394401,4020.0
10.605669003,-74.460859584,-63.333568086,-124.25185194,4030.0
11.521932062,-51.911528515,-58.341939145,-106.87403682,4040.0
12.471621143,-29.861947743,-38.804336732,-89.346200481,4050.0
13.225327359,-7.3568072849,-55.86229729,103.77071605,4060.0
13.533625422,15.327111194,-63.934597557,127.59841114,4070.0
13.554175278,37.202503805,-69.738592403,159.27968867,4080.0
13.592791735,58.051471112,-72.46519307,-161.01583318,4090.0
13.99372153,78.086106422,-71.389988019,-140.9589162,4100.0
14.968719907,97.011568565,-70.457710101,-158.47248209,4110.0
16.555926118,114.75095897,-71.112784797,173.24852732,4120.0
18.574036872,129.19735846,-70.022051598,132.41213818,4130.0
20.637108332,137.8419702,-64.375568077,117.48703807,4140.0
22.149475287,142.42143817,-47.684700929,103.21071791,4150.0
22.981403426,152.96756726,-45.027607148,-111.85806235,4160.0
23.852091843,174.77011057,-57.909806188,-129.22031806,4170.0
24.147796828,-149.54835546,-65.358940241,147.62687172,4180.0
22.210931914,-111.55161108,-61.17740091,133.39512202,4190.0
19.437344961,-86.780274769,-61.49119627,136.89012097,4200.0
17.218799902,-71.259310719,-61.91085359,136.27917811,4210.0
15.545513377,-58.980190733,-62.752487567,132.17622672,4220.0
14.067103316,-46.790305537,-63.651003935,123.12662854,4230.0
12.708821709,-32.924530053,-65.063639239,120.31451088,4240.0
11.580307767,-17.216537924,-62.086000925,118.50737838,4250.0
10.763411994,-0.22567578034,-47.439721903,-26.727171444,4260.0
10.353909059,17.530835192,-70.689995525,-76.438204091,4270.0
10.420758333,36.103727873,-77.850257139,-116.67062805,4280.0
10.954617967,56.944144219,-75.455147245,-156.34825316,4290.0
11.656942764,81.379226323,-76.073298699,176.88774629,4300.0
12.063451612,109.01687591,-83.044326747,112.55177643,4310.0
11.912177694,137.56760215,-77.602773284,49.903065407,4320.0
11.290895865,165.46992205,-68.511649747,32.959881368,4330.0
10.421700102,-168.3201737,-63.653031213,24.264102217,4340.0
9.5650459285,-143.53453772,-58.944410732,14.583085209,4350.0
8.798519372,-119.73821302,-49.655791504,-40.561273403,4360.0
8.1882382771,-97.179912055,-67.210902974,-143.1664366,4370.0
7.802038075,-75.601904816,-73.008451399,-41.089160297,4380.0
7.6651433864,-54.345017369,-70.248821787,-51.33990632,4390.0
7.6955919555,-32.192362904,-70.805879714,-68.721297552,4400.0
7.6761344526,-9.5011409332,-71.058376787,-100.90111915,4410.0
7.6059879605,13.063549877,-69.376668732,-138.83743611,4420.0
7.5410845047,35.921858277,-67.153762289,-172.40108908,4430.0
7.4738354515,59.214803733,-64.801967113,164.78806089,4440.0
7.3988235242,82.684816014,-62.662178107,149.86873497,4450.0
7.3172963613,106.82411127,-60.518354286,130.68770927,4460.0
7.196230857,130.83085442,-59.770416329,98.305712235,4470.0
7.1666414998,154.88078462,-64.057085422,82.602992873,4480.0
7.2063150609,179.23532498,-66.520074019,104.50031305,4490.0
7.2489915569,-155.68546339,-64.633151768,119.1931062,4500.0
7.1839941954,-130.23861589,-63.330157189,113.50690482,4510.0
6.9897736085,-105.29840488,-62.588654075,100.84568786,4520.0
6.7218610399,-80.994942148,-62.791075151,79.630532437,4530.0
6.4114262666,-57.496388058,-64.83756215,63.514092804,4540.0
6.1262237264,-34.868584989,-66.776145774,55.080050569,4550.0
5.927136514,-12.841804881,-66.972864086,53.032990727,4560.0
5.77528196,8.8238390277,-65.413422664,46.572326612,4570.0
5.7094283654,30.109687953,-64.823873179,31.187304755,4580.0
5.7162815226,51.527011663,-67.029061381,33.28672162,4590.0
5.8297006666,73.185636318,-64.385146902,48.366317336,4600.0
6.0576537062,95.837345308,-58.695691304,34.027300302,4610.0
6.2698635235,119.22412146,-58.001919634,-19.731492383,4620.0
6.4936647388,143.67244023,-61.073735426,-42.511001398,4630.0
6.5988762368,169.0732659,-62.961241037,-48.079136376,4640.0
6.584831229,-165.3134195,-63.527473943,-45.970609825,4650.0
6.4478083847,-139.79735208,-64.208744741,-42.680112113,4660.0
6.2333093585,-115.00083723,-64.14561145,-45.532941464,4670.0
6.0128332114,-91.047586127,-62.929463794,-57.356367161,4680.0
5.8228480304,-67.632168861,-62.905495706,-80.074888613,4690.0
5.6645480607,-44.806109641,-66.20609632,-79.506231936,4700.0
5.5475561711,-22.471302787,-61.878838923,-73.840313171,4710.0
5.4805949358,-0.37938257146,-65.413713661,-149.91336548,4720.0
5.4469870241,21.640341199,-72.275023865,-167.87368369,4730.0
5.4148514085,43.66779477,-76.447930303,-173.56361491,4740.0
5.4648550011,65.239251938,-79.536068488,177.47443807,4750.0
5.5498626235,87.511699068,-81.114461182,169.45656632,4760.0
5.6466760876,110.28002398,-80.537394584,-171.49230575,4770.0
5.7087029074,133.15869563,-78.140831382,-158.96526931,4780.0
5.7989969977,156.54644729,-77.556100085,-167.28301135,4790.0
5.9255493586,-179.80401581,-79.266902201,-139.96462885,4800.0
6.0669379474,-155.69994868,-66.671007855,-129.68740158,4810.0
6.1890818566,-131.02835459,-65.098521672,143.72722624,4820.0
6.2367187466,-106.03924358,-73.182068466,122.56273903,4830.0
6.1858419037,-80.987623874,-77.959503734,100.66093557,4840.0
6.0525713238,-56.158665379,-80.261061753,82.459085754,4850.0
5.8455034685,-31.955872875,-79.235082215,55.564745498,4860.0
5.5835695106,-8.6407981249,-77.913380638,41.088954161,4870.0
5.3172761,13.49420374,-75.273417202,42.37703832,4880.0
5.1905946604,34.565231987,-72.068047495,34.542956558,4890.0
5.2225502847,55.381879243,-70.720341165,28.388959064,4900.0
5.3827814243,76.883903034,-67.298047743,27.792594075,4910.0
5.5672643085,98.665410736,-65.697844967,-33.829562855,4920.0
5.8337845784,121.50130517,-71.45063946,-63.778036611,4930.0
6.0529654756,145.20258033,-76.675740096,-53.190894025,4940.0
6.2225650116,169.42737182,-78.243368649,-44.341057791,4950.0
6.2890098561,-165.70613401,-76.552410056,-50.132259503,4960.0
6.1941003726,-140.43155162,-75.244005104,-58.975917355,4970.0
5.9417331831,-115.90045062,-71.725940237,-50.66402383,4980.0
5.6993404567,-92.968590375,-67.298146236,-46.469057478,4990.0
5.6727475543,-70.659061516,-63.027086107,-50.952254099,5000.0
5.822828547,-47.75081246,-57.903585924,-80.883457393,5010.0
5.9609113856,-24.529143639,-60.856538022,-114.54519964,5020.0
6.1380431076,-0.85570108378,-62.928837454,-118.71961108,5030.0
6.169200583,22.937598736,-63.591748457,-124.6010985,5040.0
6.1289854907,46.656234331,-63.634404514,-130.37464745,5050.0
5.999423237,70.064668902,-63.744703119,-129.91369184,5060.0
5.7312836805,93.206956943,-63.123951839,-130.32354113,5070.0
5.4171503456,114.94539462,-62.353894615,-133.09414711,5080.0
5.3139957851,135.22656033,-60.31690868,-139.76407147,5090.0
5.6155889872,155.75624965,-57.619446831,-152.24700368,5100.0
6.1663876574,178.14705382,-55.078462072,164.68534699,5110.0
6.782158024,-157.8784583,-60.17094343,129.29373915,5120.0
7.350056429,-132.63418036,-60.681454401,136.63611101,5130.0
7.7430541758,-106.06214276,-58.843756259,130.01424719,5140.0
7.7741610153,-78.167314996,-57.726351054,126.28374162,5150.0
7.2880485724,-50.048120304,-56.320001529,127.64191861,5160.0
6.2712042592,-24.390430887,-55.216997471,131.87313207,5170.0
5.176232287,-3.9932780481,-56.122038378,136.97582766,5180.0
4.8825204445,13.815183769,-57.432576122,143.04977202,5190.0
5.2565814705,33.542509907,-57.388399809,132.29596872,5200.0
5.9531805719,55.494758975,-58.721943691,105.28732172,5210.0
6.7762802569,78.399162178,-62.617700153,98.477721369,5220.0
7.6706827081,101.85928774,-62.355147731,116.70647159,5230.0
8.5282591319,126.54737187,-57.333347269,106.89025102,5240.0
9.0792405827,153.95619168,-52.123733744,82.397946294,5250.0
8.8589484844,-175.4194455,-50.394878313,58.015411071,5260.0
7.1943759341,-146.42934642,-52.025449042,48.119734085,5270.0
5.1695619175,-129.42760955,-55.62647949,46.840185107,5280.0
