S11m,S11p,S21m,S21p,Frequency
16.940590247,-0.43321725899,-58.468092103,-137.74838789,2000.0
10.926532279,105.47744247,-69.170038407,-93.674926776,2010.0
7.221656904,151.98336921,-75.798901957,-33.12693192,2020.0
6.2336529967,-172.35718508,-69.022616708,8.2948721212,2030.0
7.2027618201,-136.46686458,-64.500172708,10.77884145,2040.0
11.449349364,-89.96405831,-60.726302431,34.296917564,2050.0
18.880976995,35.94123543,-56.05548553,120.36496784,2060.0
10.07681136,125.38638166,-74.2403612,137.47518959,2070.0
6.9096173548,166.07611462,-76.053435993,120.55590207,2080.0
6.2513022246,-160.28350545,-75.422340662,131.40889224,2090.0
7.5328868933,-125.1248576,-82.861787696,145.3210649,2100.0
12.195199495,-76.620366563,-71.553291861,-21.096463959,2110.0
17.696517648,51.074031083,-60.181411831,85.205115467,2120.0
9.7999198583,131.34892168,-67.481230254,168.40564754,2130.0
6.9621676064,171.59711015,-70.057678881,-145.62028267,2140.0
6.6402837079,-154.14336692,-69.365494309,-110.20007645,2150.0
8.653561428,-117.0548091,-65.688656866,-90.761445029,2160.0
15.792882107,-59.948374927,-61.306212707,-91.322489182,2170.0
15.294236948,94.638884919,-55.210805637,-42.576448651,2180.0
8.5240479046,148.1346532,-57.551020977,-30.678425869,2190.0
6.4238166884,-176.94075342,-60.25822934,-25.17846624,2200.0
6.4394400509,-144.69942061,-63.57772624,-14.961453795,2210.0
8.6372168139,-107.49716891,-63.029585644,9.6082942649,2220.0
15.964140372,-45.98131,-52.976149346,56.778650393,2230.0
14.268720599,102.16023538,-49.954559226,167.44778033,2240.0
8.2205984755,154.75509748,-53.677866285,176.67112188,2250.0
6.4798230887,-169.81003642,-55.008366296,-177.96407096,2260.0
6.8789084383,-136.03765696,-54.41218998,-157.32670134,2270.0
9.899929181,-95.377692081,-51.557146019,-120.73683946,2280.0
18.801485311,-9.4793739052,-44.646107225,-39.900550606,2290.0
11.744028612,118.26173119,-55.563143024,76.054439247,2300.0
7.2215932252,162.73171436,-66.64596057,110.54307845,2310.0
5.9666357034,-163.28980906,-75.113172986,147.88605389,2320.0
6.5941894629,-129.67200318,-74.572857985,-176.42391361,2330.0
10.023580808,-87.967716428,-66.060717978,-167.70927702,2340.0
19.758944105,12.871311302,-50.966091329,-101.66332555,2350.0
10.84248262,131.14715872,-57.334232112,-24.647035191,2360.0
6.8884648629,173.40975189,-62.353596984,-12.608055908,2370.0
5.9457515364,-152.58865197,-67.161099193,-7.9473873056,2380.0
6.8519245604,-117.50517274,-70.76086378,-13.115018359,2390.0
10.863873426,-70.433888761,-63.706592182,-17.606936826,2400.0
16.961619379,48.700944893,-52.684304791,67.364790415,2410.0
9.3233916145,137.15611145,-62.208128425,126.47611651,2420.0
6.3297750201,178.89957531,-74.773521437,164.3840731,2430.0
5.765593374,-146.85383662,-73.897605463,-62.663724783,2440.0
7.1538759185,-110.56331655,-63.52573724,-33.775851487,2450.0
12.477599547,-58.251928606,-53.910089518,-9.6150395225,2460.0
15.476177774,84.543377336,-50.280230027,96.755127569,2470.0
8.1254991981,151.71027234,-59.438810439,134.6107681,2480.0
5.7360452485,-169.98911687,-63.564579202,152.83096998,2490.0
5.4402678292,-136.8949456,-65.449397325,170.67550589,2500.0
7.0758623697,-99.886736075,-64.930966071,-164.66881016,2510.0
12.738408675,-41.613324724,-60.848671433,-125.95078337,2520.0
13.818806105,96.316130934,-66.365570486,-2.972118843,2530.0
7.6504009182,159.73776552,-71.328685027,156.91950401,2540.0
5.6708365741,-162.22944559,-65.228073214,-170.02247786,2550.0
5.6776187293,-128.2452678,-59.623203961,-152.08363946,2560.0
7.90219911,-88.21866439,-53.583001641,-143.95663684,2570.0
14.638531065,-13.654807823,-45.107582222,-107.17274032,2580.0
11.414444988,117.14565448,-50.263991038,-9.1075402328,2590.0
6.6250265746,170.17547463,-60.288873222,14.268867687,2600.0
5.1744856049,-153.95298092,-66.9086153,17.918377993,2610.0
5.5272535878,-120.07165258,-69.845826828,14.906850855,2620.0
8.1868584905,-77.836649422,-69.002550342,25.233503827,2630.0
15.417763651,7.3106674757,-74.173655984,105.01168275,2640.0
10.446934152,130.26481181,-68.744693806,-20.883891099,2650.0
6.2839692991,179.31835737,-67.619988002,-11.503431314,2660.0
5.1087486899,-145.38304172,-68.418911052,-16.119722894,2670.0
5.7047100592,-110.06025977,-72.938605818,-23.141679391,2680.0
8.7783188335,-62.480480425,-69.590896346,-113.69289317,2690.0
14.494448507,40.168276751,-58.938756534,-65.517749595,2700.0
8.6823898285,140.69466878,-65.970783245,11.157621872,2710.0
5.5371731573,-173.48650353,-75.715981716,57.375858375,2720.0
4.8021267094,-138.37232832,-87.253005942,171.08327744,2730.0
5.6945559895,-101.74269583,-78.359956965,-120.15210928,2740.0
9.3094594679,-49.8643052,-73.308073207,-31.080527298,2750.0
13.462773664,65.070294029,-60.404278971,93.560155588,2760.0
7.3854774324,150.88032131,-60.056778424,150.06944837,2770.0
4.7320674788,-165.60303345,-59.764259521,166.09727793,2780.0
4.1524673561,-130.29310395,-58.732428398,175.71010153,2790.0
5.0097606011,-91.623507224,-56.891549226,-165.26293762,2800.0
8.2877827825,-33.491143746,-54.532347944,-117.96730451,2810.0
10.413664614,78.409713627,-55.467010063,-29.634327047,2820.0
5.9972160921,157.33171423,-61.956072267,12.145141638,2830.0
4.0716854341,-158.36703852,-66.183588135,20.219306891,2840.0
3.7030825073,-121.25701027,-69.093600819,31.453050924,2850.0
4.5088847809,-77.552662759,-73.05287141,80.634387483,2860.0
6.5769271338,-4.6052480317,-62.796398091,-154.26185102,2870.0
5.1084477293,100.08668027,-55.342929001,-85.0237002,2880.0
2.3669105005,167.35371466,-54.200211673,-54.290646632,2890.0
1.2815351667,-149.91982661,-53.915853117,-26.71778971,2900.0
0.78822769855,-112.55836162,-55.524870588,9.0170875144,2910.0
0.47203968715,-66.111984852,-56.241074474,44.860662605,2920.0
-0.081846518782,10.372865742,-56.659560019,90.486376451,2930.0
-0.88330937093,109.6942631,-61.131683849,150.35955623,2940.0
-1.3383350948,177.35270335,-71.601888104,-146.31476428,2950.0
-2.295718724,-138.75881053,-74.185893132,13.285903537,2960.0
-5.0387842236,-101.96363654,-63.965004568,68.443183699,2970.0
-13.121844127,-84.914146833,-57.606820262,107.88408429,2980.0
-12.845771642,-136.15337652,-54.069509244,144.69423208,2990.0
-10.609632605,-112.80329658,-54.005354024,179.81569437,3000.0
-16.11917311,-73.897056308,-55.550443671,-143.38558781,3010.0
-17.129240915,128.08313887,-57.612039119,-108.7382067,3020.0
-7.2672167461,170.86632775,-59.484474596,-72.285840194,3030.0
-3.894272631,-155.19223456,-62.523429336,-36.898522248,3040.0
-2.3550794201,-121.72885252,-67.261612426,2.1325205781,3050.0
-1.4958327071,-80.632085636,-72.657087645,54.653256563,3060.0
-0.18132233003,-16.068285289,-69.246873626,137.82590655,3070.0
2.254008337,83.001531702,-61.698198487,-149.64692821,3080.0
2.4369718464,164.77372579,-59.84217545,-105.35820333,3090.0
2.0922811138,-146.00728461,-60.736185563,-86.652069114,3100.0
2.2378092733,-106.12719467,-61.014881425,-71.078674174,3110.0
3.2833668142,-59.721305091,-59.933946722,-41.84828909,3120.0
5.9714065081,14.108980197,-57.904027276,18.09605967,3130.0
6.2982582131,116.29051267,-60.43832406,101.96416445,3140.0
4.3486544189,-177.81180641,-67.058116535,156.0179997,3150.0
3.7023837899,-135.667794,-70.826449646,-149.32457888,3160.0
4.2364888867,-98.455031268,-69.501332736,-98.687628922,3170.0
6.7206880744,-52.926737152,-63.875577954,-47.613605103,3180.0
12.719838707,34.405416205,-56.593498653,28.458499929,3190.0
8.9899129241,150.19965376,-61.295805418,120.13955426,3200.0
5.5561634103,-157.53630331,-65.037150222,137.97183924,3210.0
4.7029298681,-120.83249855,-66.124337401,142.93118685,3220.0
5.5027167098,-85.05350059,-65.510715875,150.32931513,3230.0
8.9871331941,-38.349970468,-61.670892508,162.34499685,3240.0
15.688552086,67.819115093,-54.276602579,-125.61809296,3250.0
9.3451305534,168.64117025,-60.889027132,-45.954552668,3260.0
6.2805678822,-146.91592572,-65.431168277,8.405876754,3270.0
5.7511762423,-112.5618498,-66.045563991,58.00452966,3280.0
7.2496240152,-77.602567581,-60.331358753,87.62848276,3290.0
12.942548087,-28.770206079,-50.130461827,105.90582379,3300.0
17.290327932,125.57885267,-43.957919363,-128.06580555,3310.0
8.8225848305,-169.3386598,-54.054600866,-82.562307101,3320.0
6.4222487684,-132.96145431,-58.480275857,-63.135433416,3330.0
6.3631840291,-101.37549851,-58.97456439,-44.818913337,3340.0
8.609410389,-67.463440455,-56.87390203,-15.763079668,3350.0
16.645724565,-17.961000872,-50.042583994,31.943712989,3360.0
16.101203447,157.67468281,-53.714795177,-158.97578254,3370.0
8.9010167654,-155.31222811,-64.104445115,-115.940035,3380.0
7.0248057776,-122.26246913,-65.564848815,-66.400182352,3390.0
7.601141052,-91.100275352,-61.460739934,-31.220120398,3400.0
11.421787746,-55.888746215,-57.049652746,-6.4342725265,3410.0
31.300064113,35.93460057,-38.085137276,69.557921379,3420.0
12.236827738,-173.56483085,-57.268782082,-155.72505949,3430.0
7.8998288545,-138.98764001,-63.737925359,-121.19191095,3440.0
6.972308751,-108.89165531,-69.963061766,-87.346885732,3450.0
8.2847610579,-78.470236807,-74.965172345,-58.856209781,3460.0
13.587080639,-41.875602619,-82.671697963,-12.304499044,3470.0
24.510108041,143.78318513,-59.350965563,-101.24896573,3480.0
10.65550225,-160.98154689,-67.489097457,-63.501318074,3490.0
7.4964752512,-127.61351181,-68.580013957,-48.008974092,3500.0
7.234512315,-96.667528195,-69.443624733,-39.4120777,3510.0
9.4342669591,-62.624583954,-65.878031352,-7.4104001401,3520.0
17.816993587,-12.52065536,-58.542107627,32.025879903,3530.0
15.785914519,162.79734162,-65.957222217,-165.37557374,3540.0
8.7354985825,-152.54194312,-76.861079041,-112.65562503,3550.0
6.6958934349,-120.07246824,-79.35387855,-83.597336179,3560.0
6.8838459079,-88.936181724,-76.820933487,-49.128425497,3570.0
9.4876835804,-53.159152668,-71.086370666,-11.316499865,3580.0
18.978514296,8.7972590594,-60.979053908,38.397419257,3590.0
13.728003882,170.7274834,-68.663643369,-140.39411732,3600.0
7.9671778239,-145.1071143,-73.069841796,-32.253074233,3610.0
6.4563462335,-111.49762641,-73.170692521,44.138800794,3620.0
6.9637799672,-79.138924547,-74.204880547,77.528448332,3630.0
10.11515813,-40.430492193,-74.753197593,95.653530848,3640.0
19.761953137,43.668228068,-70.969678063,158.41386284,3650.0
12.054189135,175.73723993,-76.312445655,-54.615797821,3660.0
7.4328015508,-140.78116752,-75.536398098,-24.165277108,3670.0
6.2439758226,-106.83620088,-71.499326917,-26.965978224,3680.0
7.0007301957,-73.267180611,-67.056248355,-34.036577465,3690.0
10.831961278,-31.877979708,-57.963212713,-22.012834677,3700.0
21.147113171,82.897466542,-42.999631965,109.90099239,3710.0
10.740658196,-169.96576979,-58.148160424,-122.40086596,3720.0
7.0811754629,-129.00535031,-65.730788874,-95.588044639,3730.0
6.3206651762,-95.430866616,-68.442397893,-74.868127522,3740.0
7.559458188,-60.313795377,-68.532541244,-44.09103593,3750.0
12.264305008,-11.820823572,-65.606214555,-7.0769944866,3760.0
17.112930261,121.36331647,-64.028543136,121.04824864,3770.0
9.1368988292,-162.22920146,-71.590877381,178.20571862,3780.0
6.4579116037,-121.54515191,-72.61975362,-167.42938091,3790.0
6.1754024233,-86.858084479,-68.408697283,-142.65543338,3800.0
8.131063028,-48.664988607,-66.567984347,-99.695977677,3810.0
14.950769644,14.144568831,-60.705681334,-45.617243766,3820.0
13.631027475,159.2632989,-64.923633392,91.207672614,3830.0
7.6492546692,-144.44348882,-72.562697684,154.95617027,3840.0
5.8208902423,-106.91685447,-78.408265814,-168.41605496,3850.0
5.9354070586,-71.543648951,-89.464345321,-156.4935109,3860.0
8.2007695199,-28.2778288,-75.89555286,78.966615686,3870.0
13.663960007,53.150652728,-63.690442505,125.73010249,3880.0
10.292860744,166.48809966,-62.958395837,-133.68182445,3890.0
6.392147164,-138.53592567,-68.052629128,-69.79251699,3900.0
5.2739642322,-99.694899607,-72.193535411,-12.298921484,3910.0
5.9861937557,-61.563616354,-72.724841017,38.179957936,3920.0
9.189154491,-10.355751654,-68.440904362,93.816008407,3930.0
13.427053678,94.279425027,-65.714029561,-157.94233268,3940.0
8.1680853486,-174.04631012,-73.46461472,-72.412216238,3950.0
5.3132119288,-127.02452551,-75.050147492,-37.722670254,3960.0
4.5695628942,-90.388452953,-71.3794421,-24.066407376,3970.0
5.342273223,-52.276153199,-65.663757296,-1.3622766215,3980.0
8.3116484505,1.6225025021,-59.304164664,49.251267829,3990.0
11.592960866,102.61612811,-56.038522442,139.00403203,4000.0
7.4492726791,-169.42318764,-61.2560172,-148.13444599,4010.0
5.1376680679,-121.52397795,-66.176951779,-99.327011271,4020.0
4.7708883666,-83.370336195,-70.702563208,-50.629383545,4030.0
5.9836775779,-42.249898189,-72.093989629,-15.281887267,4040.0
9.5601325572,19.261345213,-70.539231769,28.967200314,4050.0
10.83552529,128.36148223,-69.607284668,117.79609297,4060.0
6.5594037783,-157.83142592,-74.391829517,167.71932987,4070.0
4.7313578304,-113.83673547,-76.865171717,-157.26271934,4080.0
4.6614552603,-76.52000047,-76.519047038,-129.68212018,4090.0
6.2250288379,-34.265821379,-71.358709439,-107.04837113,4100.0
10.720888351,32.201808183,-62.394065946,-22.412903454,4110.0
11.075465111,150.69120022,-63.099735531,104.60450953,4120.0
6.6800889038,-141.74202858,-70.271626646,154.60621939,4130.0
5.2127066497,-98.921516975,-73.620819369,175.82439519,4140.0
5.5733184026,-59.276388072,-72.618207233,-166.00553927,4150.0
7.9562148437,-9.4660222251,-69.097472702,-118.79858319,4160.0
12.050595537,80.036018968,-63.648687161,-40.903524155,4170.0
8.5909479082,179.02692535,-64.479216285,30.177532454,4180.0
5.7070207761,-127.92384267,-64.220974661,39.610170846,4190.0
5.0385222562,-88.049078081,-60.674690982,51.126114979,4200.0
6.0179456443,-47.943321602,-55.590966775,122.58846759,4210.0
9.6208091945,7.2275990664,-57.01177909,-171.37673238,4220.0
13.059840428,118.39692096,-56.275811173,-84.276166023,4230.0
7.8609644587,-157.35643875,-63.886021691,-15.086429344,4240.0
5.5137531673,-111.33817987,-70.554253913,26.198203587,4250.0
5.1986450456,-73.01217232,-74.872563723,52.046777386,4260.0
6.5790173353,-30.80987389,-77.253503292,83.395110106,4270.0
10.548463321,33.362342921,-69.82187555,157.83348736,4280.0
11.17822592,143.58837405,-59.819641541,-111.96409081,4290.0
7.0273219269,-147.09007662,-55.411063816,-62.287711434,4300.0
5.3918238087,-103.55385166,-55.435839306,6.6927955564,4310.0
5.5206784974,-65.65163821,-58.075513403,59.291725805,4320.0
7.5647955843,-21.772695185,-59.552104393,112.01569261,4330.0
12.612405355,51.721988421,-59.19200333,171.70613682,4340.0
10.967259131,165.92197506,-65.110922261,-102.14948085,4350.0
6.8843009463,-134.62828119,-73.370186935,-70.843800405,4360.0
5.5254452828,-94.207501543,-77.19332868,-39.283254186,4370.0
5.9260321346,-56.833549427,-74.547960162,7.9787608536,4380.0
8.5266116274,-11.825261606,-64.834431175,48.852473398,4390.0
14.19956522,70.003715643,-53.917280233,108.18844152,4400.0
11.086539989,-178.88039832,-52.81512898,-159.86902886,4410.0
7.3196441787,-125.05867923,-52.542157534,-33.432587014,4420.0
6.3658729156,-86.578826552,-66.543394443,25.464438093,4430.0
7.3904057537,-49.393287063,-69.267103238,49.443259645,4440.0
11.556950163,-2.5143709629,-66.319847014,70.776841716,4450.0
18.562171266,113.92127513,-60.092325333,154.96920323,4460.0
10.684028659,-151.7945912,-69.858038078,-129.24668981,4470.0
7.4989492427,-108.40900729,-79.072031521,-69.451462181,4480.0
7.1385302755,-72.475563437,-74.031018829,37.483693743,4490.0
9.2660931817,-34.464113608,-62.639052155,44.634135405,4500.0
16.511581932,21.609967423,-47.403301975,62.581782964,4510.0
16.290620186,178.87002149,-42.235113277,-119.55406095,4520.0
9.4330961623,-127.3913983,-57.989177409,-57.205136114,4530.0
7.5486883211,-90.432884391,-65.328097154,-39.767626341,4540.0
8.0862057025,-55.381603092,-67.700658714,-17.975523142,4550.0
11.741385692,-12.988306551,-67.259170155,23.100222521,4560.0
20.990201465,90.629191678,-59.744867076,127.4344317,4570.0
11.897660531,-156.68767124,-70.793954053,-131.46694506,4580.0
7.8136147999,-113.34084496,-75.564616038,-111.66137218,4590.0
6.9271066372,-78.055191531,-76.419326417,-102.73255221,4600.0
8.0932163727,-41.555016373,-74.845877184,-77.513000842,4610.0
12.579183058,6.4330351677,-67.016508589,-31.487348817,4620.0
18.195091714,128.13288581,-64.294980606,78.153511925,4630.0
10.397865772,-148.60315982,-81.542973066,87.851854156,4640.0
7.323678753,-106.70278581,-88.809833577,-9.074061424,4650.0
6.7980345914,-71.317551785,-84.033845609,5.6966728843,4660.0
8.3085432395,-32.818593784,-83.660996568,18.062851732,4670.0
13.171045812,22.848121135,-79.401133215,49.24312858,4680.0
15.383795925,145.85712809,-74.823378729,-136.5279808,4690.0
9.0799574917,-144.22485443,-70.121015833,-69.62195235,4700.0
6.6973723078,-103.21229679,-65.698314277,-31.086448047,4710.0
6.4344022596,-67.9841246,-62.912739337,3.4034038455,4720.0
8.1245740846,-29.998514332,-59.273730337,44.147236876,4730.0
13.21196614,25.415342927,-52.467674464,109.22159077,4740.0
15.473762401,150.55622795,-52.520564604,-131.67937454,4750.0
9.1153076774,-139.65378893,-62.312754555,-90.78529045,4760.0
6.781874699,-98.502910148,-65.203281252,-84.09427263,4770.0
6.6515799865,-61.519104752,-64.049875903,-81.728965599,4780.0
8.6070523789,-19.447639204,-59.348057811,-57.302691091,4790.0
13.95172647,50.335554747,-53.999170747,29.307014097,4800.0
12.374880993,167.62152605,-53.427974021,168.25427283,4810.0
7.6652919982,-132.1731184,-54.02694217,-150.69765593,4820.0
6.0387126547,-91.348549852,-53.155383195,-126.462454,4830.0
6.3931754347,-52.481732831,-53.353248502,-89.574214297,4840.0
9.1762733613,-3.5263565423,-52.920709055,-55.367184293,4850.0
14.329915833,95.56197634,-48.971127246,13.970471315,4860.0
8.7517219242,-160.31954316,-54.844815153,85.280641521,4870.0
5.2973360397,-106.40331804,-59.142948628,128.55388264,4880.0
4.1289242453,-60.636874675,-62.534098248,149.20429313,4890.0
3.9161826603,-5.2127343087,-62.115413186,173.34562622,4900.0
2.4506054368,76.931889793,-60.475164704,-132.53788139,4910.0
-1.1011098641,162.6787284,-59.353261241,-90.520778176,4920.0
-3.0410048824,-136.36454569,-61.642177308,-40.344122876,4930.0
-3.9825557405,-93.275778522,-70.31092533,36.03476296,4940.0
-5.4616221414,-52.004498487,-71.749847104,-6.09336494,4950.0
-10.27174767,5.5289715103,-64.444063925,29.826413919,4960.0
-14.277615098,171.42842202,-60.681050099,89.803103015,4970.0
-6.2428574524,-102.96520686,-61.841005367,140.41873089,4980.0
-3.9215425607,-39.592272763,-61.818231797,164.22752344,4990.0
-1.8790545339,45.972799037,-61.200356337,-156.04452481,5000.0
1.532436013,154.16889534,-59.775710232,-88.357188648,5010.0
2.3404420832,-127.80816335,-57.521669084,-18.044964657,5020.0
2.6249567873,-75.588627753,-53.842303873,58.51333511,5030.0
3.7528456003,-25.078190773,-54.110157431,97.740693312,5040.0
6.3227287671,44.010644813,-52.565175306,139.20716197,5050.0
7.2651315426,139.79431704,-55.320153815,-146.42838308,5060.0
5.3395383939,-148.41397121,-60.981431744,-90.798669784,5070.0
4.5759239128,-101.76348281,-63.647568205,-62.965995379,5080.0
5.2306660721,-62.42266258,-63.762916633,-37.470052615,5090.0
7.9206548738,-19.38284845,-58.4632616,-15.617984053,5100.0
15.23552318,52.563534181,-48.177434096,36.41355557,5110.0
12.763026056,-172.65796858,-50.840529554,173.42200537,5120.0
7.8004308648,-118.26453017,-57.875726434,-128.4063301,5130.0
6.417500107,-80.118734281,-56.31283633,-77.670503651,5140.0
7.1425004898,-43.054268008,-58.217694446,-12.354952703,5150.0
10.515306247,2.7651233411,-57.352565729,16.366528283,5160.0
16.882787441,97.322614939,-51.776490729,81.946401526,5170.0
11.344685838,-160.86272915,-57.24119,155.03749811,5180.0
7.8348573428,-114.83801057,-60.202978932,-178.46118087,5190.0
6.9682049278,-79.876494452,-60.646851342,-154.47843994,5200.0
8.1011364029,-46.202325155,-59.828616973,-131.77022812,5210.0
12.512945967,-5.8362720587,-54.786765943,-113.47883594,5220.0
23.773242306,113.86413524,-40.398207258,-23.102843806,5230.0
12.076237772,-144.66538873,-45.690550409,95.332414488,5240.0
8.2414995541,-106.72403958,-56.529021352,162.57026274,5250.0
7.3640332421,-75.494080152,-60.239755368,177.13846418,5260.0
8.4606284054,-45.442760114,-58.663548726,-171.70117226,5270.0
