S11m,S11p,S21m,S21p,Frequency
5.5846482524,-59.83103735,-45.52986956,106.70642868,2000.0
5.9302233372,-36.587430174,-51.303497122,64.21757133,2010.0
6.1372054693,-11.837299155,-54.948931354,68.802787317,2020.0
6.1429721783,13.876787105,-44.342102084,11.119255983,2030.0
5.9632698397,39.98965186,-58.272420843,-92.048781313,2040.0
5.6394365784,65.76594645,-67.521522374,-87.483560363,2050.0
5.2613140259,90.772036442,-67.812592899,-71.500074639,2060.0
4.9240199278,114.48632552,-65.990368113,-86.504599768,2070.0
4.7286439757,136.82824178,-64.768911424,-111.04582502,2080.0
4.7269293769,158.27335153,-64.18384718,-156.11089059,2090.0
4.9064668631,179.85154355,-73.612061748,131.46239083,2100.0
5.1457432888,-157.64985285,-69.66714203,-93.553791252,2110.0
5.3165998045,-134.07126275,-67.483326152,-142.39898181,2120.0
5.3711803078,-109.75171563,-56.449517589,-165.75823774,2130.0
5.3122828118,-85.029478326,-59.290827621,71.331180025,2140.0
5.1599456267,-60.238146331,-63.361320074,33.235670864,2150.0
4.9589861748,-35.788354525,-63.897329834,4.4317822325,2160.0
4.7743341903,-11.874949878,-63.11754343,-21.981672375,2170.0
4.6551287169,11.465152315,-60.863813949,-52.110889591,2180.0
4.6231096307,34.258870818,-57.474769981,-96.167193982,2190.0
4.7084657935,56.891340238,-56.532826261,-150.62993482,2200.0
4.8457404135,80.007966625,-57.26598446,161.21776234,2210.0
4.9232026784,103.54129674,-59.212774004,111.29115649,2220.0
4.952203742,127.25293532,-59.776417527,102.68380043,2230.0
4.9229863157,151.17227519,-60.188633172,3.1941213535,2240.0
4.8442463762,175.0734715,-69.798301219,-12.68503128,2250.0
4.7342682862,-161.34439593,-72.422629981,3.8231407437,2260.0
4.6394781148,-138.14124926,-71.624914223,0.506444229,2270.0
4.5822498763,-115.29603634,-69.259895622,-7.4120648547,2280.0
4.5818370468,-92.698465213,-67.917308314,-36.684129418,2290.0
4.6587355881,-70.057253438,-68.590248915,-78.886040161,2300.0
4.7819794825,-47.016339038,-68.543648018,-104.89946742,2310.0
4.8846023058,-23.405079529,-67.435573678,-145.65634249,2320.0
4.9279637606,0.55489117949,-68.949616546,164.52602899,2330.0
4.9273484904,24.687578905,-65.372910527,88.913989585,2340.0
4.8617792027,48.929272389,-76.174557988,51.811161138,2350.0
4.7531827557,72.687586984,-77.49896263,60.485070006,2360.0
4.6854152961,95.986267211,-76.679135712,45.775867763,2370.0
4.6715310217,119.05953405,-78.261112546,33.393698143,2380.0
4.7140912642,142.00545144,-77.05248365,32.091420311,2390.0
4.7932618844,164.98928455,-73.492794032,29.153075396,2400.0
4.9164834647,-171.83468136,-71.148699471,8.7621912937,2410.0
5.0204858668,-148.337726,-67.092520445,-24.011679281,2420.0
5.0800050273,-124.62066554,-63.497915742,-68.477544892,2430.0
5.1114635527,-100.77060331,-60.586328268,-134.18047733,2440.0
5.1080514545,-76.755984714,-64.716158264,147.54305032,2450.0
5.053261955,-52.765666708,-69.831276305,107.14744037,2460.0
4.9842445108,-29.214933963,-74.928353712,87.782473498,2470.0
4.9526644125,-6.0437191935,-75.852701956,67.229693159,2480.0
4.9821208781,16.998665943,-75.231016379,59.822832079,2490.0
5.0503624018,40.004007844,-75.757305171,39.601006832,2500.0
5.1530878159,63.093801726,-74.934844165,16.296776942,2510.0
5.2882072387,86.514655495,-75.188268707,14.948513832,2520.0
5.3853709827,110.24324116,-70.34151337,6.6395037723,2530.0
5.4614238342,134.06254291,-63.884253416,-37.364973362,2540.0
5.5170121709,158.05538811,-65.75501334,-101.01050285,2550.0
5.5318887274,-177.99120044,-68.112810171,-126.81325804,2560.0
5.5346382581,-154.35042505,-67.924657603,-158.37626408,2570.0
5.5726785343,-130.97156325,-71.578528176,177.51708518,2580.0
5.6643089501,-107.64318124,-75.300175794,148.48420951,2590.0
5.8031405849,-84.18279901,-72.037576756,100.41373574,2600.0
5.9734377239,-60.424859665,-71.375023939,85.422988801,2610.0
6.1377056164,-36.306722706,-72.267425426,60.325628341,2620.0
6.2539812671,-11.862076634,-71.073044057,33.979357387,2630.0
6.3092565014,12.510007999,-67.521130298,1.4460302342,2640.0
6.3531360535,36.737018619,-70.103406854,-55.892050258,2650.0
6.3594366926,60.785139433,-75.962553324,-39.764086631,2660.0
6.3424733166,84.227838777,-69.286466927,-31.22777002,2670.0
6.3869066824,107.11032335,-68.251886195,-72.57229093,2680.0
6.5228401482,129.73252443,-69.862548571,-91.286963612,2690.0
6.7506338015,152.38647098,-71.619987885,-99.806410229,2700.0
7.0784631359,175.34908779,-72.428902218,-115.85473338,2710.0
7.4743798007,-160.950246,-69.690905008,-140.60220976,2720.0
7.871811505,-136.35310722,-65.454903837,-158.83749303,2730.0
8.204237328,-111.09484746,-59.838689805,171.06986601,2740.0
8.4427871175,-85.493301802,-51.809598132,86.884157003,2750.0
8.5817468425,-59.939701008,-57.178170813,47.186625225,2760.0
8.6314454016,-35.175368094,-54.531677828,21.901066465,2770.0
8.7552884447,-11.511067584,-55.065276986,-38.653354994,2780.0
9.0255945661,11.820623894,-59.639095022,-69.800511637,2790.0
9.3932634404,35.167728889,-60.741850702,-69.761320653,2800.0
9.8661283605,58.336585005,-65.55238293,-56.495964914,2810.0
10.444269211,82.126484547,-67.619105848,-76.597978189,2820.0
11.02807526,106.53508922,-63.858262199,-87.47486506,2830.0
11.598006397,131.40434684,-59.66148591,-91.418066596,2840.0
12.083998675,156.44574673,-52.053776002,-135.3801276,2850.0
12.479322525,-178.7635271,-55.944234992,135.90494906,2860.0
12.868366351,-155.19749325,-55.809160633,119.90930331,2870.0
13.434134014,-133.41599247,-53.776076742,46.262802063,2880.0
14.37053178,-112.58669557,-61.120413382,-15.245306205,2890.0
15.728343711,-91.601931945,-69.788277342,-15.896891448,2900.0
17.494492607,-70.300549649,-67.561249581,14.332137718,2910.0
19.863771963,-48.108557516,-64.510373951,29.130454807,2920.0
22.894770755,-22.375303022,-64.269192075,23.508683463,2930.0
26.614310422,11.98987424,-56.276463085,35.403489792,2940.0
29.255200305,58.444726462,-48.627179536,61.793723164,2950.0
29.182231265,101.28609597,-45.621410195,36.27040644,2960.0
29.460934835,121.85458906,-46.961183435,28.543492504,2970.0
31.696404106,115.83349651,-41.181095289,-31.675214434,2980.0
31.492656404,74.128876775,-51.584598004,-169.18572114,2990.0
25.410804659,56.636348767,-65.714517661,-120.53311998,3000.0
22.233539026,60.867790064,-66.837690431,-138.06166132,3010.0
19.321244463,72.844265081,-69.821749663,-169.04220306,3020.0
17.290404686,87.163064893,-71.673374561,-175.15225382,3030.0
15.827876484,103.50708533,-67.180526007,-152.86156983,3040.0
14.796233072,121.53680395,-60.274079516,171.95797049,3050.0
14.150975283,141.07699857,-55.353515482,90.500234697,3060.0
13.754927446,162.92954393,-61.293824156,80.340720865,3070.0
13.458555892,-172.87620133,-53.76396737,65.556593569,3080.0
13.029356739,-147.22099427,-50.277960988,-26.96052012,3090.0
12.498122282,-121.56663738,-60.559005348,-71.681519239,3100.0
11.985284467,-96.562927031,-60.39249875,-99.069914578,3110.0
11.458622741,-71.922571062,-64.321993806,-80.620117792,3120.0
10.899829569,-48.451927852,-60.898386112,-81.110806926,3130.0
10.521784521,-25.391237212,-58.396545766,-80.790908522,3140.0
10.277827848,-2.0856603965,-53.71440187,-104.36798945,3150.0
10.146410277,22.13157326,-49.769455238,-166.24525866,3160.0
10.062958476,48.08783226,-54.450201154,129.39724865,3170.0
9.7807965766,75.399777538,-56.377734079,125.85834701,3180.0
9.243480841,102.29943415,-51.748418265,81.166909726,3190.0
8.6228955236,127.77888183,-58.855869764,-8.3010120148,3200.0
8.0365518033,151.57396696,-65.656655216,-28.184323413,3210.0
7.5789476601,173.75583139,-68.951853479,-32.436583558,3220.0
7.1717868153,-164.65634684,-70.723125027,-56.734323937,3230.0
6.90399842,-144.37435817,-67.883046136,-90.11931689,3240.0
6.8192562013,-124.06767065,-62.121197335,-99.229413845,3250.0
6.8710003347,-102.79718288,-52.854372144,-171.15746352,3260.0
7.0784647333,-80.185169846,-56.821958042,113.97086532,3270.0
7.3245515034,-55.728100638,-60.987031238,113.17521789,3280.0
7.4785106068,-29.459640553,-54.83864074,114.04502241,3290.0
7.4600445797,-2.6408811751,-48.46870673,21.37253376,3300.0
7.3214893682,24.036741894,-58.464634596,-20.109358934,3310.0
7.0663028593,50.021018461,-62.571110828,-28.616502407,3320.0
6.7217530301,74.73486644,-63.797367899,-29.979774057,3330.0
6.3402871919,97.946597206,-63.166943433,-31.409886937,3340.0
5.9916012533,119.939766,-59.549178632,-45.529141143,3350.0
5.7843065276,141.34637037,-52.197814123,-92.836053987,3360.0
5.7501230285,163.10375912,-55.232746007,-170.314636,3370.0
5.8551187472,-173.7167287,-59.524926318,179.90524829,3380.0
5.9406713296,-149.31560717,-57.345150988,-169.00858997,3390.0
5.8911412637,-125.09538979,-49.343704396,149.22911138,3400.0
5.8869284058,-101.42262257,-54.546883611,54.82266061,3410.0
5.8310477007,-77.966479994,-59.301596036,45.260709028,3420.0
5.7752623505,-54.957499232,-61.599026343,53.949968669,3430.0
5.7044051259,-32.318060051,-60.90770652,42.748871121,3440.0
5.6135256743,-10.02229075,-55.503542564,35.870625449,3450.0
5.5495140886,12.052159542,-44.16002559,-46.570836841,3460.0
5.6202533318,34.745707894,-55.580438762,-118.55688649,3470.0
5.8319166289,59.047854273,-61.626564714,-112.10465576,3480.0
6.0351062084,85.142088358,-61.368937228,-103.41248092,3490.0
6.0797721531,111.93393242,-56.065773604,-111.22819457,3500.0
5.9536435225,137.89328441,-51.512892729,144.64483723,3510.0
5.7418632101,162.64031234,-61.26231193,102.84405576,3520.0
5.4409225111,-174.15174993,-64.988007729,94.507115336,3530.0
5.1015868721,-152.79253713,-65.134627198,83.927218654,3540.0
4.8599795822,-132.59395331,-62.700755898,56.905611768,3550.0
4.7193279112,-112.89051268,-65.618216382,-64.533544327,3560.0
4.7671736211,-92.923335681,-75.017320748,-89.416474533,3570.0
5.0528336245,-71.522529751,-75.506829335,-101.24548773,3580.0
5.4334500353,-47.912938623,-70.496046593,-101.16296707,3590.0
5.7788153475,-22.516903687,-61.503640962,-99.727719861,3600.0
6.0190732023,3.6389015357,-46.625758611,-179.9300994,3610.0
6.1412164264,30.054909143,-55.736500978,131.8775447,3620.0
6.0759385077,56.125372029,-57.467978575,140.52761865,3630.0
5.7962504146,80.861684601,-55.564500805,153.46388488,3640.0
5.4198792842,103.60693911,-46.323364682,164.4232001,3650.0
5.1485814571,124.87425586,-54.389340008,-63.274984713,3660.0
5.091330479,145.94440065,-61.237093006,-43.251193558,3670.0
5.2259217711,167.9680465,-63.161332685,-43.397909004,3680.0
5.4253616361,-168.29527958,-62.322457164,-52.198375634,3690.0
5.562666186,-143.59933878,-56.66154751,-70.121638583,3700.0
5.6431472259,-118.76855939,-47.927129619,-153.78500087,3710.0
5.677382331,-94.234101334,-54.425739861,149.79368935,3720.0
5.6241199091,-70.340077301,-54.030615955,136.49023496,3730.0
5.489063561,-47.374933376,-35.600036717,86.977053406,3740.0
5.2667882511,-25.899321516,-58.771036935,-47.45408202,3750.0
5.1278068849,-5.6489993709,-68.411882262,-22.795819982,3760.0
5.2004448936,14.48230814,-70.115484856,-10.344105757,3770.0
5.4753284363,35.906284557,-67.569497265,-15.835208491,3780.0
5.8517774151,59.442295608,-60.88863776,-29.184079573,3790.0
6.2142053832,85.040478798,-54.414589586,-122.57020141,3800.0
6.4781892492,112.09549267,-60.14156851,-161.67520987,3810.0
6.6048626921,139.72080627,-59.864948976,-165.14245144,3820.0
6.5459109222,166.84954183,-56.389435824,-154.92411524,3830.0
6.3049934037,-167.69996384,-48.862370792,-73.936983264,3840.0
5.9754424767,-144.32126353,-68.254314299,-6.2051413263,3850.0
5.6114345831,-123.09969569,-78.607647012,49.432850793,3860.0
5.411496995,-103.53117672,-85.948922768,122.45109699,3870.0
5.4199599554,-83.849155899,-79.442663869,174.36720331,3880.0
5.6234592929,-63.243814825,-72.508683648,134.93360037,3890.0
5.9130480417,-41.187082099,-73.258523841,90.822665571,3900.0
6.2530629199,-17.922256494,-78.060767673,74.926894411,3910.0
6.6607785712,6.5158335358,-82.31422543,41.016816531,3920.0
7.0763145868,32.001065259,-77.735361999,-32.261696719,3930.0
7.3803793505,57.923497235,-58.583662466,155.5985355,3940.0
7.4907423033,83.466178272,-68.46787328,113.07738341,3950.0
7.3925149232,108.03797218,-73.526818449,105.81468933,3960.0
7.1698323406,131.10763843,-74.293005408,119.93080271,3970.0
6.9848467478,153.17977127,-78.665246845,104.10522339,3980.0
6.9807096517,175.18894878,-77.001490332,156.59135256,3990.0
7.0836908953,-161.90164541,-76.149603547,136.51419749,4000.0
7.33789462,-138.152747,-79.230994105,128.26241149,4010.0
7.6119298594,-113.45749496,-76.883379475,109.86550432,4020.0
7.9072887762,-88.476336422,-68.017518685,53.79542919,4030.0
8.1597790891,-63.859788294,-53.329237951,-57.92807967,4040.0
8.3547179073,-40.100320182,-59.005248836,-154.30636521,4050.0
8.4501267277,-17.06373655,-64.351862714,170.16981558,4060.0
8.3700061054,4.7555167612,-65.511637674,175.25062278,4070.0
8.3057989862,25.338763806,-64.595536422,150.84246959,4080.0
8.4428604013,45.765690342,-68.517821068,132.38654058,4090.0
8.8002306419,67.301155663,-70.320036729,113.72529831,4100.0
9.3867174697,90.031325401,-68.921653835,105.45524439,4110.0
10.255591807,114.17649382,-66.366649233,103.1035011,4120.0
11.395276096,139.90008663,-61.596064912,92.607718322,4130.0
12.637416745,167.26324736,-54.40641987,16.679933697,4140.0
13.772450795,-163.15556086,-56.362996058,-43.770379996,4150.0
14.349647279,-132.87133443,-56.69987733,-78.852847238,4160.0
13.89728006,-104.39519896,-63.504502022,-58.513631821,4170.0
12.849239051,-81.679861505,-58.745995758,-86.308631092,4180.0
12.026998874,-63.364696548,-60.541744752,-119.98636503,4190.0
11.663146741,-46.929421712,-63.836298778,-126.42523877,4200.0
11.805239999,-31.19834151,-67.685618339,-142.53349282,4210.0
12.488108895,-15.608739901,-64.570295889,-168.38992472,4220.0
13.677616836,-0.73167449233,-59.028285782,169.33834756,4230.0
15.237406294,12.021104746,-55.402943588,104.27883409,4240.0
16.969313669,20.866856581,-58.114178401,29.086082967,4250.0
18.626632483,25.954374896,-56.14626562,-31.444521072,4260.0
20.428521059,30.927006207,-52.164262157,-101.74459528,4270.0
22.71695243,42.925597789,-53.892578744,-162.75332084,4280.0
25.348413328,71.772222438,-54.939636525,-175.05836115,4290.0
25.562614152,113.55015756,-56.360178625,176.00596268,4300.0
23.644778329,148.9756338,-56.769218067,-152.32638629,4310.0
21.37698495,169.16917724,-59.969975069,-145.35519173,4320.0
19.544345948,-175.87496676,-61.182355091,169.90684029,4330.0
17.73819753,-161.46652228,-58.471957716,106.85171547,4340.0
16.004363224,-146.3354491,-63.310076881,68.107235844,4350.0
14.57777826,-129.64157502,-68.088685362,38.404120428,4360.0
13.546810818,-111.76215588,-69.781681478,-45.614598403,4370.0
13.018908008,-92.861977158,-70.281509167,150.39241186,4380.0
12.958619027,-71.37333867,-81.893995288,23.795689797,4390.0
12.815372046,-46.144624473,-81.662782123,-93.249589466,4400.0
12.285383723,-21.873813335,-76.434052187,-102.61708336,4410.0
11.660946437,0.88848612654,-73.209025241,-127.38856228,4420.0
11.109377743,22.655691907,-69.947675391,-156.66191951,4430.0
10.615342412,44.530362534,-69.692374133,131.12370019,4440.0
10.18076264,66.63462846,-69.833391294,79.496340092,4450.0
9.801160791,88.839721651,-73.343514951,72.092214158,4460.0
9.5516551323,111.60368365,-74.222048234,98.344217095,4470.0
9.4507038832,134.48732883,-67.491727639,74.439192074,4480.0
9.5493939752,158.2319356,-70.236092293,-3.9619769308,4490.0
9.7001813494,-175.95116605,-75.148405596,-3.7281353501,4500.0
9.6101780396,-149.2389136,-83.373847972,-25.583684442,4510.0
9.271195868,-122.93297586,-82.655065895,-58.00879745,4520.0
8.7999483195,-97.383235835,-83.157438632,-47.424562085,4530.0
8.2584686921,-72.933882179,-85.835010176,-92.699985738,4540.0
7.6985776007,-49.640371978,-93.290339674,-145.99454147,4550.0
7.2200208071,-27.468161298,-88.559542712,-48.828542972,4560.0
6.8894268084,-6.1768982322,-83.851076384,-51.796071884,4570.0
6.7008776361,14.76003973,-74.791608906,-111.84201378,4580.0
6.6586996332,35.796720618,-69.873957736,-174.67641991,4590.0
6.7601602628,57.22084461,-76.89941743,123.56670439,4600.0
6.9658828194,79.612833394,-73.589846027,157.52700789,4610.0
7.1372995324,103.15952258,-75.593903281,152.67628473,4620.0
7.2480399378,127.33880525,-76.372248603,109.80065339,4630.0
7.3287543468,152.11548729,-66.942533233,87.732701902,4640.0
7.29714538,177.49201266,-70.613958781,62.60052551,4650.0
7.1641748044,-157.14829696,-76.920414412,19.502939227,4660.0
6.9754895252,-132.14188836,-72.5654665,-8.6003956094,4670.0
6.7649130776,-107.72482868,-68.673041971,4.6010686754,4680.0
6.5494562949,-83.779814528,-68.409993626,-43.864356955,4690.0
6.3676817245,-60.401901193,-77.879730326,-126.91988419,4700.0
6.2533222868,-37.50043878,-77.998290054,-74.735619152,4710.0
6.169766415,-14.576763647,-83.350808864,-108.9454816,4720.0
6.1017759936,8.3104274213,-77.504690427,-109.37081298,4730.0
6.0285352567,31.271357824,-85.149392185,173.78550241,4740.0
5.9245394449,53.81270483,-75.913139288,116.33562427,4750.0
5.8552113807,76.259828714,-79.132766751,115.41379487,4760.0
5.8072825014,98.649288528,-94.072587239,-106.19324956,4770.0
5.8107310606,121.18358073,-90.246496262,-153.32209379,4780.0
5.8524238494,143.82400401,-82.723541973,-3.2104051055,4790.0
5.9612406118,166.62919114,-75.80235045,15.728756882,4800.0
6.1212849549,-169.77528708,-91.173460321,131.27563936,4810.0
6.2447458554,-145.41800022,-77.253493538,-50.770090245,4820.0
6.2974838877,-120.59253235,-78.746841754,-26.597809089,4830.0
6.2658963819,-95.64681685,-81.554809556,-79.333545036,4840.0
6.1340705727,-70.97262101,-86.883061883,-136.7301071,4850.0
5.9308682285,-46.745356242,-86.353259399,149.35252837,4860.0
5.6911479351,-23.257630494,-86.402127883,160.0708101,4870.0
5.454301978,-0.68982878473,-86.38427249,129.23316302,4880.0
5.2953864636,20.745171676,-75.896610835,82.140152161,4890.0
5.3342548986,42.128817414,-71.972383892,157.76562557,4900.0
5.4933078779,63.783591781,-72.996615565,-45.460280821,4910.0
5.6598467488,86.681874334,-70.365929374,48.404301162,4920.0
5.8729193412,110.10911293,-92.502009442,136.87154835,4930.0
6.0429744866,134.14253473,-72.732532766,-64.933371323,4940.0
6.1169238157,158.71849576,-73.209284372,-78.633121194,4950.0
6.0745598249,-176.4195195,-79.319848317,-126.72352122,4960.0
5.901086598,-151.6844325,-74.349952897,160.32687961,4970.0
5.6154832368,-127.93399082,-67.658594625,-173.67248303,4980.0
5.3861376751,-105.52090476,-71.616494952,-132.84330294,4990.0
5.3879885067,-83.496384195,-69.8408013,68.176850485,5000.0
5.5403804851,-60.764601986,-71.884157927,81.71095844,5010.0
5.6790259056,-37.193813657,-76.596026568,36.597379586,5020.0
5.774743775,-13.500973714,-68.417952279,71.990231873,5030.0
5.7584045323,10.131868672,-75.069731806,85.831812066,5040.0
5.6490345216,33.577706666,-67.766331232,-32.357440864,5050.0
5.5052498771,56.695645805,-67.244984941,-28.047241759,5060.0
5.266510915,79.441464928,-73.455701627,-31.330284654,5070.0
5.0360488698,100.80546856,-73.537079349,163.56071382,5080.0
5.0093218551,121.47756654,-64.203589318,-164.36556114,5090.0
5.2821857863,142.78155026,-62.973774356,-118.16107635,5100.0
5.720342302,165.71443726,-76.714170674,-15.719833616,5110.0
6.1422789395,-169.90784615,-72.386651441,110.92687492,5120.0
6.4673874157,-144.61951084,-71.680376272,-172.11625944,5130.0
6.6246077877,-118.70960976,-72.402031668,168.51645917,5140.0
6.4896650327,-92.561898779,-67.231170872,88.259369583,5150.0
6.0219392315,-67.237385626,-67.158589013,51.797293236,5160.0
5.3054363161,-43.941001049,-67.534367696,75.578047558,5170.0
4.6616095776,-23.685242655,-79.12964064,48.979890264,5180.0
4.5451870354,-4.8624695391,-69.970999239,97.840861408,5190.0
4.8859584098,15.706091502,-65.845508016,-125.80740293,5200.0
5.3783674086,38.273420126,-62.614607873,-40.952659416,5210.0
5.9139603144,62.323857934,-65.999929354,20.996306419,5220.0
6.4137204809,86.800779838,-73.468440717,115.89474532,5230.0
6.7791287679,111.90056839,-67.235774127,-63.629547308,5240.0
6.8533283799,137.60157551,-57.506683243,-64.15858201,5250.0
6.5192785069,163.46800027,-63.091405529,-154.89054372,5260.0
5.6307358054,-172.71799736,-61.900554911,174.11568022,5270.0
4.7216768678,-153.74917962,-61.87723224,-174.17028423,5280.0
