S11m,S11p,S21m,S21p,Frequency
8.2188177856,162.2298665,-61.760868662,-132.0898114,2000.0
7.4902756303,-167.10660542,-63.982778016,-122.22867742,2010.0
8.9524931073,-135.51455191,-62.068456408,-100.99426708,2020.0
14.781152294,-97.302618198,-54.571256901,-100.0626703,2030.0
22.535649834,90.34042508,-44.851880651,23.658675994,2040.0
10.798607779,140.81007246,-53.972041438,9.2575744098,2050.0
7.925337704,174.43306822,-54.452886032,-1.1281423348,2060.0
7.7467777322,-154.29432074,-53.032150597,-1.537952574,2070.0
10.113368459,-121.18022861,-50.042869155,4.9631832894,2080.0
18.850116601,-76.590553441,-41.483105197,19.782483285,2090.0
17.42644073,108.2305106,-44.735286193,165.31789097,2100.0
9.9777038553,149.08015489,-54.987458934,160.21969566,2110.0
7.8419604179,-179.88808319,-60.380813508,144.1847782,2120.0
8.088917667,-150.53475356,-64.003469359,127.29298303,2130.0
11.158412252,-120.02437023,-67.560624926,89.672192578,2140.0
24.436444816,-98.31370435,-51.408201195,11.539991209,2150.0
14.822584521,138.87316388,-58.162414929,-161.30613572,2160.0
9.3274961791,168.40827383,-63.780052705,-138.32769019,2170.0
8.033030086,-162.99340451,-60.939221167,-68.983592513,2180.0
9.1551594634,-134.23210859,-53.161446291,-30.582068493,2190.0
14.016089199,-103.55451287,-45.6420571,-13.231526923,2200.0
32.042651106,129.57226026,-27.159400609,-163.85563193,2210.0
12.483578252,147.13846852,-47.501899497,-179.46995967,2220.0
8.7267998511,176.74547174,-52.304546988,177.86494896,2230.0
8.1399598539,-154.48797335,-53.413751746,174.82064094,2240.0
10.195322659,-124.57012574,-51.433669004,178.00616595,2250.0
18.631002265,-94.752438606,-42.169725851,-172.94356011,2260.0
17.456821409,132.51274154,-41.733554074,33.910365883,2270.0
9.5672713882,162.11144833,-49.862061462,49.271965472,2280.0
7.3782168405,-168.92927982,-55.025410044,70.323589274,2290.0
7.5146612088,-139.7796442,-60.318118644,78.052981427,2300.0
10.174389239,-107.14044209,-63.521244337,21.53316831,2310.0
20.93627632,-57.468212658,-46.483409248,-3.8921475143,2320.0
14.625022794,127.87162087,-50.092827055,134.79990209,2330.0
8.4608029916,166.28336248,-56.03748489,122.89372864,2340.0
6.79078784,-162.05303212,-58.046034877,97.751440788,2350.0
7.2751669828,-130.39398461,-57.081745307,72.544787334,2360.0
10.659004101,-92.16901404,-54.253032327,55.841660524,2370.0
22.302538657,3.737051139,-46.655838036,88.074954298,2380.0
11.506856399,131.40638982,-62.643663794,122.46786986,2390.0
7.189910079,171.06188563,-65.329825135,110.73605966,2400.0
5.988280426,-157.17938813,-65.261945503,147.76662146,2410.0
6.6136320727,-125.71656679,-62.070636935,-172.11978347,2420.0
10.016653785,-87.448130343,-56.478204785,-143.03169118,2430.0
21.474364932,5.0536067723,-44.99564244,-71.598772434,2440.0
11.530099761,136.3318254,-56.323294544,42.281322561,2450.0
7.2403233732,177.21782474,-62.892087533,79.169704446,2460.0
6.1310990377,-150.26724788,-63.815471509,108.70492953,2470.0
6.9875189311,-117.73678776,-61.97265691,112.42594714,2480.0
11.075492317,-76.503238013,-57.742783089,103.98772264,2490.0
20.967151449,42.5617432,-49.671365153,169.6448817,2500.0
10.683589272,143.67038971,-62.126360925,-152.36858159,2510.0
7.072580747,-177.04203737,-63.878724975,173.87527266,2520.0
6.3146284873,-145.37090349,-61.277784197,153.39583581,2530.0
7.679082927,-113.30824692,-57.79523476,152.76933958,2540.0
13.267839814,-73.462202561,-50.999464759,169.82548165,2550.0
21.614115605,103.92495134,-41.67307687,-39.240953966,2560.0
9.9215258553,162.6861271,-54.086878702,-4.7850082701,2570.0
6.9584322513,-163.23167048,-58.048871699,19.256371444,2580.0
6.7069751123,-132.56336097,-58.109158058,56.525216999,2590.0
8.9001486075,-99.336347556,-57.196911872,98.094372176,2600.0
17.32871761,-52.110715168,-51.883204428,141.13531365,2610.0
15.986141478,133.20415046,-56.140077751,-28.856826069,2620.0
8.6847200989,176.34503775,-61.478299654,8.2036259706,2630.0
6.7786268022,-151.3012611,-61.546643613,19.526605255,2640.0
7.2481903008,-120.3580431,-60.283500037,20.862320898,2650.0
10.835590202,-84.063762445,-55.919643777,27.624899457,2660.0
25.792389213,10.91182377,-41.028285673,87.860576141,2670.0
11.468581583,151.75281492,-61.774706167,-153.37807183,2680.0
7.0611730407,-170.45012815,-66.310790683,6.6075055393,2690.0
6.0244714875,-139.00618479,-59.828903561,35.519448185,2700.0
7.0579487045,-106.1539458,-55.8203039,53.664975818,2710.0
11.51591463,-62.613537075,-50.606023594,84.479986113,2720.0
19.809763292,76.20490577,-43.768533979,-152.62962904,2730.0
9.420954796,159.72509893,-56.797806961,-87.964221288,2740.0
6.2482989974,-162.30827295,-62.296610042,-71.034424971,2750.0
5.6607992392,-130.1580015,-64.1817043,-58.839904656,2760.0
6.9169100709,-94.590154846,-61.182460971,-41.580770772,2770.0
11.58988032,-40.974594787,-54.18606157,-23.521325023,2780.0
14.309676536,91.75702072,-51.943187827,57.437089286,2790.0
7.5394126993,163.24157103,-64.288551865,40.301681319,2800.0
5.2612751701,-157.4928299,-57.238460077,-16.137767784,2810.0
5.0213588257,-123.33280786,-52.770362416,-7.0977870727,2820.0
6.6194229968,-84.164946382,-50.335938553,1.2721540085,2830.0
11.989728324,-17.953759029,-44.581651729,27.465811296,2840.0
10.998756561,113.65742983,-46.055914277,118.48733404,2850.0
5.7337789333,174.6140096,-52.586118918,151.55638225,2860.0
3.8395254523,-146.75439557,-54.500101966,172.96326733,2870.0
3.2990802458,-110.16933565,-53.957219721,-164.84395756,2880.0
3.7609832515,-62.879110616,-50.788944866,-129.9478741,2890.0
4.9571414225,15.496573118,-45.649431935,-64.715404723,2900.0
3.6581645713,111.95009183,-46.716564081,17.707102764,2910.0
1.9607385864,174.72614647,-52.344049138,64.947400109,2920.0
1.1844001218,-142.6742748,-57.703763505,78.195085128,2930.0
0.61084542074,-102.52541556,-61.443275838,62.264528292,2940.0
-0.59436642418,-48.214996073,-58.277463505,43.423003465,2950.0
-4.1098508433,40.379196789,-54.60620997,61.063152886,2960.0
-6.1213688691,137.12588013,-54.673928436,78.855994704,2970.0
-6.5301886434,-169.08746079,-54.781845019,86.559344333,2980.0
-7.7400400015,-144.93452406,-53.102602311,95.120323847,2990.0
-7.7527885854,-137.28609735,-51.33902313,115.16021631,3000.0
-6.8017484169,-120.99569442,-50.793218961,147.06288116,3010.0
-7.3934968957,-94.06378122,-51.346839165,177.05739155,3020.0
-10.647223797,-56.143984284,-52.345943701,-149.49651213,3030.0
-15.615857617,32.413177225,-54.674531399,-113.20096183,3040.0
-7.8258068151,126.81469181,-58.475033032,-81.874541414,3050.0
-2.6809724386,177.20933212,-61.130514202,-64.124085437,3060.0
-0.55486734618,-142.10184866,-61.396526465,-64.810099833,3070.0
0.52213222786,-103.23626658,-58.49608847,-65.07877735,3080.0
1.8411094478,-53.200976465,-52.284350731,-58.112853154,3090.0
4.488193124,32.041370919,-45.645419941,-24.739640338,3100.0
4.3797045863,135.53491063,-45.411541377,25.964478387,3110.0
3.0583098902,-164.44864364,-47.688074184,48.190043277,3120.0
2.7647383049,-124.58785561,-49.321584831,64.384959722,3130.0
3.4912166895,-86.476037113,-50.057434685,76.03180519,3140.0
6.2257594816,-35.505744215,-48.393974621,89.430415449,3150.0
11.128587827,62.354469247,-44.263495766,139.62527276,3160.0
7.7232680658,161.47698861,-48.8772668,-163.14351352,3170.0
5.3591410194,-149.93098094,-53.022966876,-136.15340673,3180.0
5.0650559753,-113.90367315,-55.365090342,-118.31619167,3190.0
6.6587081352,-76.210898415,-54.795128234,-109.12360668,3200.0
12.43823403,-19.292067657,-50.645621044,-87.163640469,3210.0
14.215379888,125.10960759,-53.604006242,29.069178211,3220.0
7.6311242035,-171.76264851,-72.9329004,91.038002559,3230.0
5.6731575978,-135.15025646,-74.719732666,-123.26835989,3240.0
5.752973091,-103.4820481,-69.380177809,-95.041679541,3250.0
8.008955369,-68.815591504,-62.880533717,-61.843807835,3260.0
15.98480656,-16.435215283,-52.770174556,-12.406267241,3270.0
15.335772371,153.81112383,-54.074232829,133.10426608,3280.0
8.4810698806,-157.96347569,-61.807027841,158.40284017,3290.0
6.6893675871,-124.88389728,-61.782519184,171.40154592,3300.0
7.2372630005,-94.221302092,-60.859356485,-172.37702267,3310.0
10.731846497,-60.087436284,-60.84954118,-145.38180828,3320.0
26.051963348,2.2222998497,-50.981474667,-41.128382262,3330.0
13.256514108,178.71954478,-59.295709788,145.11029623,3340.0
8.3155132761,-146.54671806,-62.437532401,179.27117685,3350.0
7.1272102248,-117.57125958,-63.532041831,-153.2178775,3360.0
8.1512378108,-89.734365126,-63.731161469,-136.82373975,3370.0
12.570731961,-61.721112455,-59.128158261,-123.5697105,3380.0
29.416445133,-119.30760054,-41.412096783,163.76726592,3390.0
12.600353412,-157.74877625,-57.936796021,124.90548462,3400.0
8.7972211356,-131.37917673,-63.411363239,169.90979632,3410.0
8.3235176066,-105.470926,-65.013687353,-155.17597358,3420.0
10.309358481,-80.272412511,-61.124361506,-132.98833268,3430.0
17.019787441,-64.065997166,-53.492775844,-128.92071462,3440.0
19.167665394,-153.18253961,-53.848950819,130.81232079,3450.0
11.168614139,-144.59720505,-66.391373323,123.17278762,3460.0
8.7557070916,-121.22853953,-73.446523743,137.10675731,3470.0
8.9775691382,-97.181373911,-78.236402832,172.60636451,3480.0
11.924544461,-75.458275018,-70.343341346,-120.67971289,3490.0
19.843618981,-86.16877777,-56.993408561,-119.7280885,3500.0
14.81664685,-143.8248829,-60.559536362,173.97120945,3510.0
10.122571957,-128.96663746,-64.290300954,169.74144638,3520.0
9.0065821993,-106.52018323,-63.841724034,178.87757138,3530.0
10.185916917,-83.750156111,-64.915557606,-166.38823971,3540.0
14.759488301,-66.230904078,-63.502526708,-156.71607403,3550.0
22.060204505,-123.30112254,-56.074499614,136.85972961,3560.0
12.833833345,-143.92639639,-64.656509058,102.03176226,3570.0
9.4074338382,-123.39322583,-68.282304976,108.92913018,3580.0
8.917821317,-99.52431798,-70.67911498,142.20468528,3590.0
10.839444963,-76.843207645,-72.332887338,174.96718377,3600.0
17.041798484,-68.470038827,-61.703188478,-147.92293404,3610.0
17.71161035,-136.51589216,-52.470882828,163.67198731,3620.0
11.3342127,-132.39530474,-61.90269606,179.46483124,3630.0
9.1954784971,-111.36829684,-69.874886233,148.61714534,3640.0
9.377415623,-88.581888417,-73.910170579,123.51933837,3650.0
12.127846591,-67.37264335,-72.182320097,106.24496457,3660.0
20.302651943,-71.174275955,-64.355542588,115.53474076,3670.0
15.966062929,-141.91070783,-67.254020258,53.667264759,3680.0
10.577257706,-126.58002158,-70.737943356,70.173972092,3690.0
9.1816457897,-102.46754099,-68.997504171,71.114363418,3700.0
10.353262721,-78.954871874,-61.764584892,102.12905214,3710.0
15.227830208,-64.012118757,-55.818136829,-176.16349622,3720.0
19.991510471,-123.60026531,-55.513601804,134.23162869,3730.0
12.202527015,-133.1583498,-64.35675347,96.658077285,3740.0
9.2968472275,-112.15518283,-69.496954496,75.986048126,3750.0
8.957950765,-88.167056047,-74.095897804,47.925193069,3760.0
11.10758564,-63.765667037,-73.150080779,7.2124839617,3770.0
18.93833847,-49.732993405,-64.543065072,-3.7033382171,3780.0
17.699159616,-146.9690849,-63.175722659,-132.72625738,3790.0
10.642804215,-128.46351564,-66.629049613,-118.65770397,3800.0
8.665055957,-101.59847746,-65.362722246,-83.305899692,3810.0
9.3818079462,-74.256432404,-67.07049078,-85.644933613,3820.0
13.89719207,-46.825038069,-61.214719459,-95.722222229,3830.0
29.381229783,-132.82443862,-42.792698454,139.9707842,3840.0
12.376242371,-146.97368817,-60.635317835,97.632920576,3850.0
8.4147758996,-118.52218511,-69.069842925,105.44351483,3860.0
7.4733422979,-90.249742703,-73.735711793,132.53891318,3870.0
8.7541559595,-60.215562809,-71.435365203,-178.47836799,3880.0
14.285125834,-23.894846207,-60.450425385,-124.72420106,3890.0
23.302927586,161.79051204,-49.20164287,87.694649544,3900.0
10.76030476,-143.81008535,-67.922630433,152.04387039,3910.0
7.7122669108,-109.50060337,-72.019139898,-154.71269821,3920.0
7.5205011135,-77.793228617,-70.944249894,-105.51781888,3930.0
9.9350141145,-42.703583257,-66.681594835,-64.652156578,3940.0
18.745916045,14.772675918,-56.985363894,-37.303976925,3950.0
14.924198329,177.48530262,-60.809648209,81.991974154,3960.0
8.5570899717,-136.02657163,-67.899057294,93.736268425,3970.0
6.6598089992,-102.00712847,-67.66345357,119.98073521,3980.0
6.9550397458,-69.470588257,-65.593229276,177.93331684,3990.0
9.925468181,-30.716961913,-62.836260183,-125.9540264,4000.0
19.554381115,46.564594382,-52.800053145,-45.93399714,4010.0
12.716488175,-170.15246458,-59.236495821,105.92038169,4020.0
7.8206000271,-124.6414935,-66.789799602,162.05877552,4030.0
6.5954776264,-89.692727134,-70.046624674,-172.73200776,4040.0
7.4969642483,-54.633400081,-69.434185357,-158.9352314,4050.0
11.423906968,-8.6657918415,-65.35136088,-130.29051338,4060.0
18.178454304,103.59062261,-59.816350811,-33.334470122,4070.0
10.418217638,-161.00803391,-67.275834926,68.069396416,4080.0
7.0895183746,-118.0337296,-73.340630933,88.985888405,4090.0
6.5723568288,-82.790857134,-72.730324373,103.27108792,4100.0
8.2149473531,-45.52235163,-65.628209337,142.29761428,4110.0
14.244377635,7.3293980844,-61.056639176,-150.94229939,4120.0
16.549763691,159.57384113,-64.172819226,-10.88067664,4130.0
8.9522468131,-138.16700228,-76.959355851,52.90646307,4140.0
6.7226175071,-100.02111227,-74.116918137,117.35400094,4150.0
6.8720178665,-64.894536862,-67.73470458,140.56026713,4160.0
9.3953749275,-23.790156162,-62.140210628,151.04988941,4170.0
16.723593961,50.792092191,-54.502805903,176.63128395,4180.0
12.732079031,-178.53040073,-59.199052616,-110.91727542,4190.0
7.9406173086,-127.36645319,-61.46514497,-103.02579342,4200.0
6.6869924031,-90.080710695,-55.521916865,-39.449638791,4210.0
7.558247339,-54.129747323,-61.669721893,26.152556987,4220.0
11.661322654,-9.0162252626,-61.0022145,48.952686035,4230.0
19.82851811,111.22210007,-54.03364229,146.81638873,4240.0
10.621822703,-152.74349885,-68.875393695,-160.82514776,4250.0
7.2577209826,-110.93928889,-77.658186516,-178.54440941,4260.0
6.7111847611,-75.584226367,-78.832139629,119.87128051,4270.0
8.2899830166,-38.468650108,-73.7623769,65.981352867,4280.0
13.969821218,14.064842491,-62.470871468,50.533781581,4290.0
16.781713906,155.9947319,-49.203014239,145.02635505,4300.0
9.4815978817,-137.60886533,-49.302662723,-102.52569268,4310.0
7.1909940494,-98.091548484,-56.928012565,-44.660066,4320.0
7.3557053562,-62.556115082,-61.028843498,-0.39175532665,4330.0
10.109367331,-21.568129209,-63.254100167,29.373353152,4340.0
18.253070342,56.204894294,-59.169565076,80.627883366,4350.0
12.981920241,-172.29953643,-66.485738914,-166.97991,4360.0
8.19670762,-123.13613884,-68.736352015,-127.39134762,4370.0
6.9001670911,-86.608284087,-64.471958588,-114.31948571,4380.0
7.7683600315,-51.196402846,-58.634711229,-107.89490767,4390.0
11.8773087,-7.9507032007,-50.988010941,-90.678208931,4400.0
21.281660617,106.98699192,-36.983909377,-9.1232246095,4410.0
11.654808442,-149.58102157,-31.518086462,-109.74491111,4420.0
8.055636217,-107.97374988,-56.853544861,-113.62677597,4430.0
7.5309447364,-72.971984248,-63.969598361,-108.75719774,4440.0
9.3823367384,-36.363498163,-65.47610231,-100.66349213,4450.0
16.106483784,16.231661972,-60.054965745,-68.6053572,4460.0
17.264979323,171.6001613,-58.605151471,94.650715106,4470.0
9.7782728195,-131.05297711,-62.425324446,156.15640604,4480.0
7.6001052716,-93.749140818,-62.234230213,173.16779341,4490.0
7.9589269728,-59.449705131,-59.295885663,174.12648918,4500.0
11.261932249,-20.379790018,-50.991108744,178.82720308,4510.0
22.751958216,59.782452715,-20.189907142,-68.677540498,4520.0
13.582673776,-154.68571621,-49.546362798,132.94764472,4530.0
8.7697332413,-112.20109076,-60.01782416,149.81451475,4540.0
7.6591468345,-77.285609609,-63.956871485,168.46381774,4550.0
8.9385497545,-41.748953607,-64.35816661,-161.4759047,4560.0
14.058224694,5.7032488955,-60.92449567,-122.47875066,4570.0
19.700544329,145.54504208,-56.495680103,-9.8475144725,4580.0
10.694357907,-139.97359136,-66.542820791,28.811495044,4590.0
7.7772841355,-100.4707488,-69.936730572,33.300206324,4600.0
7.6090312434,-65.351683508,-68.907942141,48.732718007,4610.0
9.858752096,-27.15577593,-65.197691701,96.447294689,4620.0
17.272167257,33.708728991,-57.530119646,166.30793384,4630.0
15.387236975,-179.63085765,-64.81704051,-50.305942976,4640.0
9.1030762014,-126.3525,-78.831164673,28.435609199,4650.0
7.1518491734,-89.094863466,-95.267720608,35.949360361,4660.0
7.4880280121,-53.521833471,-85.684517419,-128.43219497,4670.0
10.287031012,-10.659460985,-78.728729722,-99.216770125,4680.0
17.193316795,72.349682408,-66.904163996,-44.180033386,4690.0
12.207271527,-169.97670941,-66.013051019,70.916984965,4700.0
7.8582183583,-120.39908558,-65.711910262,121.41824432,4710.0
6.6010841544,-82.940476225,-67.022108546,169.55836522,4720.0
7.3258285071,-46.482519166,-65.001715431,-150.53077718,4730.0
10.692356943,-0.85000566452,-60.177735808,-87.785460873,4740.0
17.054907726,95.538754553,-55.228079714,10.148629193,4750.0
10.952374743,-161.06142965,-66.086495309,86.812814625,4760.0
7.1993553437,-113.86541134,-70.36171748,101.71606684,4770.0
6.2311484961,-76.04456638,-67.850698595,103.5321783,4780.0
7.1006124071,-37.307526482,-62.919860447,127.09457461,4790.0
10.552447803,14.658222071,-56.987850162,178.28958237,4800.0
14.17036802,118.49886935,-52.936039242,-91.10613703,4810.0
9.069132991,-155.63975703,-58.026615245,-23.628838963,4820.0
6.2962671669,-108.49181993,-60.013259638,17.562383149,4830.0
5.7598008711,-69.654903648,-62.671669764,62.068886222,4840.0
7.021300106,-27.227762194,-65.259711453,95.961020447,4850.0
10.997521845,37.145626144,-63.740545144,111.83920199,4860.0
11.155240859,152.81106988,-61.293347108,162.01175621,4870.0
6.2962714937,-135.88050055,-62.244032111,-143.53683494,4880.0
4.1794685549,-88.477956953,-62.822060014,-106.34234843,4890.0
3.482958119,-43.444930921,-61.9404391,-88.548448521,4900.0
3.2042364722,14.463142846,-58.901281326,-57.672082003,4910.0
1.5070636681,94.051148224,-54.354384447,-12.206172508,4920.0
-0.92213694326,172.43131652,-50.521200412,50.88859767,4930.0
-1.9965768298,-129.38816915,-53.510089049,126.03129675,4940.0
-2.7139599992,-82.868550243,-55.73916983,168.07872814,4950.0
-4.5799298765,-33.605321021,-54.332139652,-152.63986679,4960.0
-11.22565556,46.719932443,-52.4461595,-99.158657413,4970.0
-9.5084441894,-146.49345963,-53.676909591,-50.804878155,4980.0
-4.5533444049,-72.338639911,-55.281067554,-16.676111542,4990.0
-2.3484441686,-1.7507427772,-53.38087089,11.486115395,5000.0
1.1251627312,95.549422611,-48.362518598,51.988718772,5010.0
3.0563530026,-166.63379064,-42.483491802,112.0063117,5020.0
3.0114795601,-104.14189477,-40.269342951,-120.07623296,5030.0
3.4736495458,-56.645398455,-46.955208622,-75.894289793,5040.0
5.2096383894,-5.0360158168,-47.683038028,-35.356149172,5050.0
8.4548325314,69.869253964,-47.656875861,22.545579319,5060.0
8.4489618023,164.60913398,-51.275196047,90.560450969,5070.0
6.4438550458,-132.63736234,-55.458802819,127.36665133,5080.0
5.9677898695,-89.669287021,-56.780919269,144.49945054,5090.0
7.2333184173,-52.014001112,-53.059519542,160.96418897,5100.0
11.684056892,-10.92249275,-44.567436304,-170.31625643,5110.0
26.123619422,105.98377763,-29.777843498,-46.755066573,5120.0
12.451242983,-137.67156605,-44.169357725,60.993061532,5130.0
8.5783439062,-99.233861067,-40.473663948,138.59135153,5140.0
8.0449317004,-65.911747401,-50.394691908,-134.42478159,5150.0
10.003423538,-31.792333656,-51.430722122,-140.60874207,5160.0
16.884265047,11.009575619,-45.366192029,-142.74439639,5170.0
20.71889993,-175.05849929,-41.548891632,-6.969642879,5180.0
11.559677909,-125.1617705,-50.396793959,14.368630334,5190.0
9.0227050923,-92.171804263,-53.027113368,29.378593726,5200.0
9.1304707419,-62.314610331,-53.33087376,39.804384558,5210.0
12.064613894,-32.201271769,-50.188207448,41.009544164,5220.0
23.213765848,-4.1765826713,-34.601768907,23.515832764,5230.0
17.158351637,-141.35277289,-31.994808212,99.171612037,5240.0
10.645038962,-112.0916143,-49.317785245,39.340130272,5250.0
8.7770015746,-84.058384147,-54.630546999,22.692815694,5260.0
9.1052060689,-57.457551032,-55.33516218,20.400718848,5270.0
