S11m,S11p,S21m,S21p,Frequency
7.557014194,-143.67291173,-64.125011684,-158.29034593,2000.0
11.181910069,-103.88908098,-62.250646344,-132.62938491,2010.0
22.917533182,-4.8702946034,-51.718034153,-1.0341653336,2020.0
12.38537833,121.93130016,-60.094771976,142.79903438,2030.0
8.2885743047,163.45362328,-64.296576301,179.87394699,2040.0
7.6340270437,-162.19082996,-67.924956791,-147.84503292,2050.0
9.7217556998,-127.11342359,-70.329855947,-71.51482304,2060.0
18.478782873,-81.538134587,-56.309374749,-3.146461684,2070.0
16.764613693,111.06256326,-55.523570391,175.74030045,2080.0
9.4926946719,152.68201254,-63.453177762,-163.5523984,2090.0
7.5128686847,-174.63386384,-66.064351741,-154.73491542,2100.0
7.9686531359,-142.91485059,-66.29805838,-143.10734162,2110.0
11.674878613,-105.93557,-63.627502119,-101.06811434,2120.0
27.692022459,-5.7233044901,-45.670267426,35.234489627,2130.0
12.426232088,131.54871619,-55.477103808,174.94609782,2140.0
8.1642097897,169.5257274,-57.695615602,-165.60625026,2150.0
7.3727741316,-157.72444338,-58.218551996,-153.7564238,2160.0
9.1826204213,-123.53791915,-56.765088765,-155.3375388,2170.0
16.399103116,-77.216921664,-49.319988705,-163.32316965,2180.0
17.711315482,100.90424985,-47.56964604,-38.392568583,2190.0
9.3736703891,149.62721566,-57.061547311,-21.376197058,2200.0
6.9706955783,-176.83910066,-62.411333766,-1.2488332871,2210.0
6.9432211721,-145.35300672,-64.87036114,14.958463003,2220.0
9.3870431121,-109.87796091,-62.268916525,25.940183345,2230.0
18.453062277,-54.113866885,-51.450512637,62.836776346,2240.0
15.194647218,117.06675599,-53.430813705,-142.99410075,2250.0
8.870546125,161.45031007,-58.582588987,-110.27039083,2260.0
7.2728932905,-165.77508182,-59.502553173,-84.431878786,2270.0
7.9975013934,-134.19549826,-58.328393261,-64.075242239,2280.0
11.945169369,-98.524420599,-53.600848324,-43.623878869,2290.0
30.840146621,1.7445272094,-34.15578704,46.943822863,2300.0
12.617118071,139.97300297,-57.197839005,-152.40749775,2310.0
8.4089758911,174.81850167,-70.016226675,-78.640150109,2320.0
7.6495304314,-154.91734099,-72.766576804,-67.858958031,2330.0
9.3885586413,-125.48206973,-65.13339654,-123.38658347,2340.0
16.113554439,-100.73819313,-52.943988507,-134.97092373,2350.0
19.844271637,156.07246847,-48.034719946,81.888884169,2360.0
10.963732861,171.94404445,-56.28637985,49.834226527,2370.0
8.8354764536,-160.5935699,-56.524510956,36.317393181,2380.0
9.5634642782,-132.99244269,-53.447521438,35.027155345,2390.0
14.236963411,-107.76965063,-46.088627914,35.838100794,2400.0
24.729752885,171.75132134,-33.958261034,-55.335839229,2410.0
11.984833541,163.72022217,-50.090094371,-57.486982354,2420.0
8.6336735246,-168.99920744,-62.380884424,-36.982984605,2430.0
8.3914123574,-140.63380777,-79.833876303,100.04210474,2440.0
11.197507036,-111.00407098,-61.883209039,148.15577689,2450.0
24.362189462,-93.078118722,-48.072963886,153.36643263,2460.0
14.102200963,149.18877922,-58.039731216,27.234008966,2470.0
8.593189329,179.31523346,-64.153098039,42.956610541,2480.0
7.1416368951,-151.21344101,-64.372281338,57.454902328,2490.0
8.0048585488,-120.95686333,-62.19843885,64.152168314,2500.0
12.518053115,-84.667131728,-55.670535104,73.117273242,2510.0
27.692867795,71.302413132,-39.655141057,-149.10904427,2520.0
11.235069445,153.58102477,-60.676180078,-52.622272183,2530.0
7.6038460786,-171.86729846,-76.073253044,101.13519955,2540.0
7.0187423794,-141.34916428,-63.253584999,147.45148762,2550.0
8.8674736696,-109.87166389,-57.211839492,153.63062523,2560.0
16.330684419,-71.084794718,-50.118719279,160.32936811,2570.0
18.208113566,131.6976859,-52.100509256,-18.912268104,2580.0
9.4287105139,171.62807293,-65.588719061,23.013127453,2590.0
7.2137079895,-157.31461942,-73.197220367,61.946934446,2600.0
7.5321938886,-128.12532855,-77.26810997,79.974464589,2610.0
10.858655361,-97.043609068,-68.583707767,86.602117257,2620.0
26.330163619,-77.134218614,-55.11538597,103.13931451,2630.0
13.502169443,161.99634967,-71.263633413,47.333980503,2640.0
8.6284524872,-167.72834325,-67.565637271,91.727390807,2650.0
7.7299307282,-139.04168672,-64.536855193,102.90051221,2660.0
9.5898068951,-109.49990948,-61.799988513,116.90563176,2670.0
17.616186739,-80.397833364,-54.199956471,152.75362889,2680.0
16.949342514,154.500333,-53.907419721,30.983118627,2690.0
9.167756665,-176.52621411,-61.673633343,88.170248772,2700.0
7.2285464304,-146.86344734,-65.802563967,129.17134055,2710.0
7.9217450254,-116.45005398,-68.797951062,154.77413517,2720.0
12.388381137,-81.095289295,-67.76545389,174.98989724,2730.0
27.816754085,112.47144781,-52.055919343,-6.1328466465,2740.0
10.298542389,167.72528671,-69.624117496,17.087235535,2750.0
6.8082392631,-158.50342567,-69.211374598,40.88354263,2760.0
6.2324555686,-127.02666739,-65.339288082,65.824044959,2770.0
7.8982160378,-90.180752696,-60.173198532,92.756899408,2780.0
14.537984868,-28.507596353,-52.472949477,148.63564064,2790.0
13.02724188,121.43761474,-55.293095931,-37.888627308,2800.0
6.927103265,176.87000315,-62.562764408,46.048716,2810.0
5.1952682843,-146.21712368,-67.010762104,69.944563358,2820.0
5.4502549236,-110.41459207,-74.315399397,70.751942944,2830.0
8.1764962591,-63.310223787,-87.804608053,-104.98292641,2840.0
13.772924099,41.820071144,-66.843991254,-18.217977753,2850.0
7.4719115673,145.92877289,-71.658306574,53.301728008,2860.0
4.1600745159,-166.16260206,-73.959439914,85.357603712,2870.0
3.0335432083,-128.42064319,-71.73291369,96.755830673,2880.0
2.9377997213,-86.259960254,-70.138903218,134.25829266,2890.0
3.7313377159,-21.55119916,-69.583398902,-157.72103033,2900.0
3.4901165012,78.338033819,-71.852914001,-67.920249303,2910.0
1.7435338291,157.04933871,-87.832755432,31.239721107,2920.0
0.81563492091,-154.1067583,-88.012208523,-137.78733098,2930.0
0.055074006647,-113.07402974,-86.329567975,-5.6368348009,2940.0
-1.6407840545,-62.199495066,-73.432360251,65.614256799,2950.0
-7.0218353521,23.631360732,-64.743121069,143.73192842,2960.0
-9.470049403,145.33251671,-61.259707247,-155.32809192,2970.0
-9.1568205015,-152.41767293,-59.179766143,-102.96073831,2980.0
-13.839682034,-134.65949512,-57.405675581,-39.829805576,2990.0
-10.273829877,-173.68719409,-57.895743116,29.894160497,3000.0
-5.3333672247,-147.20712284,-61.646828763,95.335818943,3010.0
-4.1102577774,-111.934339,-65.898750002,167.77078596,3020.0
-4.4962873892,-67.525506204,-67.201759427,-123.12973679,3030.0
-4.7128931351,6.6579683331,-69.003339599,-57.87538771,3040.0
-1.0340206487,103.34169615,-70.177100162,8.0953450781,3050.0
1.5202845888,173.42666309,-70.478553675,63.958325572,3060.0
2.4751259689,-139.98129806,-70.071835184,74.879522302,3070.0
3.7245223694,-99.788685885,-70.805470344,56.892681131,3080.0
7.122607292,-49.695019345,-61.247524394,25.290285052,3090.0
14.181544269,61.686386365,-48.558027089,84.248993246,3100.0
8.0654931811,167.99258465,-55.528913565,152.92420187,3110.0
5.4535311654,-146.36489447,-59.839124059,174.21901879,3120.0
5.2992408998,-110.77303153,-62.747340585,-158.35477633,3130.0
7.3788383561,-72.695159502,-65.014329389,-123.78976875,3140.0
15.07550422,-12.94734804,-66.887369392,-100.06499962,3150.0
13.824653523,146.95640136,-68.967335961,-32.270994855,3160.0
7.8293419526,-161.51274525,-69.451434783,-38.416781317,3170.0
6.3755501855,-126.78200505,-72.379984592,-33.152957019,3180.0
7.2005463054,-94.079405831,-73.195678258,-92.672937346,3190.0
11.600526072,-55.24024808,-63.550867334,-105.9813776,3200.0
24.864371038,96.557250326,-49.105750043,34.163959132,3210.0
10.37934386,-178.48651816,-61.800154853,111.16304247,3220.0
7.0212186619,-142.69672752,-63.813066875,140.38950719,3230.0
6.5177900732,-112.26942019,-63.738102128,175.90882727,3240.0
8.2414164277,-81.384424488,-63.487592523,-153.83933322,3250.0
14.826016735,-45.047916738,-59.349354601,-127.61829766,3260.0
20.656149971,159.10877206,-56.237977322,81.173538726,3270.0
10.195681843,-160.79536961,-61.392105561,167.59575262,3280.0
7.7577511905,-129.92371954,-58.942649996,-140.64003718,3290.0
8.05370193,-101.53734833,-56.587117419,-122.13810556,3300.0
11.507239232,-74.276841243,-51.973160085,-110.42468328,3310.0
24.378720534,-84.625454127,-39.227379751,-139.05342354,3320.0
13.920258937,-162.05140353,-51.421752673,126.05598899,3330.0
9.3196721516,-137.80541685,-57.993430015,140.44160314,3340.0
8.5049812758,-112.61109865,-61.184845565,167.42769855,3350.0
10.271648853,-89.210742599,-61.513325845,-160.14945861,3360.0
16.347579431,-79.6685934,-55.571705518,-141.50656824,3370.0
16.962806086,-143.80524879,-54.081488918,171.89148656,3380.0
10.759927035,-137.12382056,-62.824963955,-143.36934427,3390.0
9.0095126603,-113.84119478,-66.281219517,-97.618143703,3400.0
10.164929796,-89.225036758,-64.318608786,-72.108579739,3410.0
15.85545785,-70.463098153,-57.734410144,-53.234643621,3420.0
19.984861444,-152.90085766,-53.659194046,-131.19447353,3430.0
11.013775615,-148.09388268,-64.199768075,-133.54506031,3440.0
8.3323296419,-123.12701664,-67.637673109,-108.09086968,3450.0
8.2962574529,-97.0919017,-70.701863563,-66.367355266,3460.0
11.121766392,-69.341474528,-69.840277474,4.2860218378,3470.0
22.973066302,-52.992940141,-54.268821169,65.515733129,3480.0
14.754122241,-166.99183391,-59.093921082,-49.605358736,3490.0
8.9266806212,-139.33960208,-66.004529462,-42.427161421,3500.0
7.468447135,-111.02574062,-70.624573365,-37.508567311,3510.0
8.4419113319,-81.87951044,-71.349266872,-17.370131932,3520.0
13.076252625,-49.697366657,-66.710146483,10.522358046,3530.0
32.334415108,160.49302884,-53.350239894,-135.41875306,3540.0
11.682502775,-161.3244894,-73.37589744,-64.947210852,3550.0
7.8982351191,-130.26421695,-71.445016078,-7.9062529163,3560.0
7.237995436,-101.38414442,-70.848085335,48.122630139,3570.0
8.868934651,-71.175846045,-68.371084199,100.91240124,3580.0
15.284308854,-37.838795902,-61.519301496,131.64580864,3590.0
21.124760509,179.1994616,-56.629357397,-13.351201022,3600.0
10.439533553,-147.67370709,-67.881716871,15.58026201,3610.0
7.9586561145,-116.90312999,-70.43353741,42.651110896,3620.0
8.1671706196,-87.883451402,-68.353550299,68.315312681,3630.0
11.247405693,-57.883802671,-66.621584713,119.4319821,3640.0
24.709946066,-30.221430608,-56.946441772,153.27694986,3650.0
14.732251557,-165.567344,-70.169471967,19.379098517,3660.0
9.1530694628,-134.95704369,-74.58610586,79.513806665,3670.0
7.8661335656,-105.63354505,-71.477390842,121.12225345,3680.0
9.0879778575,-77.148852269,-66.641244892,130.36235017,3690.0
14.553942459,-51.151574072,-58.910374559,135.29586457,3700.0
22.830373806,-147.78686929,-49.303378325,25.161484379,3710.0
11.565232552,-140.94960518,-58.750098835,16.566995932,3720.0
8.7397761011,-113.90915102,-57.195109442,22.079343828,3730.0
8.8295339596,-87.391971834,-45.556324101,-132.55667717,3740.0
11.912154906,-61.325772654,-58.91846216,-146.30009246,3750.0
23.425526787,-62.481579564,-53.078224298,-177.42119233,3760.0
14.811648398,-151.01177439,-64.423749696,73.945237335,3770.0
9.5750027595,-126.51025829,-72.711847004,74.07745821,3780.0
8.3973934255,-99.556453969,-75.231301063,78.624845891,3790.0
9.855056382,-73.48129903,-71.219385439,95.771832542,3800.0
15.778138174,-56.514204174,-62.733639638,92.057331379,3810.0
19.410299999,-130.46858439,-53.051847196,41.777641116,3820.0
11.553942165,-127.13682354,-61.173002997,125.73891035,3830.0
9.3007124896,-103.38842181,-67.871068727,-179.39957953,3840.0
9.8474078899,-78.671910711,-71.969601745,-147.48783256,3850.0
13.780276338,-56.874781877,-79.131930712,162.80606019,3860.0
23.829143404,-102.54919881,-57.648309046,-10.646664593,3870.0
13.306051127,-136.64831122,-62.278613712,-79.49645749,3880.0
9.523885247,-112.7024981,-65.541538134,-58.305270444,3890.0
9.1846050075,-86.273037377,-65.614901311,-37.578316326,3900.0
12.096942414,-61.574726546,-62.241465978,-2.0064968067,3910.0
21.833661487,-72.76885204,-49.604761643,29.630890973,3920.0
14.32538904,-135.39085297,-60.745523248,-17.305509564,3930.0
9.6012965725,-113.57122953,-67.513623893,10.525706812,3940.0
8.6188602446,-86.604424839,-68.246073873,50.122333035,3950.0
10.296232575,-57.702463379,-64.648822282,79.463704422,3960.0
17.478978638,-25.437027821,-55.00507772,90.135989914,3970.0
19.919041522,-170.30992091,-49.485223599,-80.94795451,3980.0
10.381276228,-135.40937727,-57.667630198,-51.19684616,3990.0
7.921352782,-103.74880685,-61.287154802,-13.482266191,4000.0
8.2487827534,-72.779125348,-61.266763608,15.160007308,4010.0
11.949001688,-38.247342085,-56.974183643,58.702517622,4020.0
33.238029644,42.16512916,-39.311018001,164.56803042,4030.0
12.617024656,-151.68880711,-65.547602906,-26.732184132,4040.0
8.1746580006,-116.75612947,-72.562178526,3.7152085507,4050.0
7.2401262004,-85.324194893,-73.376270235,36.704536676,4060.0
8.6498779306,-52.433300894,-73.562123138,37.405435985,4070.0
14.343316346,-9.311079202,-65.614163832,39.451102616,4080.0
20.642803283,159.20242521,-60.474511413,178.46833341,4090.0
10.226952292,-140.10422274,-71.819797457,-98.530716534,4100.0
7.5967290752,-104.07737345,-72.091759089,-13.977618637,4110.0
7.8355381317,-70.621246214,-66.76028957,22.326874287,4120.0
11.234879638,-33.639580979,-62.037360135,80.440681786,4130.0
27.042037146,47.31989679,-50.813630424,164.05441533,4140.0
12.649287462,-153.03982714,-69.434247639,-60.327784445,4150.0
8.0793543116,-114.87122477,-74.425131421,-43.000982029,4160.0
7.2141430843,-81.904825128,-70.910209813,-14.123002307,4170.0
8.7863317861,-47.383114434,-63.666297362,8.1726731918,4180.0
15.16766279,-2.9569273535,-52.334916161,14.543858306,4190.0
19.042060112,174.3772054,-40.210408897,147.00135185,4200.0
9.8769052551,-131.92475936,-49.298980167,-25.550762491,4210.0
7.6536855441,-95.564642302,-62.015029498,-15.454843229,4220.0
8.2149054123,-60.964916339,-65.348816198,4.9385761564,4230.0
12.377024705,-19.727193955,-63.16536417,34.677071513,4240.0
23.997515513,117.61896523,-55.14908043,150.44411175,4250.0
10.953816752,-148.34173111,-70.750641896,-140.11525037,4260.0
7.4047956714,-109.22590657,-76.058028213,-105.7652478,4270.0
6.8735870163,-74.651852198,-72.085738429,-39.692747044,4280.0
8.7411239404,-37.262358563,-60.511286382,10.845210252,4290.0
15.718662631,20.415306573,-44.087994754,65.75369195,4300.0
15.034747787,173.75706289,-47.975951096,-71.816505356,4310.0
8.4680746808,-130.42096823,-63.925748729,-36.750860594,4320.0
6.596061093,-92.838640163,-70.691701178,-23.845050613,4330.0
7.0317640229,-57.127597075,-72.61684421,-10.829343633,4340.0
10.184826225,-13.632763334,-71.742067072,21.90605242,4350.0
18.015328444,82.645120294,-67.768867525,128.53509998,4360.0
11.009103919,-163.56169685,-74.739955998,-92.132360649,4370.0
7.1154992435,-116.93890165,-75.068048243,-41.899319277,4380.0
6.2128262448,-80.778929397,-69.273667761,0.11212155202,4390.0
7.3567336189,-44.650216329,-65.240630657,58.95750619,4400.0
11.863514227,3.2974762856,-59.844080968,130.97853969,4410.0
18.325152892,128.69335944,-57.306410064,-81.11109827,4420.0
10.132777786,-145.53881292,-71.957021624,4.8396345419,4430.0
7.2387636199,-104.33666223,-75.271752334,39.63564877,4440.0
6.9816423947,-69.471612102,-75.297518288,64.231277168,4450.0
9.1033940851,-32.693973852,-72.4374544,97.676669302,4460.0
16.466216442,22.424555839,-66.382399668,161.13393365,4470.0
16.399610573,-178.4877206,-72.052560508,-1.9258738111,4480.0
9.4465504568,-125.19000215,-68.11020349,87.905512134,4490.0
7.6306991846,-89.511743681,-61.515162538,130.88887502,4500.0
8.3859925231,-56.639135368,-59.407849333,169.41109625,4510.0
12.388524305,-21.679987737,-55.699655831,-159.05062064,4520.0
34.363732923,51.485024019,-36.374221851,-80.952312954,4530.0
13.740325221,-136.55378927,-60.512849648,76.627440178,4540.0
9.4318444869,-102.38623729,-67.036343461,89.444357943,4550.0
8.8487312978,-71.445793566,-66.625523105,104.74101764,4560.0
11.147011683,-40.154305742,-60.32052718,132.35321206,4570.0
19.991708557,-10.299907974,-51.08311364,172.19814396,4580.0
18.492551576,-144.66485049,-54.541905815,32.112250052,4590.0
10.817231032,-114.80181629,-60.441223237,71.767423882,4600.0
8.9258413186,-85.102062566,-59.785767395,154.76798051,4610.0
9.5918945684,-56.216401555,-63.65748836,-175.8156522,4620.0
13.590021629,-27.626960151,-61.231499116,-166.54517972,4630.0
31.65640604,-46.813327291,-43.762645852,158.49398777,4640.0
14.676609461,-128.59526599,-62.90751445,58.742545527,4650.0
10.145465701,-100.76290515,-68.784747656,52.139259027,4660.0
9.3281909053,-72.474634094,-69.921619158,34.736508539,4670.0
11.052480423,-44.353701176,-68.071547668,4.509261432,4680.0
17.60044972,-20.205355759,-71.855132241,-163.91582745,4690.0
22.833335302,-130.89974498,-45.236962493,-51.319623993,4700.0
12.72056811,-117.24624213,-50.023580765,-67.629448164,4710.0
9.9416827529,-90.810994478,-60.248419867,-59.749680362,4720.0
9.9286474057,-65.023698953,-65.991658666,-58.210825647,4730.0
12.487396539,-41.031973966,-64.866608665,-64.257946071,4740.0
20.125677153,-34.851961278,-58.013448295,-72.228020716,4750.0
18.837424655,-113.14951543,-59.349405851,-160.64263958,4760.0
12.708835878,-101.74420254,-63.09839719,173.75680681,4770.0
11.098639533,-78.784879161,-61.434816443,122.09233713,4780.0
12.337766069,-57.323065375,-61.664483671,52.13671612,4790.0
16.704558825,-49.443788977,-58.114372315,33.33304557,4800.0
19.053895211,-90.586429328,-50.490312889,-11.298658605,4810.0
13.913689961,-97.716058082,-51.976997901,-40.909202291,4820.0
11.936665749,-80.150015307,-57.51373801,-44.740575588,4830.0
12.776474928,-60.102563285,-58.700247888,-56.173478393,4840.0
17.121287319,-52.925796712,-54.28288204,-76.677889807,4850.0
18.098974099,-98.654031591,-50.280780294,-141.7982428,4860.0
12.401739181,-98.069633529,-54.539120564,-157.34669839,4870.0
10.301274658,-72.975337588,-57.290448971,147.09384978,4880.0
11.197880752,-40.70318741,-59.324633853,46.632009179,4890.0
17.308635054,8.5900198368,-54.91248611,32.492749394,4900.0
16.994824628,165.93335153,-53.199383434,152.75425498,4910.0
8.6739895594,-137.17905048,-58.384427079,165.63965078,4920.0
5.7514066536,-97.819385597,-63.009436645,157.52057713,4930.0
5.0632329325,-59.74031101,-69.416234145,144.93242506,4940.0
6.0706299829,-12.528776204,-66.956790667,122.12159012,4950.0
8.5919994511,67.837764254,-55.250612392,162.93300774,4960.0
5.8024570643,174.58962757,-29.944334261,-63.751182773,4970.0
2.1542849838,-116.920297,-51.198631093,68.950697017,4980.0
-0.24369599608,-62.684837986,-51.810324967,131.62890875,4990.0
-4.9248563812,2.7064378673,-56.435353365,-125.83358928,5000.0
-14.630155418,179.50317826,-62.914061096,-55.178725352,5010.0
-5.798836483,-81.502215453,-63.626781557,-5.8533237261,5020.0
-3.9752290663,-17.608163836,-60.452991118,12.446863147,5030.0
-3.1676082545,66.737836702,-55.590357613,38.576770196,5040.0
-1.633974307,161.28256373,-52.338378443,88.900336366,5050.0
-0.83293426067,-134.1630644,-52.191865209,137.8580789,5060.0
-0.22655768665,-91.056819036,-46.688254499,-144.32207407,5070.0
0.86894784047,-52.414593101,-52.828307028,-51.856987299,5080.0
3.085149268,-6.0801649474,-55.502553471,-17.961448716,5090.0
7.5135362079,63.937162838,-51.974953048,29.742222675,5100.0
9.253369066,168.19972099,-51.392216771,125.83068351,5110.0
6.7714212161,-122.54306367,-59.067839154,-170.52304174,5120.0
6.0832136797,-78.285258698,-61.873339331,-144.93014372,5130.0
7.4662270891,-37.801935784,-56.085068069,-128.9927872,5140.0
12.325886921,11.943887367,-43.44408854,-64.212339064,5150.0
18.74266529,139.47295192,-39.6478779,86.361343153,5160.0
10.798675692,-138.88344584,-47.83813551,158.02645986,5170.0
8.0980695585,-99.367188037,-51.05035991,-153.33157494,5180.0
8.1091516812,-67.476778612,-55.959984119,-112.16098233,5190.0
10.613066751,-38.166710478,-57.400249761,-97.680715074,5200.0
18.436148551,-18.530254523,-50.460258757,-100.78728139,5210.0
19.789487316,-114.94808144,-47.45305945,149.26079724,5220.0
12.326474849,-99.655557283,-54.297643833,163.55664344,5230.0
10.832047398,-73.705278518,-54.075340853,174.04235815,5240.0
12.450388401,-49.183016887,-45.078604125,-157.20833301,5250.0
18.590200054,-37.384625868,-41.505516333,-78.23824548,5260.0
