S11m,S11p,S21m,S21p,Frequency
5.5375674214,-60.097245737,-41.000138937,-88.818276849,2000.0
5.8915427043,-36.863176773,-48.142773928,-106.30282042,2010.0
6.1051686126,-12.092207394,-55.042491935,-84.28876309,2020.0
6.113655561,13.689754204,-55.330600212,-77.018181762,2030.0
5.9310971235,39.844580096,-57.02883388,-84.49908823,2040.0
5.602401894,65.638183407,-58.142347661,-63.703076277,2050.0
5.2230158377,90.619280894,-50.827888834,-50.580450281,2060.0
4.8867857823,114.2854821,-42.980334808,-91.23559705,2070.0
4.6940650482,136.5800313,-43.201765759,-175.14939789,2080.0
4.7017881049,158.00527821,-48.981107113,140.53519641,2090.0
4.8898644913,179.60315193,-55.127406198,104.95901664,2100.0
5.1315493054,-157.8563783,-65.121592683,26.570486086,2110.0
5.3000787206,-134.25032908,-67.07180387,-91.467108226,2120.0
5.3509299642,-109.91981002,-61.086068949,-87.174056379,2130.0
5.2906401942,-85.176361025,-53.819620237,-105.05166476,2140.0
5.1388754407,-60.343009342,-44.512708824,-129.9378078,2150.0
4.9367639163,-35.842710685,-32.788764141,78.151314593,2160.0
4.747689989,-11.888690747,-44.53130057,36.854141483,2170.0
4.6221037479,11.465176081,-47.583146457,21.938161839,2180.0
4.5873792486,34.245720848,-49.140298969,6.0521675517,2190.0
4.6732653839,56.836693785,-50.383637979,-6.6656278641,2200.0
4.8139096335,79.921894139,-50.5260367,-24.464951665,2210.0
4.8968501379,103.43531063,-52.580332665,-55.538773098,2220.0
4.9314847858,127.1745416,-56.818673181,-39.35935759,2230.0
4.9059392413,151.12057004,-51.800962325,-25.096098346,2240.0
4.8245450405,175.0238303,-37.525760245,158.38094727,2250.0
4.7100524148,-161.39309939,-57.590388712,-163.0895899,2260.0
4.6132802727,-138.21960256,-62.138424379,-142.51593943,2270.0
4.558669921,-115.36644902,-64.050461545,-123.73248818,2280.0
4.5618422148,-92.742921364,-63.914255124,-115.73232071,2290.0
4.6377348298,-70.118528563,-63.809098401,-119.03885438,2300.0
4.7572890702,-47.061430953,-63.116348966,-124.09505383,2310.0
4.8607188328,-23.407404748,-61.706918006,-149.99666043,2320.0
4.9029381105,0.564451529,-65.006314028,-178.54170583,2330.0
4.8956472792,24.689086383,-59.627760364,-135.33678361,2340.0
4.8312805132,48.935208709,-68.369015651,51.711225506,2350.0
4.7270893454,72.680962557,-70.086558431,115.76147808,2360.0
4.6612666097,96.066861439,-69.768608754,124.37352851,2370.0
4.6438512193,119.11044065,-69.498249288,135.28958022,2380.0
4.6800348675,142.02622517,-68.639395565,141.08340199,2390.0
4.7657038496,164.9570518,-67.632717057,151.71464965,2400.0
4.8896931649,-171.86201101,-64.970087261,157.99230568,2410.0
4.99552994,-148.3484344,-60.901763321,152.84278404,2420.0
5.0608491223,-124.63864587,-57.112574186,132.27381021,2430.0
5.0965980486,-100.75267126,-49.776189596,130.24509963,2440.0
5.0941824548,-76.700274682,-53.326872481,-22.506343884,2450.0
5.0322982857,-52.745924979,-62.166472226,-32.184909973,2460.0
4.9523834421,-29.177392082,-66.574325179,-25.725052599,2470.0
4.9193265131,-6.0289443736,-67.98959831,-20.454320264,2480.0
4.9455910929,17.014241841,-68.098968212,-19.239727804,2490.0
5.0204413499,40.063756877,-67.52175961,-20.31176243,2500.0
5.1304570382,63.152644256,-67.522824786,-20.111413275,2510.0
5.2593045505,86.579872753,-67.339212532,-8.691835384,2520.0
5.3556352491,110.36572205,-62.537422273,12.601161351,2530.0
5.4294682845,134.18537834,-51.754122897,3.3608769197,2540.0
5.482241852,158.12934871,-54.724011924,-113.24510586,2550.0
5.4948953579,-177.94816398,-61.184355634,-111.96526775,2560.0
5.4954726252,-154.31648667,-64.030867635,-110.67279522,2570.0
5.5344469741,-130.92386675,-66.474196708,-104.59843731,2580.0
5.6264184924,-107.58662271,-65.869721133,-96.6261415,2590.0
5.7617200479,-84.145099295,-63.935219078,-111.73082783,2600.0
5.9290273424,-60.386274264,-62.993988588,-131.03669705,2610.0
6.0930233391,-36.272465175,-61.735137871,-144.07113733,2620.0
6.2208215671,-11.782638905,-58.789782805,-151.0034962,2630.0
6.2893155767,12.642077205,-52.495509602,-158.94539099,2640.0
6.3290720882,36.931691003,-59.586962068,80.752251437,2650.0
6.3290734249,60.971498409,-67.046238249,127.80496067,2660.0
6.2972737281,84.527140189,-66.910730721,168.09440048,2670.0
6.3399709113,107.47716914,-65.880720257,-171.9588529,2680.0
6.4704428713,130.05903434,-63.983232936,-157.64579961,2690.0
6.6933812421,152.62865742,-61.310825481,-158.15272318,2700.0
7.0258075541,175.57758479,-59.207810518,-165.35223449,2710.0
7.4155392478,-160.6564296,-56.326599479,-177.17467274,2720.0
7.8020335724,-136.03013722,-51.487146884,166.65226975,2730.0
8.1360747368,-110.80117629,-42.327289877,138.38800275,2740.0
8.3748606486,-85.273501508,-44.523781127,-0.021034532966,2750.0
8.5097524179,-59.777888028,-52.387715972,30.630611781,2760.0
8.5725780481,-34.812579018,-50.899674755,37.602789314,2770.0
8.6971483772,-11.027910762,-51.034097364,38.955294186,2780.0
8.964322178,12.325993177,-50.689855844,44.20119118,2790.0
9.3279422341,35.734587204,-50.094575948,45.721251585,2800.0
9.8011886866,58.878916835,-49.428588869,43.390949782,2810.0
10.373523102,82.739380507,-47.534723223,42.986357948,2820.0
10.962188782,107.21586759,-44.364051557,34.208017494,2830.0
11.528800428,132.16937809,-40.771041842,1.0338385338,2840.0
12.036573526,157.40826034,-43.309437976,-63.086945972,2850.0
12.41561928,-177.57578246,-52.215272907,-75.55438724,2860.0
12.766786698,-153.95454016,-51.828838727,-54.020756359,2870.0
13.320727287,-132.17928146,-50.240374001,-75.247445417,2880.0
14.27098562,-111.41565063,-51.093366876,-103.76336712,2890.0
15.654300815,-90.449995099,-55.074910419,-105.36651722,2900.0
17.451263271,-68.673950545,-49.641175193,-81.917429601,2910.0
19.867351979,-45.918394863,-46.906842101,-104.88083468,2920.0
22.955404348,-19.335242791,-45.395918475,-108.18305174,2930.0
26.47921345,16.341023455,-42.437367945,-101.73157721,2940.0
29.088415351,64.818527801,-42.703084665,-66.716551437,2950.0
28.824913764,107.03928314,-44.600906039,-18.006324867,2960.0
29.141988626,129.46141198,-43.854254802,12.34357564,2970.0
31.87392165,128.43331315,-38.574156698,-4.331991529,2980.0
33.64822777,77.656725202,-39.471793949,-102.98774548,2990.0
26.2656852,53.733702694,-48.671807903,-54.816488227,3000.0
22.726909387,57.668413181,-47.520589436,-107.8168673,3010.0
19.577114915,70.245141492,-52.689319926,-144.96259706,3020.0
17.390310966,85.185540129,-58.862528053,-150.00323903,3030.0
15.844773471,101.90823393,-60.003782181,-128.09330818,3040.0
14.78207137,120.04741923,-57.872908019,-138.34796867,3050.0
14.108128192,139.59623327,-59.201236628,-159.79819449,3060.0
13.703757876,161.5198628,-60.5125868,-116.85418077,3070.0
13.409846054,-174.21195724,-50.607294399,-106.4754747,3080.0
12.978403889,-148.35354345,-42.355074246,-146.61941407,3090.0
12.441021454,-122.65885484,-43.667958394,138.88218334,3100.0
11.930191884,-97.424971736,-47.969679683,121.24020052,3110.0
11.372260843,-72.678305428,-50.600996124,115.98240424,3120.0
10.837125927,-49.309882427,-52.459004504,112.71816844,3130.0
10.446817748,-26.218313479,-52.784563088,107.32230339,3140.0
10.188426521,-2.9147561558,-52.46814866,99.123346762,3150.0
10.063208663,21.257929359,-53.276390641,95.868387977,3160.0
9.9934706496,47.323302955,-55.034697391,99.279845158,3170.0
9.7242063998,74.724567157,-53.838544902,116.70579915,3180.0
9.1952854953,101.67610699,-48.10244783,104.42693449,3190.0
8.5924136418,127.12698598,-46.967138891,16.536688992,3200.0
8.0291637756,150.86978512,-55.361911667,-21.206973402,3210.0
7.5411340512,173.50951965,-59.625823007,-39.273534231,3220.0
7.1655035244,-164.87854632,-61.496742654,-53.318812529,3230.0
6.8851397603,-144.43207433,-62.493880074,-65.509941317,3240.0
6.7940111954,-124.02233532,-62.662702447,-75.370329835,3250.0
6.8471361315,-102.63861685,-61.269677805,-89.807978613,3260.0
7.0280652069,-80.316639133,-59.995448347,-102.68443676,3270.0
7.262593557,-55.891644524,-59.558575439,-83.101872415,3280.0
7.4049143428,-29.803684302,-51.947703912,-63.783372267,3290.0
7.4018745337,-3.0558195883,-38.905702981,-115.2385034,3300.0
7.2845193141,23.659276296,-48.240437786,155.90550766,3310.0
7.0366405009,49.63551467,-54.763217443,153.76789533,3320.0
6.684979162,74.424505792,-58.316884063,157.27148194,3330.0
6.3100982699,97.690292524,-59.469395519,158.30748739,3340.0
5.9828437312,119.6603411,-59.647234678,158.54768197,3350.0
5.7798198371,141.26008205,-59.00314299,159.84298955,3360.0
5.7358591057,163.11661325,-59.166910654,156.75861933,3370.0
5.8322320205,-173.6575255,-59.869416385,167.325767,3380.0
5.9022754942,-149.32583572,-55.686866268,-177.34615688,3390.0
5.8748217384,-124.9808809,-46.372241179,173.68987696,3400.0
5.8554016089,-101.40024711,-47.142569854,55.529228431,3410.0
5.8178830723,-78.118435909,-55.205596396,44.050763743,3420.0
5.7889786165,-55.047661914,-58.18334225,44.684467531,3430.0
5.7074521201,-32.245978691,-59.942301411,47.535879573,3440.0
5.6151393977,-9.8853492912,-60.970845654,47.554920394,3450.0
5.5380214093,12.262756648,-61.414316,42.422695186,3460.0
5.5841206594,34.964151367,-62.863754247,42.702803151,3470.0
5.7709007852,59.175162621,-63.032247118,61.943956331,3480.0
5.9558008197,85.076680603,-59.997649401,79.54367868,3490.0
6.0050180338,111.64655595,-53.936669218,82.757098987,3500.0
5.903038629,137.59351239,-37.995072985,-7.5521968236,3510.0
5.6938428744,162.28346655,-55.631597205,-77.150341849,3520.0
5.3895396597,-174.44236199,-61.882686581,-77.537013853,3530.0
5.058133534,-153.11780739,-65.742424812,-84.778138794,3540.0
4.8211257942,-132.89967478,-69.421347759,-95.348637822,3550.0
4.7128797796,-113.09932157,-72.982815226,-102.59147276,3560.0
4.7776015929,-93.027493722,-74.286631305,-104.87457852,3570.0
5.0562429105,-71.474297604,-71.382836635,-110.81289066,3580.0
5.4360958128,-47.73545179,-64.909138293,-102.34721502,3590.0
5.7645774694,-22.268913224,-54.915582549,-87.469235333,3600.0
5.9870436783,3.8863351748,-39.239051261,38.286903029,3610.0
6.1046309681,30.220439693,-52.754896851,96.782177218,3620.0
6.0429208146,56.181018216,-56.526086106,112.03228436,3630.0
5.7642430523,80.842188742,-58.292604354,122.74921959,3640.0
5.3832653205,103.54703978,-60.453919502,126.26642123,3650.0
5.1113040084,124.77243816,-62.985421137,135.38459178,3660.0
5.0589339215,145.78807345,-62.680247017,144.38637766,3670.0
5.2029921617,167.84910055,-60.031625802,144.25608434,3680.0
5.4081123398,-168.39691148,-55.485776071,142.28504413,3690.0
5.5518127279,-143.64587129,-45.303306929,146.9632473,3700.0
5.6460235385,-118.78511271,-45.504637002,-54.431702647,3710.0
5.6814126093,-94.145121159,-53.185251129,-49.69580696,3720.0
5.6259077322,-70.160840739,-55.636087258,-48.220562532,3730.0
5.4943229614,-47.134153956,-56.274276845,-52.030127929,3740.0
5.2761606724,-25.595985196,-56.345023362,-52.348946148,3750.0
5.13753615,-5.2547722091,-53.264855532,-35.136412766,3760.0
5.2048435701,14.961123393,-41.573430232,-171.83585499,3770.0
5.4696374922,36.400202992,-57.238193969,177.98591408,3780.0
5.8366474033,59.902183827,-62.2731559,170.67598434,3790.0
6.1897513944,85.450288113,-63.533775219,170.83749874,3800.0
6.4412749503,112.42573039,-62.808730528,177.57868587,3810.0
6.5484555811,139.88033925,-60.962727143,-174.7674902,3820.0
6.4809598173,166.82135969,-59.514944315,-169.84686565,3830.0
6.2381649241,-167.88914123,-57.754920329,-169.09200993,3840.0
5.9155551001,-144.63785492,-55.227472599,177.16714932,3850.0
5.5630944672,-123.50226084,-61.803548068,94.369836966,3860.0
5.3786176662,-103.82805858,-79.069664379,76.521267211,3870.0
5.3982931243,-84.126891582,-87.262431399,-102.48925635,3880.0
5.5987319383,-63.418716688,-80.755350796,-92.259774254,3890.0
5.895367237,-41.293649221,-78.620148003,-107.93296959,3900.0
6.2478009811,-17.960910017,-82.813164164,-116.09351997,3910.0
6.6622038529,6.6085696825,-90.751967648,-150.5860135,3920.0
7.0736592084,32.208484989,-81.560430509,121.48282301,3930.0
7.367700036,58.172924112,-68.788514068,116.46888018,3940.0
7.4696341563,83.740140854,-44.04477401,-87.782360528,3950.0
7.3686309581,108.3060586,-69.134405275,-39.319015076,3960.0
7.1470888075,131.34233253,-75.512986057,-11.342522404,3970.0
6.9610953063,153.40049453,-83.241351272,4.144243629,3980.0
6.9480607364,175.39985235,-82.183407475,130.16783839,3990.0
7.0543253646,-161.70284063,-78.651026474,134.52155914,4000.0
7.2898937178,-137.94510797,-80.068622694,130.62020651,4010.0
7.5533733149,-113.33877833,-78.935101971,123.62321158,4020.0
7.8465559248,-88.497398628,-72.870958741,81.96623411,4030.0
8.102837662,-63.937228477,-63.355293424,51.45639777,4040.0
8.3124781338,-40.256265728,-45.456939716,37.044909288,4050.0
8.4255917721,-17.15392626,-59.487240639,-143.68006333,4060.0
8.3765634086,4.8535584012,-66.782936666,-108.97673562,4070.0
8.3365701176,25.658595581,-67.129051999,-84.241636357,4080.0
8.4769935116,46.277382461,-67.101477007,-73.253484026,4090.0
8.8410382606,67.910137501,-66.712337767,-69.697019214,4100.0
9.4538931028,90.689817294,-66.386457851,-69.225486314,4110.0
10.350798998,114.92230635,-65.542637496,-69.342996155,4120.0
11.48219735,140.90651768,-63.858920266,-64.26332529,4130.0
12.686868039,168.66517029,-59.873513506,-59.758720197,4140.0
13.753905844,-161.65170071,-50.186820282,-50.53644654,4150.0
14.222817969,-131.58692235,-46.987819301,112.31670987,4160.0
13.759409237,-103.59958872,-62.980550852,-163.03189079,4170.0
12.760118394,-81.159201002,-59.383515663,-133.85658608,4180.0
11.962398431,-62.966953637,-59.520142514,-138.94145882,4190.0
11.627064237,-46.444291498,-60.337234332,-144.08976528,4200.0
11.794568593,-30.636608742,-61.389118903,-145.94894876,4210.0
12.489034156,-15.022652806,-61.190721535,-151.86911734,4220.0
13.694054454,-0.097173017598,-59.163356969,-160.96646613,4230.0
15.29649391,12.561943461,-55.185751323,-175.03873106,4240.0
17.100169257,21.018927904,-48.506618582,159.69348822,4250.0
18.838242025,25.511994974,-31.561620422,-31.009889077,4260.0
20.702865367,29.902481536,-50.476741906,-55.416960731,4270.0
23.1033473,41.286974312,-51.114595988,-43.288633918,4280.0
25.851033405,69.280695913,-48.12978788,-28.883968948,4290.0
26.229197359,111.68424434,-47.403643466,-1.6970643672,4300.0
24.131684984,147.44633484,-49.499297938,18.225357783,4310.0
21.745659795,167.72607084,-51.914718508,16.969797854,4320.0
19.829348197,-177.17505854,-54.248402027,14.13730043,4330.0
17.974398419,-162.71943462,-55.976651213,7.0996259831,4340.0
16.190552005,-147.43085687,-56.448651665,-2.7360704403,4350.0
14.734548035,-130.44518659,-48.401068641,-37.026879138,4360.0
13.684168754,-112.35800245,-63.080003532,156.33010622,4370.0
13.122254358,-93.303469225,-71.66763053,58.189072214,4380.0
13.014462991,-71.762036406,-75.652434606,-35.749392157,4390.0
12.833274146,-46.648079652,-69.559040011,-109.27281033,4400.0
12.299702534,-22.476693864,-64.824527865,-127.11595781,4410.0
11.674192743,0.23320529691,-59.982002713,-144.22480623,4420.0
11.082763798,22.029136827,-57.397028141,-166.59660021,4430.0
10.568893885,43.953344672,-54.910288052,170.89118051,4440.0
10.102869178,66.068621607,-53.104202582,140.58535995,4450.0
9.7349388768,88.130103643,-54.040762456,106.90837077,4460.0
9.5155612171,110.86173957,-59.584660925,88.919521525,4470.0
9.4363894386,133.66646786,-65.04684914,113.21014003,4480.0
9.5746609979,157.46572346,-64.066565767,137.31456426,4490.0
9.7384346551,-176.5283068,-63.992011565,142.49282675,4500.0
9.6437657415,-149.56363382,-63.341343183,132.33942404,4510.0
9.2887246096,-123.18595877,-64.51992046,108.9755041,4520.0
8.7996524346,-97.700959569,-65.077840647,87.423596156,4530.0
8.2490476621,-73.237970784,-68.314156275,58.278344649,4540.0
7.6885093169,-49.915899728,-77.280058784,38.918726281,4550.0
7.2106467122,-27.761865489,-79.335299547,126.28497358,4560.0
6.8698367386,-6.3991604598,-70.070975455,126.55452287,4570.0
6.6665513041,14.575229284,-66.085351017,105.40939898,4580.0
6.6162030177,35.590186069,-65.745174888,96.953029296,4590.0
6.7047212458,56.930173333,-62.958324761,114.10484678,4600.0
6.9159311905,79.212648598,-54.29530258,105.19664577,4610.0
7.123328503,102.7461481,-53.358925338,37.692366088,4620.0
7.2278667224,127.05980531,-58.706550364,18.486110173,4630.0
7.2981261455,151.93340223,-61.067195262,13.198026917,4640.0
7.2712676205,177.20482856,-62.093191574,19.154359744,4650.0
7.1338616761,-157.44332284,-62.306541135,29.126142313,4660.0
6.9565252794,-132.30691657,-62.532568714,32.445586071,4670.0
6.7561310336,-107.80683569,-61.601475421,25.923018542,4680.0
6.5344131911,-83.879228058,-62.198519467,6.5755535649,4690.0
6.3529540727,-60.4702241,-66.677287132,20.736984663,4700.0
6.241733476,-37.459124408,-57.333263581,27.375038538,4710.0
6.1489313328,-14.556721417,-60.065401612,-53.391208709,4720.0
6.0613410365,8.2587255589,-66.294750071,-71.12581908,4730.0
5.9943508957,31.091726876,-70.906695638,-75.37855511,4740.0
5.8822418051,53.720966761,-74.579522078,-86.113748876,4750.0
5.8273050066,75.99252851,-74.635693535,-92.577295439,4760.0
5.7822873473,98.351000603,-73.088547402,-93.668973271,4770.0
5.7890396384,120.88739367,-72.011509401,-91.93888861,4780.0
5.8417859431,143.54266129,-71.070521863,-86.744773043,4790.0
5.9564298023,166.41999457,-70.296286728,-65.551752548,4800.0
6.1205394111,-169.9955873,-59.704101164,-66.280839455,4810.0
6.2472142533,-145.54036865,-61.11320908,-156.87132899,4820.0
6.3029866244,-120.65683094,-68.890429437,-169.70473398,4830.0
6.2708670985,-95.758683299,-74.227139201,-174.38258166,4840.0
6.1334669851,-71.049405554,-78.757601352,-175.47569768,4850.0
5.928235393,-46.812756515,-81.595868937,179.9854939,4860.0
5.6829346275,-23.337380098,-80.621638767,169.36646548,4870.0
5.4254802206,-0.80655704589,-76.055864348,145.45726173,4880.0
5.2876900659,20.797528613,-70.726216375,133.0300927,4890.0
5.2992318658,42.024799168,-65.48035031,127.03115014,4900.0
5.4975302325,63.909057242,-59.631492966,98.440887604,4910.0
5.6943578276,86.636972154,-60.839864914,32.988261894,4920.0
5.8897524196,110.09010446,-66.279139431,14.991817044,4930.0
6.0255100996,134.05591332,-69.321685164,18.467109642,4940.0
6.085672225,158.5996929,-70.412552718,17.609922619,4950.0
6.0491513307,-176.591483,-70.061840749,13.812675127,4960.0
5.8599990968,-151.94309752,-68.93998611,12.345243651,4970.0
5.5783900839,-128.20445855,-66.27996763,17.485365902,4980.0
5.3869088097,-105.73949123,-62.647625507,15.897767493,4990.0
5.3967134281,-83.633790002,-58.490396811,8.7704330618,5000.0
5.5313643099,-60.781390318,-53.268206907,-29.134445001,5010.0
5.6766531543,-37.296579298,-57.302242666,-73.840640907,5020.0
5.7463193752,-13.71044081,-61.050909781,-85.606205419,5030.0
5.7651884328,10.106552313,-62.89957975,-91.480639245,5040.0
5.6644427549,33.665106532,-63.755819904,-93.18943504,5050.0
5.5134153681,56.685411273,-64.037716209,-89.991104192,5060.0
5.2448523976,79.403696609,-63.391868156,-89.079978465,5070.0
5.0052078964,100.72431658,-61.698142106,-91.334466187,5080.0
4.9813678877,121.54688178,-59.874912322,-94.963331278,5090.0
5.2612483789,142.83687127,-56.396529147,-104.2707561,5100.0
5.7055415276,165.62793762,-53.634761645,-153.89706324,5110.0
6.1477287024,-170.01178555,-59.911239653,166.84536906,5120.0
6.4778582844,-144.59488391,-61.947117453,-178.62911268,5130.0
6.6210956397,-118.64526708,-61.976197878,176.93103188,5140.0
6.4832680478,-92.548211879,-62.581495384,174.72845002,5150.0
6.0193329134,-67.266857243,-61.254423227,-176.38911426,5160.0
5.3187374332,-44.052022074,-59.590250577,-168.17553335,5170.0
4.6931500274,-23.798041999,-59.043755949,-160.67485425,5180.0
4.5920937679,-4.6230437727,-58.59426713,-160.67539514,5190.0
4.8938997736,16.103397566,-57.697347869,-175.59062728,5200.0
5.379208075,38.543922076,-58.606486196,158.89674309,5210.0
5.897194673,62.548006305,-63.89314561,154.35392383,5220.0
6.3779765793,87.044734504,-64.58009995,173.77762006,5230.0
6.7429318457,112.05257245,-59.728711564,171.04243361,5240.0
6.8055255842,137.79502444,-54.994029149,153.77643746,5250.0
6.4453486828,163.61144797,-53.425914763,129.37172741,5260.0
5.5743209036,-172.8389575,-54.13706895,107.80569113,5270.0
4.7045937517,-154.13269398,-55.472667297,101.03425181,5280.0
