S11m,S11p,S21m,S21p,Frequency
5.7408237347,-106.20736629,-52.819547475,-131.59460014,2000.0
5.4663567171,-77.960139393,-56.727896241,-117.83214778,2010.0
5.3679568139,-46.568233778,-53.287496331,-125.46946802,2020.0
5.8631948702,-13.56278057,-39.022865528,170.97851937,2030.0
7.3368868988,20.236255466,-47.86686477,58.667064132,2040.0
11.63900389,46.273517801,-46.463583085,9.8072509765,2050.0
12.541812034,23.418107222,-48.242990109,-81.3280941,2060.0
8.2198443216,41.063642912,-54.942679457,-118.39384288,2070.0
6.4401154316,70.228367418,-54.335555792,-140.84890561,2080.0
5.6867455847,99.116794858,-51.284887591,-177.06315505,2090.0
5.3319011061,127.04464337,-52.451355167,109.88686108,2100.0
5.0249416134,153.92067242,-57.849726299,82.556129672,2110.0
4.9865294844,-177.18985535,-56.087450517,74.747657178,2120.0
5.3326540915,-146.4284969,-46.190377991,30.789937159,2130.0
6.5643136788,-114.18975007,-50.507885124,-98.594085328,2140.0
10.381000773,-89.202015175,-51.059643958,-135.73211604,2150.0
11.324412959,-107.2032888,-52.08747262,143.27982354,2160.0
7.5575626614,-89.135731761,-56.197393542,106.28454457,2170.0
6.0280320683,-59.851712237,-57.275200278,82.165518136,2180.0
5.3661799489,-31.125010093,-54.552933888,43.259614928,2190.0
5.0353820124,-3.1999766616,-53.557036724,-5.9013171173,2200.0
4.9163696035,24.339656784,-58.076438853,-52.603469005,2210.0
4.9202355345,52.471608524,-60.259742752,-52.37958282,2220.0
5.1527346858,81.719586278,-51.065950257,-58.753170642,2230.0
6.1528866084,112.82411408,-44.686927365,167.83174024,2240.0
9.4114434954,139.28718074,-47.294526008,110.44597005,2250.0
10.93944138,126.49009341,-48.105545898,26.266213447,2260.0
7.2901934677,141.91208772,-54.443633976,-22.274431899,2270.0
5.8085401519,170.14997908,-55.897254175,-63.148992369,2280.0
5.178509168,-161.96630058,-56.32256886,-100.45121482,2290.0
4.9050784084,-134.46984715,-59.523630966,-138.78157689,2300.0
4.8160756346,-107.05551367,-62.638669854,-179.5595629,2310.0
4.8167586231,-79.20700628,-65.400688569,-177.92323158,2320.0
5.0527615107,-50.711041959,-56.296938609,-171.08756839,2330.0
5.8813085562,-19.976006664,-40.921920399,51.342391911,2340.0
8.6790262349,8.265875478,-48.085267802,-23.564778727,2350.0
10.833518514,-1.3503600451,-49.835324267,-115.88234251,2360.0
7.1672950327,12.202663872,-57.530714446,176.47082418,2370.0
5.5950181841,40.319400288,-62.445467497,146.81583163,2380.0
4.9824972811,68.160072252,-68.421734266,130.28859425,2390.0
4.6679188048,95.087149885,-70.174799187,108.08207034,2400.0
4.5551514317,121.40851906,-71.197452048,90.918238685,2410.0
4.5911898161,147.92275223,-70.979159384,81.833324337,2420.0
4.8203234548,175.2265961,-66.55637324,87.785520148,2430.0
5.5119627573,-155.88507041,-51.102233238,32.895719118,2440.0
7.7597070345,-127.79639041,-51.880621802,-88.23382545,2450.0
10.534261803,-129.88750097,-51.046811013,-173.77372685,2460.0
7.2411004155,-120.95451264,-54.867899815,111.13511988,2470.0
5.6601011386,-92.680081408,-59.626840021,58.001018263,2480.0
5.0221867145,-64.281275081,-63.043260608,11.65105619,2490.0
4.7781225371,-37.067966321,-65.814207983,-19.422854452,2500.0
4.6595290614,-10.19396646,-67.40423612,-46.047426895,2510.0
4.6523091394,16.732971245,-67.560528706,-63.926784012,2520.0
4.7508536472,43.931839684,-68.108034764,-81.18049748,2530.0
5.280052183,72.282432741,-58.519833005,-97.380155994,2540.0
7.0600127313,100.57629539,-51.618174584,133.77429993,2550.0
10.070207004,104.49835577,-53.882181101,35.369187623,2560.0
7.247928222,108.46427477,-62.031267393,-50.981040045,2570.0
5.4596889043,134.96072141,-70.218067768,-102.41342082,2580.0
4.8644209115,162.48147499,-77.529249442,-127.15695964,2590.0
4.6567113579,-170.94236462,-81.712909436,-151.99715437,2600.0
4.6020564962,-144.57113988,-83.510463408,-154.91383476,2610.0
4.6491327012,-117.9335766,-87.741939023,-132.96717258,2620.0
4.8643917795,-90.889741342,-79.053763116,-116.48102692,2630.0
5.3702373751,-61.989358547,-68.224793785,-136.9735522,2640.0
6.8434166943,-31.250615952,-53.290273993,131.00824491,2650.0
10.786599893,-19.177967375,-52.604588854,20.284131236,2660.0
8.0624549348,-23.54294314,-57.844634599,-84.653820824,2670.0
5.8467899533,3.7580329553,-66.242902218,-141.61879415,2680.0
5.0302003693,32.58889967,-73.028660171,-172.91956057,2690.0
4.6597361049,59.527226159,-78.789086845,171.71644924,2700.0
4.5186274583,85.590340551,-81.686818769,150.23472906,2710.0
4.5217513105,111.42090341,-80.700625488,134.26846529,2720.0
4.6593334891,137.52103701,-78.832528929,140.22116652,2730.0
5.047238495,164.44753254,-72.202140401,141.48312974,2740.0
6.1801809153,-167.81560542,-57.767584266,98.404496441,2750.0
9.3764908252,-148.2370059,-48.863791741,-22.797101194,2760.0
8.8252208932,-158.4564161,-48.48190614,-143.42719216,2770.0
5.9946713222,-133.59039613,-55.640377317,117.73414228,2780.0
5.1692643178,-104.33644366,-64.327934796,81.688034979,2790.0
4.9366107442,-76.211568885,-73.203843216,45.315172783,2800.0
4.9146230285,-48.617517871,-73.286890684,13.944008787,2810.0
4.8932417797,-21.321965952,-74.577475573,51.658488411,2820.0
5.0073631522,6.2751942621,-76.865255724,37.92901527,2830.0
5.3155516978,34.886270611,-71.424694199,30.99424257,2840.0
6.2069336089,64.223092362,-60.716907668,1.4429434356,2850.0
8.8487028292,88.667962076,-49.642317205,-105.18490199,2860.0
10.183287184,80.692393624,-47.662642139,126.51131074,2870.0
6.5422905177,95.968790438,-53.27582733,-3.2586347936,2880.0
5.2224462765,125.21734681,-66.893977762,-60.831213407,2890.0
4.8405634141,152.85438335,-74.937908582,-82.079634728,2900.0
4.7145214659,178.97499981,-82.70349745,-83.006744803,2910.0
4.7042666386,-155.49560969,-78.756327722,-91.180858969,2920.0
4.9089705774,-128.94589829,-78.073376181,-95.019203823,2930.0
5.313503072,-101.52675189,-77.343180739,-90.506852879,2940.0
6.1730855961,-72.205545538,-68.474975109,-115.63115533,2950.0
8.7801345539,-42.237759599,-54.809188434,158.61319432,2960.0
12.358783948,-51.566608346,-51.06867091,38.853131935,2970.0
7.7788288203,-42.026777648,-51.249757999,-61.589207993,2980.0
5.9481654049,-9.600551143,-63.955271352,-162.608182,2990.0
5.3427888477,21.000877905,-70.582233625,175.94207182,3000.0
5.136519189,49.746056392,-73.831543948,171.42059638,3010.0
5.0936082269,77.558813618,-72.475627936,-176.58023653,3020.0
5.1682304667,104.62831702,-76.682778656,-163.54225716,3030.0
5.3903303187,131.68103088,-72.704399775,129.87557814,3040.0
5.9335977435,159.31378097,-62.206923936,131.65388958,3050.0
7.5617302263,-172.60993925,-51.790588546,64.755913326,3060.0
12.414761948,-164.32629874,-44.610539246,-43.532539652,3070.0
8.3171763512,-178.0445499,-45.659646501,-149.97506314,3080.0
5.8070978285,-146.84405108,-52.952673949,63.821340086,3090.0
5.2658582493,-116.42141741,-64.789778242,30.287578649,3100.0
5.2486102524,-87.904442541,-67.498711058,57.068728241,3110.0
5.3690623466,-60.101124109,-73.190928961,70.040790534,3120.0
5.5552719718,-31.411612128,-72.220348824,38.082622082,3130.0
6.0036578639,-2.2736033274,-67.362765737,20.697845959,3140.0
6.7581861511,28.427438366,-59.262880452,5.0199252131,3150.0
8.4294341487,60.259454638,-49.602345296,-52.213276327,3160.0
13.285358079,83.052951969,-45.007358846,-144.38947554,3170.0
11.791798639,49.326754732,-46.423806609,96.32319285,3180.0
7.0473259553,81.081536229,-45.056687768,-0.62936886132,3190.0
5.7819064364,115.45570054,-62.13062051,-94.34427747,3200.0
5.4046490437,145.39531225,-71.25786127,-107.71581609,3210.0
5.46941552,173.56372565,-77.898510368,-91.671023948,3220.0
5.5323556992,-159.17540543,-74.9660258,-99.899296342,3230.0
5.9012396384,-132.11560306,-73.407589545,-125.58187604,3240.0
6.5795248089,-103.35928967,-62.506638379,-130.53900768,3250.0
8.3266021757,-72.207897217,-50.876528066,170.59168657,3260.0
13.614197285,-46.08389636,-46.659625505,81.820825756,3270.0
14.131384627,-95.540848528,-45.66580973,-45.15772259,3280.0
7.8788635512,-65.376648982,-48.192979423,-83.02811987,3290.0
6.443901713,-26.229711345,-51.666035878,131.59992198,3300.0
6.2623923482,8.2402205175,-65.669024045,124.65502181,3310.0
6.4091110007,40.646441917,-69.901533064,140.79828232,3320.0
6.6357775055,72.477624931,-70.171149931,141.96292193,3330.0
6.9851157222,103.89323803,-68.017056924,130.57764571,3340.0
7.6023904486,135.43470297,-61.955388793,112.85274218,3350.0
8.8301024838,167.57489644,-52.081384394,66.320375008,3360.0
12.321466502,-154.96085338,-48.377755426,-0.9494072149,3370.0
22.738975242,142.21627713,-38.310816526,-136.85463852,3380.0
9.1462457976,158.56479656,-50.414268671,173.8657828,3390.0
6.566957456,-158.25786137,-41.960586678,108.67052434,3400.0
6.152702385,-123.63016116,-61.17564301,1.760530534,3410.0
6.3573439276,-92.378049453,-67.475226604,8.2187695629,3420.0
6.9056314441,-61.933573406,-68.337949863,27.291849474,3430.0
7.6892558666,-31.142810888,-66.713421043,31.567581159,3440.0
9.0103730253,1.8421309161,-59.287694895,27.358529596,3450.0
11.288360585,37.407158465,-44.746624426,-38.857723106,3460.0
15.681235879,82.121388272,-48.131411064,-102.4058451,3470.0
25.998497867,-91.974062449,-39.985918656,26.676856191,3480.0
11.770235299,-2.0660574933,-53.67618241,64.927976821,3490.0
8.4220137322,56.53644702,-53.624272839,69.74319328,3500.0
7.7037032005,103.37280547,-54.055210419,-86.477534803,3510.0
7.7353372681,142.97724924,-66.888467394,-76.84492438,3520.0
8.0827655724,178.73011075,-69.330194406,-59.072970415,3530.0
8.6714764989,-147.58363731,-67.300746973,-56.730987303,3540.0
9.6999330976,-113.33103539,-59.76510547,-71.023158765,3550.0
11.640365702,-77.458066259,-54.791611645,178.38325688,3560.0
16.11974032,-33.615122964,-56.791723521,151.98192487,3570.0
24.930038407,113.62484771,-50.252339788,-115.07686598,3580.0
12.190670477,-145.12780593,-61.565308453,-75.09596676,3590.0
8.5501791468,-87.529160845,-59.623420498,-92.5004533,3600.0
8.1109757164,-39.183819359,-46.92401869,98.519806618,3610.0
8.9571933802,3.754630399,-65.707608619,95.264961514,3620.0
10.387950759,45.576140453,-70.557101042,149.30289684,3630.0
12.12800405,89.221672801,-63.954226798,-148.77555572,3640.0
13.922115012,138.85258424,-49.55543384,-109.62377573,3650.0
14.646996912,-176.27656989,-53.357078356,56.609100069,3660.0
16.153730874,-100.54374595,-58.187329544,122.10980201,3670.0
15.217881589,-26.052378776,-60.294066752,172.90423478,3680.0
12.59710902,50.261350878,-62.213727266,-159.41769368,3690.0
10.048972925,121.67284017,-60.478589833,-162.5936474,3700.0
9.3239779322,-176.67078764,-52.555205131,87.963672303,3710.0
9.9566104388,-124.44144277,-62.847591246,23.955586592,3720.0
11.537552225,-78.282657863,-62.567964198,5.9978263176,3730.0
14.050947088,-33.267109433,-49.820288119,-27.799520165,3740.0
17.817622539,16.585237537,-56.703034606,-82.400367975,3750.0
19.360214743,99.190708724,-57.098822843,-22.560982477,3760.0
16.004231006,173.89549545,-58.874291556,28.670852372,3770.0
12.3977417,-131.67292348,-59.020310497,58.081524387,3780.0
9.9222383727,-83.035203536,-52.505706086,60.948643498,3790.0
8.8355376726,-33.075050435,-45.107743633,-31.279755356,3800.0
9.5952459832,22.171725652,-51.571651235,-62.881525303,3810.0
12.677491907,83.318221699,-50.619313378,-60.811522638,3820.0
17.720397896,156.13012426,-44.302587445,-39.553831032,3830.0
19.550856334,-109.73749734,-38.112773082,163.44868929,3840.0
16.810520067,-38.96330214,-54.100174637,-103.89992247,3850.0
14.455800791,12.134603741,-58.613396603,-79.144394423,3860.0
12.542663991,57.830680793,-60.069354636,-71.044220003,3870.0
10.849016086,101.58568887,-58.349686142,-78.154804337,3880.0
9.5366878505,146.12173463,-55.911250171,-111.39222279,3890.0
8.621693566,-167.73646182,-59.090384128,-147.67970423,3900.0
8.8443431948,-118.05943137,-60.044755491,-168.38922742,3910.0
11.836287527,-65.11247055,-55.822720138,176.65113322,3920.0
21.619655471,-12.19559821,-40.614884694,157.2013883,3930.0
22.433273814,-156.50575112,-42.458793099,160.57176854,3940.0
14.149812507,-117.85025149,-62.097594111,166.44156498,3950.0
10.689977273,-84.539578236,-65.906449738,177.10442157,3960.0
9.2059095795,-53.800158988,-65.390867866,166.56038483,3970.0
8.1919904521,-22.778069122,-62.331640311,121.96614287,3980.0
7.5924567477,9.7041929497,-64.591682034,89.168513378,3990.0
7.4419260991,45.201124629,-66.911886219,87.332869292,4000.0
8.3298756258,87.871758904,-65.921393788,83.540528843,4010.0
12.131821424,137.96746138,-60.341628881,74.230625991,4020.0
26.700211915,150.17243189,-41.086990424,5.5202061527,4030.0
16.61539716,84.100753672,-47.450424511,126.12194595,4040.0
11.893795434,118.71901944,-68.321418246,88.042375083,4050.0
9.9104826287,154.21806847,-71.03095157,94.104653963,4060.0
8.5891708499,-173.16896779,-66.527748031,68.275080747,4070.0
7.5959099095,-142.27935531,-65.908898131,14.615280627,4080.0
6.9003868761,-112.22309562,-70.721161961,-32.25011973,4090.0
6.5349098912,-81.412153194,-70.150321921,-63.177854028,4100.0
6.7697068472,-48.081148382,-67.556479398,-70.974997835,4110.0
8.8317740017,-12.285868551,-62.325306152,-90.922083156,4120.0
14.865259802,-3.6778389066,-51.149742648,-166.96548987,4130.0
12.133311562,-24.792053488,-48.23982944,19.477643847,4140.0
9.0022036175,-1.8267083202,-63.288344221,-61.506410867,4150.0
7.6725250195,26.035899825,-74.050870109,-59.174799812,4160.0
7.0540289442,53.722775234,-68.826502066,-51.193231762,4170.0
6.7916147176,82.047095514,-66.138362937,-107.66242811,4180.0
6.6377298554,111.71585065,-69.201770072,-144.9801017,4190.0
6.5787516727,142.73794488,-70.96149087,-153.4106661,4200.0
6.8932196426,176.17635694,-71.153760479,-165.75482101,4210.0
8.4930360031,-147.56219527,-66.461289832,155.56642657,4220.0
13.035128266,-129.93399396,-54.479278075,85.599227836,4230.0
11.527058569,-142.39230863,-54.680077929,-32.161840527,4240.0
8.4914813197,-119.69147411,-65.135392116,-130.26613644,4250.0
7.1521879241,-93.062815558,-71.413359284,-175.27276813,4260.0
6.4396652681,-66.307615631,-73.460949852,-175.37361447,4270.0
5.9092618057,-40.359265179,-71.845695478,131.79514817,4280.0
5.6401813233,-15.119815864,-74.552292946,64.17139107,4290.0
5.5932037869,10.67586536,-75.823825533,55.130208899,4300.0
5.838184361,38.419412506,-75.702410869,83.723590421,4310.0
6.9487972095,68.676255017,-75.656016226,6.4761557182,4320.0
10.301281832,89.684311359,-62.021913051,-27.187422778,4330.0
10.044548478,83.894692827,-61.188038798,-130.32851146,4340.0
7.7927072345,105.99868417,-71.0849462,149.17250775,4350.0
6.9081072051,133.90915033,-74.891363524,81.426186193,4360.0
6.3974818867,161.33024589,-78.232639929,57.689344017,4370.0
6.0881858306,-171.37681127,-79.479171837,63.626166077,4380.0
5.8789280827,-144.15638531,-80.642352553,-4.6125452919,4390.0
5.7437186216,-117.35321345,-83.679164844,-23.248370041,4400.0
5.7347942314,-89.622970304,-82.668315576,-86.356590119,4410.0
6.154202736,-61.071444269,-74.10120586,-76.688743165,4420.0
8.0009138221,-37.376115432,-66.814785058,-121.45272816,4430.0
8.98000969,-34.807370565,-66.075254421,129.80411134,4440.0
6.925037344,-18.929045081,-72.969735901,-3.6012687122,4450.0
5.9495785389,5.4833838387,-74.775533491,-14.634288998,4460.0
5.61147114,29.703828317,-83.560361658,-36.071284429,4470.0
5.5167212674,54.104311469,-78.054351416,-55.397416376,4480.0
5.5069715948,79.463150184,-75.043787106,-74.898203147,4490.0
5.5308943831,105.43884138,-80.869576727,-149.9252335,4500.0
5.7761047463,132.0830859,-77.359728798,-170.74696557,4510.0
6.3242613481,160.28864195,-77.143686943,178.72364303,4520.0
7.8948963563,-172.68376628,-73.043898844,129.60964578,4530.0
9.2064258476,-163.14485362,-72.083173018,17.314450343,4540.0
7.5076537782,-147.21167957,-72.756243543,-103.86528674,4550.0
6.4266565284,-121.89255108,-80.149004432,-130.42225848,4560.0
5.7698053389,-95.778621821,-92.409016277,152.63707403,4570.0
5.4799872813,-69.991553624,-85.560975645,178.33480148,4580.0
5.2365601928,-45.284259591,-95.164824849,32.989857241,4590.0
5.0488719666,-21.736323559,-84.235963508,28.113858886,4600.0
5.0260390684,1.8758045189,-88.937077297,51.019426998,4610.0
5.3864733466,27.012454433,-90.969577256,-118.77859786,4620.0
6.3980475751,52.007618174,-87.128511133,-119.90686178,4630.0
7.7682225702,63.767861675,-74.160495348,107.43718019,4640.0
6.6534452363,77.659253192,-76.225986295,43.374046913,4650.0
5.9073225841,102.0227226,-90.990507334,23.844003274,4660.0
5.6025043694,126.55771845,-89.043375623,-75.592088271,4670.0
5.4771516702,151.49268585,-97.926514249,-75.457154229,4680.0
5.4721144452,176.79614225,-97.424329802,9.7639135896,4690.0
5.5676260156,-157.59738592,-91.713109424,-5.5967903433,4700.0
5.6600231115,-130.90291346,-81.740594424,-142.27408376,4710.0
5.7303304512,-103.82662352,-80.280547041,-127.67411994,4720.0
6.2876165465,-77.813151013,-91.47541444,121.23554272,4730.0
7.7952717967,-58.742842983,-74.542073702,76.309979164,4740.0
7.0014945388,-47.94966951,-77.403134466,5.877863346,4750.0
5.8067036209,-25.096415352,-92.552449351,-62.675089354,4760.0
5.3547697612,-0.86132730284,-92.795032816,-161.2217172,4770.0
5.2137104492,22.97296744,-88.723511489,-139.65642328,4780.0
5.1157901455,46.569901851,-88.53426538,-79.417832609,4790.0
5.0359436571,71.384250755,-94.440194382,97.582401318,4800.0
5.1775172001,95.488073314,-80.179659617,137.53710374,4810.0
5.3231473966,119.41602647,-85.328889659,174.52552883,4820.0
5.9778333846,144.86204637,-87.342640016,12.790643989,4830.0
7.4380158288,165.5205626,-73.782845945,17.693453621,4840.0
7.1246969146,178.42974861,-76.87546873,-46.387644935,4850.0
6.1495257938,-158.03542655,-89.340977318,151.88668341,4860.0
5.7221763007,-132.09738374,-81.878400959,132.32206715,4870.0
5.4379725678,-106.43060741,-82.87938399,161.55642377,4880.0
5.1520037619,-81.618062741,-93.663178244,-39.364326027,4890.0
4.9766381912,-58.53955178,-74.464591289,29.096454062,4900.0
5.0900309503,-34.818274084,-82.106649719,20.520029228,4910.0
5.1025235673,-8.7473822612,-87.134326688,-75.829690481,4920.0
5.5078450959,14.219639534,-75.001905492,-114.25136558,4930.0
6.4925357254,34.858379681,-71.562572696,-145.13091945,4940.0
6.5979819536,46.747013394,-80.121605662,142.21440504,4950.0
5.6590144977,66.798223887,-77.915363739,-36.959634806,4960.0
5.2858039161,90.946063229,-77.827722242,-28.306711362,4970.0
5.1553240199,114.61232098,-83.51011622,21.996040259,4980.0
5.1727382463,138.18807751,-85.419211362,-170.93359437,4990.0
5.3706242447,162.62272722,-73.903995897,-119.43082516,5000.0
5.6100913492,-171.96929344,-72.02228823,-102.65234558,5010.0
5.5255001517,-146.39241044,-79.986169041,-47.015105503,5020.0
6.0684058537,-120.35657902,-71.646217948,95.867947422,5030.0
7.0837210386,-96.036669105,-65.529835129,76.525250889,5040.0
7.5116685888,-84.237860189,-80.929698275,-10.634103913,5050.0
6.0447321277,-62.528456205,-75.90410288,-109.11726335,5060.0
5.4147327969,-36.772712026,-81.247349062,-99.092235194,5070.0
5.1551806684,-12.094861146,-83.955446679,-159.80644117,5080.0
4.985370655,13.395640818,-73.998785277,171.52992033,5090.0
4.9090408979,34.873663438,-75.494742099,-116.65548725,5100.0
5.0393266978,58.272000827,-76.476379985,-70.642211598,5110.0
5.2392600407,82.5867414,-83.027397347,-31.434505742,5120.0
5.5965071423,106.32071602,-74.260128395,93.623554733,5130.0
6.5951014652,128.41168364,-66.800503126,54.447061107,5140.0
7.0649322627,138.97773706,-68.814788636,-135.04432923,5150.0
5.6957972578,159.83130743,-67.125321741,-162.38625457,5160.0
5.1723076856,-174.124775,-73.871477486,-112.36771829,5170.0
5.061986328,-149.18918756,-75.635601386,75.788990438,5180.0
5.1277428976,-124.66051656,-67.471536352,165.4500887,5190.0
5.1845484471,-102.28943831,-69.979221532,-122.04146779,5200.0
5.3460681273,-77.022711157,-68.884739268,-50.747727406,5210.0
5.6117707244,-50.835417764,-68.427748976,57.263753998,5220.0
5.7888669383,-24.51157315,-66.157179417,135.23563696,5230.0
6.4780237391,-0.28145514598,-64.447404641,92.616750227,5240.0
7.6449223777,10.140300147,-54.675163337,-137.05183518,5250.0
5.6133773172,27.179136232,-59.923163309,-162.60966961,5260.0
4.6536639375,53.275583127,-73.54170224,-80.596869512,5270.0
4.1802370648,77.491422996,-59.996803795,67.945217712,5280.0
