S11m,S11p,S21m,S21p,Frequency
5.8622949324,-107.13854901,-56.050034215,-158.92242327,2000.0
5.5640735248,-79.000210313,-63.826356402,-129.63345456,2010.0
5.4178339657,-47.652027871,-58.43199859,-114.68602425,2020.0
5.8482506971,-14.8959896,-41.082248453,-177.91476467,2030.0
7.1284032515,18.597835439,-48.846995611,67.303869461,2040.0
10.959003323,47.355974659,-47.106558629,21.925295532,2050.0
13.077550079,27.011017085,-45.738052438,-70.356736273,2060.0
8.5229899378,40.501040879,-51.601345794,-122.67044369,2070.0
6.5890696749,69.478775467,-51.10484685,-155.49400181,2080.0
5.7917430377,98.448380663,-48.656101829,160.49576399,2090.0
5.423144973,126.42979547,-51.016597518,82.542474533,2100.0
5.1055916242,153.22944569,-57.07537478,56.828182132,2110.0
5.0347162073,-177.95844081,-55.989896783,51.183787792,2120.0
5.3365138803,-147.44257712,-45.900694381,11.89161054,2130.0
6.4284326588,-115.66848919,-49.827547934,-116.31544476,2140.0
9.7678234633,-88.960261729,-50.596119929,-152.88130996,2150.0
11.716547604,-103.09903543,-50.296024786,126.96580487,2160.0
7.8778297623,-89.435175215,-54.696789802,82.472577753,2170.0
6.1810554945,-60.563245212,-56.443921143,56.662972604,2180.0
5.4554930596,-31.780395613,-54.353220558,18.77830676,2190.0
5.0937959755,-3.7749461762,-53.664003807,-27.003857686,2200.0
4.9615100158,23.792763524,-57.525684786,-71.831603482,2210.0
4.9513562416,51.863225695,-59.766081369,-84.254996341,2220.0
5.154996379,80.885178822,-52.920614248,-88.242121495,2230.0
6.0464163294,111.54846777,-47.056679321,148.04449889,2240.0
8.8952623852,139.01054642,-49.429267722,96.625237597,2250.0
11.144728266,130.85813517,-49.047920899,14.970652023,2260.0
7.5915561307,142.03432915,-55.587780501,-41.176138177,2270.0
5.9580602806,169.70769041,-57.685819061,-81.624341751,2280.0
5.2673901077,-162.45042052,-58.479165141,-118.97701037,2290.0
4.963242915,-134.93331745,-62.089027079,-156.45790289,2300.0
4.8556380864,-107.52887297,-65.143977466,163.51516078,2310.0
4.8398183367,-79.759050294,-68.214059844,163.90403484,2320.0
5.0464396229,-51.457154563,-59.005154388,174.93608227,2330.0
5.7845434339,-21.08165711,-43.207536445,35.245858884,2340.0
8.2261709023,7.7846881552,-51.099745105,-42.535168664,2350.0
10.957855421,3.1618760357,-53.116339543,-128.49653665,2360.0
7.4598078159,12.466635419,-61.510652179,163.76838011,2370.0
5.7370514961,39.977306131,-66.862461323,145.83882324,2380.0
5.0648479138,67.783742145,-71.664686227,135.8724253,2390.0
4.7206514699,94.722213719,-72.423093104,111.68281893,2400.0
4.5907532942,121.02452335,-72.775009018,92.111008201,2410.0
4.6126041386,147.46475501,-72.091294759,74.223341161,2420.0
4.8180745214,174.60764972,-69.152750595,71.035452291,2430.0
5.4398937882,-156.77803831,-55.567037274,18.527402022,2440.0
7.4307998137,-128.39015109,-57.523007327,-93.727209771,2450.0
10.473726007,-125.83232447,-56.475776179,-163.98086348,2460.0
7.5383617427,-120.54319139,-59.23259757,123.18709222,2470.0
5.7982190184,-93.051285897,-63.405909215,71.638126164,2480.0
5.0932597458,-64.655313786,-66.509385979,25.545624761,2490.0
4.8218789751,-37.408494638,-69.094265572,-2.906620429,2500.0
4.6903386968,-10.536819344,-70.33619499,-27.563716242,2510.0
4.6730369722,16.334861407,-70.174409631,-42.658645521,2520.0
4.7547780384,43.396094546,-70.368663459,-59.325185244,2530.0
5.2315709046,71.46622363,-60.899214027,-71.454909045,2540.0
6.7983710813,99.758409442,-53.779308135,168.59295353,2550.0
9.8483854972,107.96793412,-54.271899254,82.5431699,2560.0
7.5447443944,109.25885921,-59.734882399,-6.4308956473,2570.0
5.6046683735,134.64583709,-66.650370678,-66.076354745,2580.0
4.9354856,162.1155202,-73.314612368,-98.185243038,2590.0
4.6983984509,-171.27274231,-77.148522747,-126.67916651,2600.0
4.6289888873,-144.8920906,-77.665053226,-129.63264625,2610.0
4.6656698865,-118.28929916,-79.217281209,-139.15748634,2620.0
4.8672160872,-91.354402496,-74.995903759,-139.73484781,2630.0
5.3371824996,-62.702226365,-65.274007342,-154.90779934,2640.0
6.6519458558,-32.328074011,-50.674638795,106.05921641,2650.0
10.293125022,-16.191542532,-52.398156825,-10.123283353,2660.0
8.4174949077,-22.244883532,-59.432060103,-115.08271413,2670.0
6.0186836751,3.4578421413,-69.961737381,-161.4159597,2680.0
5.1102092077,32.217613516,-77.248127353,178.41262826,2690.0
4.7039056252,59.204398996,-83.087494612,169.15272175,2700.0
4.5460891877,85.287480289,-85.759899367,157.44177797,2710.0
4.538557876,111.09330779,-83.4365052,147.58146025,2720.0
4.6636952591,137.10304298,-79.486937896,151.75845966,2730.0
5.0202938072,163.81993974,-71.796758116,141.99022162,2740.0
6.0295189404,-168.71398879,-57.977432607,91.389855888,2750.0
8.8943797814,-147.0106126,-50.099168008,-27.880469323,2760.0
9.2014838868,-155.84946641,-48.888508054,-144.29088327,2770.0
6.2071454692,-133.860285,-56.097648831,110.54449565,2780.0
5.2587555989,-104.73958936,-65.697425858,69.986271258,2790.0
4.983303967,-76.553650371,-75.864250531,32.64973696,2800.0
4.9438544211,-48.930878251,-77.252305005,3.4276694269,2810.0
4.9112208046,-21.648994636,-80.051432128,44.756537314,2820.0
5.013852315,5.8691861679,-83.814704341,42.343556626,2830.0
5.2975255843,34.285257507,-77.900815624,50.836681638,2840.0
6.0939822546,63.247783618,-66.426320922,22.543975546,2850.0
8.3841822602,88.737741179,-55.472888116,-80.967645355,2860.0
10.360005722,85.008611815,-52.454207693,157.42476974,2870.0
6.831680303,96.005141141,-57.524206612,23.982245707,2880.0
5.3377453892,124.80718487,-71.406740975,-30.376972145,2890.0
4.8962208518,152.49625642,-78.466302994,-45.388424867,2900.0
4.7457144788,178.65145082,-85.463983121,-48.47815361,2910.0
4.7219247861,-155.83079547,-81.271177242,-58.753235029,2920.0
4.91526011,-129.35183684,-80.904047453,-62.760431417,2930.0
5.2997068842,-102.10520795,-80.220876946,-53.882134121,2940.0
6.0944980808,-73.159074935,-70.08575107,-84.362239213,2950.0
8.367274886,-43.392132593,-57.290293186,-177.64122631,2960.0
12.240901156,-44.995252891,-52.942721204,64.217447888,2970.0
8.1869138226,-41.572977818,-52.862131649,-50.220249758,2980.0
6.1086723089,-10.069434956,-65.942680831,-156.85563241,2990.0
5.4148099578,20.594263266,-73.052701009,177.7876239,3000.0
5.1751321142,49.370511537,-76.74788424,172.22153183,3010.0
5.1163259702,77.185156449,-75.739129237,-176.13822086,3020.0
5.1785168864,104.18978522,-80.066734554,-162.05253888,3030.0
5.3814757938,131.07510605,-76.38491189,132.76102517,3040.0
5.8685687514,158.35397922,-66.073834269,135.2996958,3050.0
7.2719889506,-173.85759083,-56.069984364,70.180075181,3060.0
11.654331133,-160.08030917,-49.549606964,-29.86349535,3070.0
8.8593054842,-176.64636801,-49.04680058,-135.93854776,3080.0
6.0033676894,-147.41018655,-56.337152814,77.187434393,3090.0
5.3451650167,-116.93642282,-68.137001584,43.354137014,3100.0
5.2896043874,-88.350322383,-70.686096072,72.085778736,3110.0
5.391269886,-60.542296215,-75.969239352,84.177418674,3120.0
5.564751904,-31.920680216,-75.175444099,51.129350684,3130.0
5.9951755341,-2.9765406853,-70.535762045,35.063909477,3140.0
6.7010707619,27.285906714,-62.548024217,19.804396881,3150.0
8.1661853814,58.371660205,-53.372525728,-36.731859818,3160.0
12.242237013,83.932769495,-49.582462815,-122.92934096,3170.0
12.514412047,54.170983832,-48.762010295,121.78213809,3180.0
7.3806453499,80.643603921,-47.650044307,14.494786337,3190.0
5.9038542799,114.8449483,-65.374944526,-83.220421705,3200.0
5.4599773325,144.8859723,-75.585761532,-100.06595627,3210.0
5.4982948166,173.08194348,-83.14834551,-79.447753489,3220.0
5.5441421287,-159.70251222,-80.377212064,-84.110210512,3230.0
5.8926497165,-132.80492644,-79.041247668,-106.64367784,3240.0
6.5297880249,-104.40097518,-67.577954292,-109.49736886,3250.0
8.1263204259,-74.067624081,-55.641318039,-170.18854395,3260.0
12.555524598,-47.463020108,-51.804452488,102.68257087,3270.0
15.060017307,-87.52683254,-47.99229382,-17.852306854,3280.0
8.3608090103,-65.951721775,-50.484431023,-68.488413097,3290.0
6.6222593997,-27.1521713,-54.187806515,141.79697004,3300.0
6.342395592,7.4656397805,-68.33620162,132.55822114,3310.0
6.4500456681,39.9307313,-73.029424935,149.62659704,3320.0
6.6542766639,71.707025632,-73.165159055,152.51104884,3330.0
6.9795991478,102.92443122,-71.035254598,141.69631865,3340.0
7.5492120898,134.03905715,-65.014707819,125.90215792,3350.0
8.6379418921,165.35526728,-55.029276868,80.4827091,3360.0
11.618175594,-158.68653139,-51.485329514,12.694299754,3370.0
22.537750067,171.31963262,-40.780829784,-91.098002436,3380.0
9.9155381054,158.50188988,-51.661423851,-169.65494153,3390.0
6.8187984004,-159.3159458,-43.513804754,124.28601655,3400.0
6.2577947894,-124.54195391,-62.357636593,17.857712617,3410.0
6.4066616017,-93.212782969,-68.686924589,23.219109867,3420.0
6.9234203449,-62.830076515,-69.255164773,43.99294459,3430.0
7.6726675721,-32.258132971,-67.625072423,47.545932887,3440.0
8.9304338664,0.20773363327,-59.984129218,43.719417911,3450.0
11.033763829,34.599039119,-45.560521585,-24.40603982,3460.0
14.850182515,76.418610693,-49.815863999,-92.10919268,3470.0
33.465188378,-115.84002781,-33.884010716,15.555246374,3480.0
12.91047253,-3.4977884906,-54.269107571,79.495885117,3490.0
8.855271252,54.605338996,-54.55170154,82.728518465,3500.0
7.8860183293,101.78027694,-55.747808135,-73.382288843,3510.0
7.8188394023,141.60140685,-68.780602145,-61.646864952,3520.0
8.114380193,177.35614423,-71.472337092,-38.773332626,3530.0
8.6578393981,-149.17733863,-68.882742199,-31.27498994,3540.0
9.63397508,-115.47212763,-61.049312296,-38.051758958,3550.0
11.45452712,-80.877502159,-55.290109463,-143.8427312,3560.0
15.540681126,-41.02898941,-57.073636012,-165.56734318,3570.0
29.454720064,87.052862305,-44.628640074,-82.060891544,3580.0
13.39204449,-146.09579506,-59.63552975,-17.224662465,3590.0
9.0540696809,-89.594532225,-59.240359861,-37.857580661,3600.0
8.318177605,-41.221676342,-46.259735589,141.42787254,3610.0
9.0314076073,1.8533665961,-64.854703006,125.31767653,3620.0
10.389764022,43.581289603,-69.239937402,175.96260771,3630.0
12.080174557,86.745693357,-60.891800467,-136.73962808,3640.0
13.878581116,135.2853585,-46.959842377,-107.61198511,3650.0
14.598211806,178.92874473,-51.18405425,48.164536457,3660.0
16.641735323,-107.13216333,-56.21130924,99.852892911,3670.0
16.15984761,-31.518532691,-60.14218576,143.62518737,3680.0
13.551712319,46.746518446,-63.338065387,174.44193947,3690.0
10.689066015,118.50769224,-61.76952803,173.90096055,3700.0
9.6441692103,-179.7119455,-51.651198519,61.258397957,3710.0
10.08135819,-127.18580188,-62.280335124,-9.9008855729,3720.0
11.546976482,-81.015759401,-62.551167325,-14.476110784,3730.0
13.976665119,-36.611702932,-48.972840618,-44.637379654,3740.0
17.703782065,11.155569907,-56.035466656,-102.72454782,3750.0
19.924260367,92.5526248,-56.845680792,-47.070350309,3760.0
16.796103652,170.98255583,-59.372063984,4.5044007434,3770.0
13.013701651,-133.41088782,-61.350285461,33.000395627,3780.0
10.400716229,-84.956047449,-56.497756137,44.527285477,3790.0
9.1943403157,-35.807649152,-49.09707973,-43.615965527,3800.0
9.7779632935,18.34960255,-55.712563167,-77.700437448,3810.0
12.64800274,78.380721088,-54.870290682,-80.15243668,3820.0
17.69565108,149.08366598,-48.170977883,-63.972998783,3830.0
20.182104171,-115.8906365,-42.203183321,139.01077137,3840.0
17.412620594,-41.734734734,-58.264445076,-117.45783407,3850.0
14.937862463,10.389549982,-61.812741411,-87.508892241,3860.0
12.954861719,56.499974234,-63.149429935,-77.091044145,3870.0
11.208937446,100.29540192,-61.426031439,-83.353489788,3880.0
9.8529324023,144.62109599,-59.464872828,-115.20276723,3890.0
8.8844460812,-169.79527149,-62.276823903,-147.99685282,3900.0
8.9805442836,-121.1648174,-63.585671577,-168.9419893,3910.0
11.654059258,-69.619323792,-59.682321009,175.719043,3920.0
20.401067421,-20.365347752,-45.078425304,150.7808881,3930.0
24.059459857,-152.33291634,-43.387627082,160.88840773,3940.0
14.670527944,-117.56927256,-64.356233328,155.43208955,3950.0
11.008327677,-85.059603571,-68.714158697,169.36047862,3960.0
9.4367091927,-54.361253815,-68.165668368,155.32068897,3970.0
8.383239619,-23.506875212,-64.869232768,109.28750213,3980.0
7.7639868419,8.7245914211,-67.88968552,73.027234711,3990.0
7.592930223,43.696397852,-71.108551202,72.070501323,4000.0
8.3962625112,85.182475346,-70.246790006,65.219000376,4010.0
11.77309998,133.32143184,-66.483979202,46.699340863,4020.0
23.56752181,154.28454608,-52.153374187,-14.950350661,4030.0
17.398133996,86.903560259,-55.131621733,101.0739005,4040.0
12.285169235,118.8341361,-75.841745439,39.862327512,4050.0
10.147171691,153.90094756,-78.925821655,67.333482988,4060.0
8.7578176125,-173.60377592,-72.582044592,47.795207422,4070.0
7.7294331134,-142.79132568,-71.155781529,-2.5461682171,4080.0
7.0137473485,-112.86202706,-75.964253034,-49.495396369,4090.0
6.6318514952,-82.331232603,-75.837376428,-77.934853104,4100.0
6.8160697962,-49.641717686,-73.661023594,-80.366651768,4110.0
8.6052395303,-14.795663845,-69.054089678,-93.686571585,4120.0
14.0152094,-1.0342676826,-58.452633923,-160.22572691,4130.0
12.522357443,-22.244791077,-54.207835585,25.302715859,4140.0
9.2540961943,-1.7938360038,-69.790232133,-57.883206656,4150.0
7.8294840578,25.673143521,-80.693062018,-55.677326753,4160.0
7.1686705561,53.246107848,-75.255100984,-44.133265731,4170.0
6.8871504934,81.503245489,-71.581951574,-97.240181549,4180.0
6.7229326521,111.0781747,-74.330547007,-135.21065032,4190.0
6.6529716109,141.88556856,-75.786304183,-144.41824785,4200.0
6.9286912799,174.81427433,-75.964161561,-153.53684147,4210.0
8.3153090073,-149.74208544,-71.409171317,171.48325413,4220.0
12.34151084,-128.63465019,-59.120847653,110.13024686,4230.0
11.779926156,-139.49785512,-57.988981226,-5.0646786099,4240.0
8.7274183394,-119.48722972,-68.252983241,-105.16060736,4250.0
7.2884504875,-93.373796055,-74.530835654,-151.53275885,4260.0
6.5322754272,-66.698977251,-76.813644491,-158.95185977,4270.0
5.9806508157,-40.776639129,-76.133313727,146.57429813,4280.0
5.6991937804,-15.596290533,-79.350846161,80.303212549,4290.0
5.6396691073,10.057901042,-80.338878586,73.258825913,4300.0
5.8558543331,37.474024431,-79.897170713,102.40070935,4310.0
6.8232283547,67.157542084,-79.700223555,26.900545832,4320.0
9.7580331642,90.489119127,-65.89077738,-0.12665643163,4330.0
10.262895774,86.528058517,-63.606012815,-99.725161537,4340.0
8.0271071993,106.13156269,-72.848045863,177.20695271,4350.0
7.0418627762,133.51112157,-76.975293742,104.39766525,4360.0
6.4841815924,160.8726009,-82.296856297,83.791734941,4370.0
6.1550321123,-171.8355791,-82.171899392,108.97244247,4380.0
5.9342284947,-144.63555425,-82.886472051,29.124279015,4390.0
5.7854837247,-117.92342439,-85.890153568,3.0184133294,4400.0
5.7498468768,-90.416156305,-84.628148829,-63.138898316,4410.0
6.0722820203,-62.261895042,-76.062062706,-55.612118004,4420.0
7.6091081203,-37.600073521,-68.918025191,-99.457558974,4430.0
9.0555125138,-31.677799227,-67.122227141,153.14808487,4440.0
7.145925372,-18.752233627,-73.81445298,11.702184652,4450.0
6.0632818154,5.1272848336,-76.110008078,0.3935334766,4460.0
5.6797797001,29.280422028,-85.32155509,-19.524607549,4470.0
5.5652038139,53.672706121,-79.823374633,-34.494128165,4480.0
5.5445697215,79.011148342,-76.735923455,-57.541276556,4490.0
5.5559017523,104.91331603,-82.961096681,-133.57785319,4500.0
5.775573121,131.37024893,-80.297414507,-154.22614536,4510.0
6.2382876921,159.24796344,-80.863344785,-163.0400426,4520.0
7.5320854737,-173.0389716,-77.325797316,156.39834918,4530.0
9.1330114605,-159.78902186,-75.667269842,50.515370651,4540.0
7.8210896075,-146.59306483,-75.69152396,-73.199291274,4550.0
6.587748486,-122.39821324,-84.100515384,-102.79089338,4560.0
5.8523857116,-96.314777039,-98.738580337,-172.79969595,4570.0
5.5329098453,-70.492706326,-94.47338751,-139.61199951,4580.0
5.2745672421,-45.781307877,-111.90816025,23.686162419,4590.0
5.0742928932,-22.276033599,-90.347093225,-47.892113264,4600.0
5.0284993807,1.2178945657,-91.113772369,-5.503919141,4610.0
5.3251472521,26.101145884,-92.913865248,-170.53759199,4620.0
6.1116381461,51.364649884,-89.15517006,-158.12023538,4630.0
7.625121983,66.85220674,-75.1630678,80.614183393,4640.0
6.955316813,78.438391505,-77.182541685,12.310565391,4650.0
6.0746120613,101.44029733,-93.221330337,-3.1159237196,4660.0
5.6796909085,125.90427379,-91.437915146,-93.380488399,4670.0
5.5192754531,150.8917275,-100.97030068,-81.816564077,4680.0
5.4979527962,176.19739497,-102.82583841,-23.927706127,4690.0
5.5823734286,-158.26064875,-97.647061034,-21.164909675,4700.0
5.6560935986,-131.71010805,-88.624445608,-140.97783587,4710.0
5.6682659932,-104.88603046,-86.195713882,-114.17595993,4720.0
6.0235901288,-78.838486983,-96.706447291,143.35236161,4730.0
7.3523663192,-55.94583333,-77.755951358,111.80436794,4740.0
7.4534350676,-46.166351214,-77.030294666,39.659247454,4750.0
6.0385685304,-25.840626492,-90.700420104,-37.527111684,4760.0
5.4532036185,-1.7166386891,-90.541743226,-139.53661613,4770.0
5.2633956266,22.21083983,-86.230800755,-128.00044717,4780.0
5.146302657,45.859445532,-88.326067483,-77.890702588,4790.0
5.0569874904,70.666297126,-95.004371,100.77407634,4800.0
5.1788256597,94.672266897,-81.012382117,139.27063179,4810.0
5.2650443324,118.39772603,-86.492114819,176.52042304,4820.0
5.732178668,143.85575052,-88.855830163,9.792408836,4830.0
6.9855790016,167.80213957,-75.884870561,17.083473487,4840.0
7.548606594,-178.62826952,-78.37099852,-51.200038928,4850.0
6.4827786688,-159.02961061,-91.738510387,128.78670804,4860.0
5.8436413797,-133.41629318,-85.328823289,106.7789281,4870.0
5.4972257894,-107.58465187,-85.566050277,136.23015938,4880.0
5.1994671211,-82.61066204,-96.802007001,-59.463088406,4890.0
5.0142719314,-59.407804357,-77.196512905,9.6096533432,4900.0
5.110226143,-35.720857439,-85.375705598,1.0073342095,4910.0
5.0823828717,-9.8255799893,-91.082010557,-97.69119354,4920.0
5.3339016814,12.946376043,-79.280624966,-129.17574571,4930.0
5.9798649809,35.794871776,-76.122685602,-153.28537319,4940.0
6.8991587105,51.045434353,-82.428640472,143.26819678,4950.0
6.109694401,65.892401367,-78.265226335,-43.950008076,4960.0
5.4516296203,89.075913111,-77.691806438,-39.56897615,4970.0
5.2268959368,112.83380241,-83.745203561,8.9541766317,4980.0
5.2386803488,136.62351423,-86.637375274,175.52761037,4990.0
5.4385039366,161.29541603,-75.424187685,-135.24908171,5000.0
5.6555338583,-173.22655715,-73.588386267,-119.62717135,5010.0
5.511238911,-147.77644425,-82.311689839,-63.35182519,5020.0
5.8834262542,-122.13946404,-74.208014143,83.900060035,5030.0
6.3719098422,-96.214509384,-68.866598973,76.480207431,5040.0
7.6413608616,-75.299498191,-81.936037698,12.137791141,5050.0
6.9628057522,-63.402615989,-73.799591202,-107.33860602,5060.0
5.7811652691,-39.585598977,-80.340493314,-114.73818767,5070.0
5.375286986,-14.493397684,-85.095708754,179.30129638,5080.0
5.170768774,11.743197952,-76.912068479,140.80081509,5090.0
5.032581981,33.695315922,-78.811810556,-152.32561583,5100.0
5.1077180433,57.208313442,-80.121738071,-108.074708,5110.0
5.2427545765,81.365588215,-86.628893448,-65.602204568,5120.0
5.4439506527,104.79010705,-78.824886345,68.181071646,5130.0
5.9647985688,128.31781183,-73.358551665,44.67821021,5140.0
7.1559671114,148.68603207,-73.940809379,-101.45637932,5150.0
7.2228519575,158.89108481,-67.400329815,-126.09943298,5160.0
5.9144950509,-179.36657234,-74.561564221,-91.87979323,5170.0
5.5627852378,-152.96970932,-79.055589122,86.486187369,5180.0
5.4898705128,-126.34366166,-72.403579733,170.08945944,5190.0
5.3903245758,-103.26777049,-74.417582208,-124.42629114,5200.0
5.4677937298,-77.948422656,-72.835869683,-56.479820558,5210.0
5.6674826352,-52.033290082,-72.223996043,52.68482205,5220.0
5.7119346287,-26.234928828,-70.73708226,131.54767414,5230.0
5.9190242336,-1.8785237857,-71.035423091,98.109160818,5240.0
6.8547308123,20.978892089,-62.048029646,-89.379025459,5250.0
7.9029990592,31.861006478,-60.162164343,-104.77551907,5260.0
6.207775045,47.280356623,-74.500516376,-46.186456302,5270.0
5.2418290682,73.468197161,-64.013295153,88.646585357,5280.0
