S11m,S11p,S21m,S21p,Frequency
5.5409655012,-60.089041787,-41.833802168,142.21644247,2000.0
5.8946637961,-36.852898686,-48.4016809,125.45228749,2010.0
6.1060314217,-12.072237548,-55.352107569,145.91986069,2020.0
6.1144961969,13.695652292,-54.914294014,153.70174016,2030.0
5.9328851747,39.857135096,-55.911564494,148.3103328,2040.0
5.6057446143,65.659863506,-56.189450913,176.38686776,2050.0
5.224767125,90.635253485,-43.083971443,171.75606461,2060.0
4.8886770319,114.3120779,-41.246059261,71.890717447,2070.0
4.6972982977,136.60116912,-47.26090771,39.517932664,2080.0
4.7039780045,158.02524178,-51.16992002,21.352054307,2090.0
4.8905785759,179.61546874,-56.251770215,-4.9921176414,2100.0
5.1331826796,-157.84391515,-65.408649753,-70.394438871,2110.0
5.3029333418,-134.22206068,-66.649687447,175.33228683,2120.0
5.3537910098,-109.88117396,-60.324879968,-179.63191605,2130.0
5.2917905585,-85.149026676,-51.883742548,163.96849485,2140.0
5.1381771871,-60.331583022,-36.633749267,118.02945329,2150.0
4.9366244578,-35.83385752,-43.915403953,-23.867399699,2160.0
4.748176977,-11.885030645,-49.285693496,-43.995874516,2170.0
4.6239156617,11.470424545,-51.220139823,-58.724011046,2180.0
4.5874652972,34.255368584,-51.88620701,-75.054216491,2190.0
4.6745411774,56.833659143,-52.161426095,-86.938342214,2200.0
4.8143267139,79.910526771,-51.277834039,-98.565595248,2210.0
4.8965886288,103.4235457,-52.067146944,-123.12318329,2220.0
4.9302634189,127.18165176,-54.815817251,-103.44632302,2230.0
4.904604569,151.12059259,-46.973434009,-78.377484704,2240.0
4.8233129603,175.02742194,-49.894461046,102.8450067,2250.0
4.7104272652,-161.39294599,-59.867648696,146.8466888,2260.0
4.6129392197,-138.21602599,-63.68373908,166.92510992,2270.0
4.5531738942,-115.35216273,-65.378728492,-168.68733556,2280.0
4.5544094713,-92.724488902,-65.095496707,-161.18710088,2290.0
4.6338767181,-70.105551816,-65.150379347,-164.59603201,2300.0
4.7569967172,-47.049276243,-63.992630471,-164.32664107,2310.0
4.8638163021,-23.40399253,-61.456274617,173.3057549,2320.0
4.904187732,0.566698987,-63.138311037,147.45220634,2330.0
4.8972749303,24.715496707,-45.211989117,-139.48356361,2340.0
4.8291176199,48.96093403,-70.179267415,38.382417952,2350.0
4.7265179723,72.675328087,-70.083233195,83.878672491,2360.0
4.6624853025,96.044058093,-69.728439869,92.75137704,2370.0
4.6433792829,119.09786536,-70.159791272,110.13149759,2380.0
4.6860933418,142.05118376,-69.680609201,123.79014499,2390.0
4.7707487697,164.96531275,-68.259209252,135.5997223,2400.0
4.8887411004,-171.88174225,-65.688896475,140.70750195,2410.0
4.993239194,-148.36085557,-60.772081198,138.16787208,2420.0
5.059458877,-124.63646303,-55.828436204,121.22668807,2430.0
5.0943327811,-100.75556751,-45.795302743,64.878971384,2440.0
5.0919254066,-76.72557109,-56.907316217,-21.90602097,2450.0
5.0322471689,-52.774133438,-64.29320198,-33.282252967,2460.0
4.9553556423,-29.150405052,-67.681085646,-23.628550094,2470.0
4.9185044211,-5.9962635384,-68.871560742,-15.228426196,2480.0
4.9457406149,17.025119228,-68.45166443,-7.4818166012,2490.0
5.0143656965,40.027746596,-68.16324723,-6.8160009811,2500.0
5.119908771,63.172962885,-67.852307299,-5.5825161905,2510.0
5.2603908229,86.560957626,-67.050128038,12.149353845,2520.0
5.3573639938,110.35138206,-61.34394494,39.418765059,2530.0
5.4268393502,134.21123828,-45.793326058,1.2824037803,2540.0
5.4793347739,158.15487273,-57.768628974,-76.918917645,2550.0
5.4948834096,-177.94193806,-62.372999846,-76.674831749,2560.0
5.4990692738,-154.29240205,-64.765571993,-76.025550813,2570.0
5.5356480142,-130.92912764,-66.726360316,-69.057687632,2580.0
5.6260377053,-107.61939367,-65.531385456,-57.721012711,2590.0
5.7656016806,-84.130893593,-63.230556466,-69.841982835,2600.0
5.9320437065,-60.363346073,-61.905674979,-89.963362626,2610.0
6.0943190384,-36.215336807,-59.807888551,-102.91414192,2620.0
6.2176904396,-11.817377913,-56.00639003,-108.45426983,2630.0
6.2858957496,12.63455609,-44.379236657,-125.73075253,2640.0
6.3234844592,36.929227489,-62.98379683,137.98545703,2650.0
6.333265089,61.079074577,-68.573620436,-170.95124583,2660.0
6.2970494787,84.529133541,-68.377516886,-129.66632717,2670.0
6.3366608657,107.4614209,-66.346081651,-107.14291315,2680.0
6.4685418681,130.08100881,-63.765479309,-89.408999428,2690.0
6.6935190666,152.69356827,-60.46561569,-87.561345852,2700.0
7.0179482271,175.67245267,-57.901540994,-94.795913558,2710.0
7.4134033436,-160.57705081,-54.470811585,-109.96545042,2720.0
7.808965185,-135.98689093,-48.982698136,-132.12218058,2730.0
8.1368138106,-110.76910116,-40.671276123,171.14241149,2740.0
8.3736161208,-85.172587735,-48.250943841,90.661013125,2750.0
8.5140165918,-59.614448341,-53.838768725,128.48446773,2760.0
8.5755527841,-34.793847666,-51.452059446,135.64224668,2770.0
8.7089352751,-10.98127948,-50.676781345,135.52847902,2780.0
8.9700779699,12.380038502,-49.686916832,137.86412252,2790.0
9.3371772734,35.822218432,-48.947930941,136.42102179,2800.0
9.8045324346,59.020009335,-48.075122636,131.06061613,2810.0
10.36262019,82.84328643,-47.526556416,123.10680002,2820.0
10.960086177,107.26389456,-46.751405721,104.18267321,2830.0
11.540159487,132.25638148,-46.029718978,77.341797702,2840.0
12.037248674,157.58063165,-47.633178396,45.518614238,2850.0
12.3996152,-177.47743491,-54.08930114,40.0363567,2860.0
12.7541037,-153.86335905,-52.872450808,62.813090074,2870.0
13.318671365,-132.02044986,-49.726796891,41.316191096,2880.0
14.272782977,-111.19491,-50.20991831,10.353379548,2890.0
15.655939321,-90.282437942,-56.249296683,14.476303604,2900.0
17.456981549,-68.838378812,-50.537179628,42.636703639,2910.0
19.891578832,-45.899678086,-48.838252563,28.894413624,2920.0
22.987334579,-19.197292026,-47.649188248,38.035337247,2930.0
26.626899381,16.634944305,-45.248569853,48.943042903,2940.0
29.154529598,63.712226016,-44.719612964,80.803655042,2950.0
28.805395662,107.84510613,-46.733035021,122.09473097,2960.0
29.091606922,130.09674536,-46.101775824,161.70233462,2970.0
31.930280169,129.16300268,-40.483370819,141.49556712,2980.0
33.739368108,78.763213812,-44.589975115,40.748680456,2990.0
26.363190823,53.895488549,-47.130875918,86.230155753,3000.0
22.77018749,57.735373515,-48.803798821,43.848874801,3010.0
19.574713174,70.354450149,-54.632487859,15.902407398,3020.0
17.391375813,85.087702126,-62.016460948,8.8402089479,3030.0
15.860389222,101.65783784,-63.968509889,41.364517344,3040.0
14.78916041,119.90219303,-60.228825234,34.857667205,3050.0
14.106706358,139.52419043,-60.553397445,19.155774548,3060.0
13.69544554,161.38350093,-62.256453916,70.749740158,3070.0
13.388600549,-174.28334474,-51.395577943,82.405456316,3080.0
12.981037282,-148.42760471,-41.934116697,33.723098066,3090.0
12.462107394,-122.52806492,-45.643717102,-29.446931004,3100.0
11.92964523,-97.447738899,-50.155785037,-35.655007427,3110.0
11.365491433,-72.699522173,-52.875952088,-32.760048372,3120.0
10.838805805,-49.290804903,-55.519208111,-33.795467607,3130.0
10.449135102,-26.214276045,-56.177646262,-37.421181319,3140.0
10.202551822,-2.9094354872,-56.107084394,-48.529673435,3150.0
10.07822046,21.272108436,-55.729124053,-56.814259503,3160.0
10.014302689,47.307721418,-56.168637818,-52.76357962,3170.0
9.7440048349,74.697091599,-54.323695103,-31.701819958,3180.0
9.2030062726,101.65329569,-47.6860866,-45.422114952,3190.0
8.5882336561,127.20850273,-48.518100453,-139.36883254,3200.0
8.0171280671,151.07653591,-55.999786973,-158.48772481,3210.0
7.5557321999,173.50073981,-59.926791033,-161.53841381,3220.0
7.1572726721,-164.96274821,-62.355053611,-168.66633998,3230.0
6.8945784237,-144.4385858,-64.724386297,-178.05853978,3240.0
6.7995810924,-123.96247604,-64.745613899,168.59952347,3250.0
6.8402377914,-102.71898973,-63.026367047,153.84493254,3260.0
7.0296854707,-80.330999633,-61.111005425,143.61707335,3270.0
7.2653691054,-55.917100315,-60.408415313,165.25835096,3280.0
7.4214080735,-29.841426037,-52.676691835,-176.71520734,3290.0
7.4177776153,-3.0077672862,-41.525274887,114.93463406,3300.0
7.2872241091,23.723819105,-51.527748326,49.868555458,3310.0
7.0323067165,49.660708036,-56.787298617,49.666430009,3320.0
6.6888663387,74.354489539,-59.478126884,58.410118204,3330.0
6.3218019178,97.617166187,-60.946168045,63.989510357,3340.0
5.9930789808,119.67094029,-61.237493206,63.21641794,3350.0
5.7888529103,141.21833385,-60.32959124,61.689758357,3360.0
5.7419560194,163.12650793,-59.386262788,59.421251924,3370.0
5.8381735772,-173.68277084,-58.761567352,78.92714773,3380.0
5.913420109,-149.33282189,-54.689824233,104.00626855,3390.0
5.8720994605,-125.25555376,-45.258453569,97.348661685,3400.0
5.8534803629,-101.56786008,-48.531854714,-16.321286024,3410.0
5.8081505491,-78.143788088,-56.34902596,-24.271701543,3420.0
5.7827691615,-55.178292681,-59.647161873,-21.215704097,3430.0
5.7106865452,-32.359282158,-61.342066744,-17.348818711,3440.0
5.6078351397,-9.8960474068,-62.737130368,-15.377142338,3450.0
5.5286842254,12.279693367,-63.400200903,-22.545785294,3460.0
5.5792974758,34.976971272,-63.831804336,-25.009529661,3470.0
5.7805039534,59.219046074,-62.997513546,-3.3470161006,3480.0
5.9709427706,85.167573956,-58.878459985,18.190720505,3490.0
6.0059767666,111.76150059,-51.873443639,29.562584472,3500.0
5.9085543951,137.63875269,-41.287876019,-97.38168361,3510.0
5.7002524347,162.3243285,-56.657124679,-120.67456325,3520.0
5.3797909428,-174.44398712,-62.236250861,-120.27891189,3530.0
5.0512641777,-153.10604463,-65.646331812,-120.80187392,3540.0
4.8233712279,-132.94101932,-69.559742628,-125.51794479,3550.0
4.7155712746,-113.12249718,-73.388946784,-132.00077698,3560.0
4.7778522159,-93.066615434,-73.70786572,-135.10165346,3570.0
5.0614829308,-71.523898315,-69.066164323,-139.13633945,3580.0
5.4345027242,-47.752786181,-62.06653751,-125.45167827,3590.0
5.7627285959,-22.317860575,-50.832396308,-100.80460294,3600.0
5.9861251912,3.8251306433,-44.482343219,59.292953658,3610.0
6.1026942751,30.174827937,-53.586193448,89.686148352,3620.0
6.041716679,56.136890431,-56.858987657,105.28507854,3630.0
5.7646295241,80.805429009,-58.276561914,115.68915014,3640.0
5.3840402872,103.51571865,-60.027211238,119.56087584,3650.0
5.1099540873,124.74835925,-62.221958777,125.26068635,3660.0
5.0529001846,145.79637141,-60.708811917,131.25448172,3670.0
5.2013426936,167.82017415,-55.347222652,120.29779944,3680.0
5.4055423061,-168.44979089,-44.455777263,85.837901196,3690.0
5.5463173754,-143.73772628,-48.466323584,-25.012242599,3700.0
5.643795186,-118.81546757,-53.70410171,-36.334599386,3710.0
5.679752833,-94.132717126,-55.508852121,-39.063119686,3720.0
5.6288681597,-70.146144536,-55.043725647,-36.228640034,3730.0
5.4947145762,-47.13722597,-52.53390954,-29.552335774,3740.0
5.2772979316,-25.571070398,-48.340256684,-10.068354535,3750.0
5.1389812774,-5.231762375,-36.048972563,133.27411793,3760.0
5.2041284847,14.961178091,-53.464097728,-146.58024728,3770.0
5.470556423,36.404731893,-59.859237046,-132.49971252,3780.0
5.8375704853,59.939228057,-63.715355149,-127.41633093,3790.0
6.1844416545,85.481510926,-65.832511388,-122.55075945,3800.0
6.4388320493,112.42328181,-65.80083365,-118.25000789,3810.0
6.5531934326,139.88312817,-64.744563618,-117.99226522,3820.0
6.4839997784,166.85683921,-62.207460056,-120.38184652,3830.0
6.2416619427,-167.8476808,-56.926480072,-133.16744171,3840.0
5.9201148783,-144.58927143,-58.870174475,100.4706949,3850.0
5.5657010854,-123.46420886,-73.122169851,127.73096913,3860.0
5.377975256,-103.80612814,-88.035859038,145.41047499,3870.0
5.3933414149,-84.079998249,-87.064580205,-63.635543685,3880.0
5.5975177376,-63.379603064,-81.403668178,-47.861490984,3890.0
5.8982279201,-41.255511265,-79.005518071,-48.362541118,3900.0
6.2475549102,-17.908492386,-81.825790626,-52.811738991,3910.0
6.6538316935,6.6512269625,-85.647801007,-73.005446761,3920.0
7.0620900893,32.24245516,-82.890254788,-154.05977887,3930.0
7.3553225498,58.182053055,-68.289904844,-156.49323332,3940.0
7.459142738,83.691811876,-56.264141967,51.00699438,3950.0
7.36359384,108.28403266,-73.349021991,68.451012661,3960.0
7.1452500851,131.35303001,-79.60786489,101.17530718,3970.0
6.9621332944,153.4282323,-87.527411123,143.34936991,3980.0
6.9521318837,175.46009315,-85.923704257,-144.54396868,3990.0
7.0468117854,-161.66613926,-80.861681572,-149.10006054,4000.0
7.2890326683,-137.98124245,-80.953995586,-146.59495628,4010.0
7.5585537104,-113.36966432,-79.05032363,-152.95364083,4020.0
7.8552448154,-88.477619232,-71.941183577,176.30000727,4030.0
8.1091800827,-63.874339875,-62.050369725,158.51043088,4040.0
8.3093434248,-40.13659756,-37.412250588,-141.52347225,4050.0
8.4157444434,-17.112482643,-60.485262353,-25.039757879,4060.0
8.3659858255,4.808073774,-67.230532539,22.435063486,4070.0
8.3344385476,25.574568306,-69.773830285,48.259159397,4080.0
8.4888517521,46.204403918,-70.683499391,54.856762891,4090.0
8.8594398077,67.893271077,-69.695163241,54.893131028,4100.0
9.467023399,90.76404011,-68.375320265,54.241796535,4110.0
10.342687468,115.01269011,-67.273907941,56.410800129,4120.0
11.456776045,140.94331884,-64.522845385,61.557256508,4130.0
12.670244399,168.64955398,-59.095060889,76.996201257,4140.0
13.746025817,-161.74228096,-46.44132276,90.561646681,4150.0
14.207252789,-131.57223466,-51.161156897,-98.970015165,4160.0
13.744222992,-103.47537112,-63.314941108,-13.454658578,4170.0
12.737896348,-81.111516275,-59.288022448,23.072452247,4180.0
11.94144854,-62.934017479,-60.677940959,20.475357196,4190.0
11.598666914,-46.548914425,-61.764770073,10.100868141,4200.0
11.773950845,-30.696304522,-61.99048772,4.8217762445,4210.0
12.480919055,-14.979168446,-60.836139075,0.061693288819,4220.0
13.69559201,-0.018159973022,-58.181289806,-4.9259729591,4230.0
15.313293016,12.664836062,-53.135252137,-19.011810818,4240.0
17.128720001,21.197486334,-45.07160623,-47.447583434,4250.0
18.869541392,25.812195629,-41.786920837,141.02982796,4260.0
20.706230975,30.220108263,-51.829329529,121.41942477,4270.0
23.029345123,41.652979901,-51.333443992,136.13745601,4280.0
25.86457873,68.648974138,-47.980641987,155.81710219,4290.0
26.227981438,111.47454951,-47.818605518,-174.91441482,4300.0
24.179649734,147.76971812,-49.861241102,-156.67743906,4310.0
21.742728002,168.19489172,-52.132911847,-157.73767949,4320.0
19.83808753,-177.03144469,-53.867530507,-163.00873694,4330.0
17.967309286,-162.678562,-54.856636946,-177.54647081,4340.0
16.182731626,-147.33454552,-54.445691326,159.85895881,4350.0
14.720433722,-130.40097368,-54.663095556,93.302728185,4360.0
13.678848617,-112.35064535,-65.498446391,-4.0981360285,4370.0
13.136109013,-93.288842183,-72.196987848,-90.773323102,4380.0
13.030334073,-71.748591963,-77.676237041,153.34502497,4390.0
12.844002622,-46.630594911,-68.119265705,84.509875467,4400.0
12.308377226,-22.492052701,-61.884664178,74.548798042,4410.0
11.671067821,0.080893603634,-55.71605145,61.589404281,4420.0
11.104103152,22.075731253,-53.021303699,43.616756764,4430.0
10.587491511,44.064523411,-53.13604706,24.040069458,4440.0
10.11289869,66.09042609,-56.512663474,5.0714086475,4450.0
9.7534729929,88.144942587,-60.717206667,-2.1959218292,4460.0
9.5183299281,110.80536787,-64.253475553,-13.977264768,4470.0
9.44375751,133.66806766,-67.420483128,-4.0244532741,4480.0
9.5790562732,157.49058851,-65.886308641,10.568757019,4490.0
9.749378417,-176.48385731,-63.657885731,7.8653678352,4500.0
9.6506966776,-149.52450617,-61.724246298,-22.197118916,4510.0
9.2902743936,-123.12286876,-64.901959876,-68.485968666,4520.0
8.7988252906,-97.61903656,-68.454381241,-76.53516766,4530.0
8.2498418088,-73.193612209,-71.108201413,-81.453186957,4540.0
7.6944581539,-49.907484146,-77.054516077,-71.071647528,4550.0
7.2137655922,-27.748998014,-78.633635252,23.924885115,4560.0
6.8665110339,-6.3404726069,-71.13969415,37.323855267,4570.0
6.6762515225,14.600059831,-67.097209173,22.477468336,4580.0
6.6299610788,35.615671127,-66.466670852,14.43593818,4590.0
6.7126669576,56.979150962,-63.527658926,30.015385781,4600.0
6.921187974,79.334752919,-57.918476355,2.5383360272,4610.0
7.1343483368,102.77040895,-61.913080023,-47.48192201,4620.0
7.2410692956,127.00861986,-64.899990443,-60.689359333,4630.0
7.3140266937,151.97806258,-66.104901663,-61.589445071,4640.0
7.2777673241,177.35117832,-66.715942602,-54.253753691,4650.0
7.1399099465,-157.30415296,-66.159893835,-43.409539119,4660.0
6.9508279477,-132.27955828,-65.477438033,-39.202438481,4670.0
6.7397086581,-107.84921847,-63.251945174,-44.880053475,4680.0
6.5236596785,-83.956507759,-61.472853083,-59.957089018,4690.0
6.3481357448,-60.590079848,-64.349606381,-39.316465786,4700.0
6.2396848177,-37.520095058,-56.189038657,-39.509836489,4710.0
6.1523681343,-14.566881784,-62.533431202,-99.272295053,4720.0
6.06680162,8.2562108947,-69.139506612,-113.73217954,4730.0
5.9771249829,31.041418225,-73.361616162,-119.58684613,4740.0
5.8937178071,53.615408586,-76.105574444,-115.9749262,4750.0
5.8401267864,76.038059533,-77.624910675,-115.43095369,4760.0
5.7940941882,98.370535636,-76.425359527,-121.84107427,4770.0
5.7998782536,120.93082662,-75.299956517,-125.22024608,4780.0
5.8472483554,143.68929288,-71.898571367,-127.87569969,4790.0
5.9498165382,166.52786478,-68.381720616,-107.27317201,4800.0
6.1156680438,-169.92774496,-58.707177054,-119.95975703,4810.0
6.2508425913,-145.62806256,-63.067649179,-176.93896018,4820.0
6.3087850025,-120.81659825,-70.095341923,174.4749253,4830.0
6.2789628183,-95.790277464,-75.263550541,170.77467071,4840.0
6.1433532751,-70.9932435,-78.659790959,167.96515438,4850.0
5.9307599393,-46.75134681,-81.108507506,159.66472435,4860.0
5.6861089952,-23.316954818,-81.51184843,150.656269,4870.0
5.4319622188,-0.88215056581,-78.237627086,138.83444655,4880.0
5.2735022985,20.610881368,-72.638593241,121.53375389,4890.0
5.3098527228,41.95359014,-64.67656239,109.09943542,4900.0
5.4940630623,63.825778148,-59.756408301,68.418623945,4910.0
5.6767563196,86.846510275,-63.21590323,34.031493988,4920.0
5.8934226421,110.12667866,-68.018055752,29.202090291,4930.0
6.0265363397,134.09392615,-70.884813234,28.242432027,4940.0
6.086082864,158.6774184,-70.671650603,30.909440099,4950.0
6.045842406,-176.56200813,-69.764753118,37.553064378,4960.0
5.8609096362,-151.92549966,-68.768049856,45.13787092,4970.0
5.5851993114,-128.15884408,-67.40376147,51.793757968,4980.0
5.3805385875,-105.62391169,-64.365768426,46.047219005,4990.0
5.3824036221,-83.472847506,-59.962036481,27.529238316,5000.0
5.531498708,-60.741266407,-55.914637332,-25.848277877,5010.0
5.6648706447,-37.203972173,-61.131420732,-42.006809813,5020.0
5.7459435057,-13.457419397,-62.566373109,-41.704664306,5030.0
5.7526298014,10.075131294,-64.361109201,-52.70539232,5040.0
5.6400658137,33.397988655,-63.824275168,-64.972953926,5050.0
5.515111292,56.752621841,-61.702658358,-62.267907838,5060.0
5.2462521274,79.422285681,-59.198869013,-51.607183892,5070.0
5.0079032254,100.83242173,-57.929977826,-36.95012306,5080.0
4.9725659754,121.21642653,-57.432584252,-29.269244492,5090.0
5.2419613689,142.63417218,-55.87627638,-46.699764519,5100.0
5.7052203319,165.67373704,-55.734102582,-96.569088898,5110.0
6.152532762,-169.91854959,-62.381570176,-114.589855,5120.0
6.4733837061,-144.55744216,-63.849035606,-96.661497749,5130.0
6.6200585675,-118.59562706,-62.85823311,-106.14093062,5140.0
6.4841448652,-92.485312561,-62.212792205,-121.5591047,5150.0
6.0203435949,-67.273291626,-60.1216117,-127.2870932,5160.0
5.3194674884,-43.992963277,-57.647558092,-124.40115485,5170.0
4.6951925412,-23.636325789,-57.551590217,-117.80458495,5180.0
4.5816688414,-4.5421405887,-58.654900456,-109.05760651,5190.0
4.8934615641,16.030487294,-59.489387455,-115.8329363,5200.0
5.3683887171,38.648756932,-61.318733304,-124.83887967,5210.0
5.8807994256,62.565036277,-65.62612636,-121.29362619,5220.0
6.3726691013,86.922858058,-64.711857589,-85.767541897,5230.0
6.7448086083,112.01339943,-59.921254999,-77.010972389,5240.0
6.8067888026,137.81055509,-54.757986596,-103.76312318,5250.0
6.4447382775,163.66912487,-52.528141755,-150.6092813,5260.0
5.5574716252,-172.75786603,-54.50666548,-162.90428892,5270.0
4.6927575275,-154.08968022,-57.709234753,-153.30658205,5280.0
