S11m,S11p,S21m,S21p,Frequency
16.924159564,-0.057746016658,-59.088403108,119.16965004,2000.0
10.8972763,105.58250538,-71.026927985,165.32591156,2010.0
7.2053038436,152.08210945,-76.683616093,-136.51453545,2020.0
6.2227283786,-172.27518201,-70.448897712,-98.677513641,2030.0
7.1974922713,-136.38540012,-66.21808605,-87.342743311,2040.0
11.451197187,-89.809982711,-61.63978754,-70.614919597,2050.0
18.842331285,36.253849674,-57.521360469,17.914224764,2060.0
10.054809093,125.47352381,-73.827331893,43.111466823,2070.0
6.8970323707,166.15013246,-78.018180565,20.396206775,2080.0
6.2453828562,-160.1927582,-78.72151089,23.580317367,2090.0
7.5303472898,-125.02879577,-83.513696046,56.068320987,2100.0
12.20623159,-76.448216151,-72.780832997,-145.49721885,2110.0
17.663444141,51.464377204,-61.294460361,-35.983622874,2120.0
9.7726336718,131.48365649,-69.102768495,47.527422895,2130.0
6.9485808832,171.66135391,-71.045711038,98.05274659,2140.0
6.6378857272,-154.05415287,-70.174481238,143.21861251,2150.0
8.6519497318,-116.95416348,-67.755407225,167.13066182,2160.0
15.823631483,-59.790577613,-63.640943178,166.9738347,2170.0
15.24488667,94.974148934,-58.995645855,-149.29066381,2180.0
8.5053260926,148.25840212,-61.55990607,-153.55091894,2190.0
6.4133896528,-176.81931947,-62.686867367,-158.47778547,2200.0
6.4339059207,-144.59245599,-63.316765661,-153.13323943,2210.0
8.6381437008,-107.36036104,-61.557578019,-124.86032126,2220.0
15.996251055,-45.706813239,-51.606517996,-67.39170135,2230.0
14.223580779,102.39103956,-49.703584936,48.838642163,2240.0
8.2050542621,154.86614166,-54.611975974,63.106826926,2250.0
6.4729095027,-169.6816743,-56.790802241,73.905657028,2260.0
6.8761645059,-135.90606414,-57.359896129,94.466979986,2270.0
9.918486792,-95.236042762,-55.058619871,120.95409584,2280.0
18.846097931,-8.7299892453,-47.345253412,-169.64633355,2290.0
11.698614513,118.49694636,-56.809395415,-61.588587254,2300.0
7.2044153035,162.86349157,-65.802791219,-25.361675051,2310.0
5.9576010965,-163.16543321,-74.301396742,18.30825592,2320.0
6.5889899845,-129.556485,-72.591858845,51.773960266,2330.0
10.041047486,-87.823262319,-65.149270186,61.603254398,2340.0
19.765903252,13.794561508,-50.794673556,132.85629808,2350.0
10.810602567,131.35913909,-58.273623352,-144.13838946,2360.0
6.8721288933,173.56440305,-64.095809423,-134.36805831,2370.0
5.9362363004,-152.45952209,-68.904918685,-134.6440615,2380.0
6.8543296565,-117.35982322,-71.203260182,-146.04311448,2390.0
10.882219571,-70.163218704,-63.98165673,-146.5625807,2400.0
16.90954495,49.359096332,-53.301346003,-60.561515325,2410.0
9.2941898211,137.32032687,-61.878644312,-5.3367392105,2420.0
6.3132388671,179.04478284,-72.743951535,25.742425862,2430.0
5.7554560865,-146.76441322,-72.407888101,162.22148307,2440.0
7.1525732948,-110.43652482,-61.908687354,-161.87826514,2450.0
12.496801234,-57.905403908,-53.379172722,-133.79375485,2460.0
15.415287298,84.985677173,-50.321148993,-24.656462989,2470.0
8.1004594746,151.85967146,-59.647091217,13.455232088,2480.0
5.7218454375,-169.87438942,-64.591778864,34.229609033,2490.0
5.4300591749,-136.78525225,-67.284775475,51.833738124,2500.0
7.0832683221,-99.755540367,-66.350060305,69.742369374,2510.0
12.752131907,-41.241453578,-62.023103852,99.18257221,2520.0
13.771344108,96.693593494,-66.590830382,-127.70683059,2530.0
7.6220924501,159.89784832,-70.008989331,23.293401095,2540.0
5.653762233,-162.15540586,-64.522180231,60.30954345,2550.0
5.6748096906,-128.15474435,-60.128194872,80.490742067,2560.0
7.9038993483,-88.075986415,-54.917061952,95.444225508,2570.0
14.656904558,-13.209834189,-47.763764391,136.76822742,2580.0
11.377947717,117.43080623,-54.65339062,-129.8204679,2590.0
6.6007383537,170.3302274,-64.756024547,-120.74083493,2600.0
5.163983866,-153.85522322,-70.282638884,-130.25267838,2610.0
5.5219991097,-119.96696985,-70.730046432,-133.9281112,2620.0
8.1870582041,-77.652875567,-69.300225432,-119.23502957,2630.0
15.426898631,7.804071757,-72.905180353,-49.158107713,2640.0
10.404812689,130.47771553,-68.3237629,-168.9793158,2650.0
6.2670810995,179.4252244,-67.750630112,-157.31707492,2660.0
5.097368903,-145.27555147,-69.634173544,-157.41677229,2670.0
5.6962419861,-109.93818674,-76.003079575,-160.18014348,2680.0
8.7794281764,-62.322446453,-74.145249973,103.61977446,2690.0
14.486096675,40.639263522,-62.016356426,141.29561519,2700.0
8.650043797,140.89157201,-68.691343921,-150.80608389,2710.0
5.5244720504,-173.37471595,-74.479297826,-93.899517327,2720.0
4.7912471616,-138.24423785,-87.085419783,4.1821280426,2730.0
5.6868947557,-101.63701046,-77.573214299,82.480215339,2740.0
9.3171109496,-49.702557442,-70.862816611,172.97137254,2750.0
13.437727135,65.481055617,-58.211718438,-62.541248039,2760.0
7.36371964,151.05272702,-58.84549161,-3.7143389033,2770.0
4.7206474432,-165.4760218,-60.686520614,17.230752144,2780.0
4.1450611786,-130.18821178,-61.661642878,26.453454625,2790.0
5.0083038919,-91.524481858,-60.839843308,33.67550292,2800.0
8.2994600239,-33.262933019,-57.060803227,67.108680646,2810.0
10.385410325,78.79812636,-55.133031179,155.4903237,2820.0
5.9814906481,157.51663932,-60.251649849,-157.65994494,2830.0
4.0569000136,-158.24078779,-63.008693919,-148.50724084,2840.0
3.6942814718,-121.19110914,-64.060968662,-128.84142206,2850.0
4.509212281,-77.474477475,-65.789612301,-64.728345745,2860.0
6.5823469932,-4.4109350673,-57.611422741,61.725762845,2870.0
5.1010564957,100.34702957,-52.708720758,131.03541632,2880.0
2.3618505595,167.54852005,-53.810132415,152.88061808,2890.0
1.2780108247,-149.77129303,-54.644598579,170.42776255,2900.0
0.78618644039,-112.45328787,-55.673120495,-159.49158347,2910.0
0.47187009374,-65.996265771,-55.382152399,-123.42221264,2920.0
-0.082619028424,10.566262684,-54.587145098,-82.221983086,2930.0
-0.87709104086,109.91897994,-57.250021886,-17.984087835,2940.0
-1.333584254,177.4834785,-64.417570585,60.782898921,2950.0
-2.2853836811,-138.69346208,-69.736985298,-131.7502393,2960.0
-5.0142678768,-101.89435709,-59.532332232,-72.677181574,2970.0
-13.077806888,-84.481209177,-54.437843193,-35.825899553,2980.0
-12.912674796,-136.10165999,-53.036948626,-7.9265158666,2990.0
-10.649769122,-112.96250917,-54.715022823,18.236225583,3000.0
-16.203689921,-74.493789557,-56.863967639,45.071929879,3010.0
-17.100658708,129.39846731,-57.980325391,68.369353195,3020.0
-7.2753173405,171.33088009,-57.462029932,90.590351985,3030.0
-3.9146427834,-154.90780155,-55.576813584,124.2032817,3040.0
-2.3815211298,-121.55374594,-55.832911843,-158.9143417,3050.0
-1.526379683,-80.510503699,-62.925702531,-69.334559094,3060.0
-0.22749261021,-15.859567252,-61.219202037,17.901758445,3070.0
2.2060297057,83.324809636,-55.093138308,81.478213694,3080.0
2.4091364902,164.96773329,-55.998081869,111.46847911,3090.0
2.0745197565,-145.85567303,-59.484812462,113.2401435,3100.0
2.2216674022,-106.00722279,-60.603638671,113.12934106,3110.0
3.2741949727,-59.553494276,-58.120445153,123.6263045,3120.0
5.9478232157,14.520777634,-51.134001296,-178.00386698,3130.0
6.2545682357,116.58913801,-48.433527143,-44.931735473,3140.0
4.3213425978,-177.61639864,-59.060143224,39.447338863,3150.0
3.6834328767,-135.54684045,-65.860294516,102.70944927,3160.0
4.22553746,-98.352543694,-65.710324916,152.12141586,3170.0
6.7223404555,-52.753069516,-61.883752727,-155.09859163,3180.0
12.701765967,34.907600165,-55.376099146,-104.05682482,3190.0
8.9536380707,150.42669672,-60.613710707,-29.538838428,3200.0
5.5313416692,-157.35361771,-64.604457542,-22.703234363,3210.0
4.6857337226,-120.7370994,-64.728910789,-29.683505798,3220.0
5.498495009,-84.917692745,-62.48936379,-17.492755852,3230.0
8.9835342931,-38.097821669,-57.836637069,8.9052833012,3240.0
15.652266299,68.201648857,-51.396371524,90.345540819,3250.0
9.3088627111,168.80874081,-59.011595235,175.39966642,3260.0
6.2576135008,-146.78406036,-63.744802138,-133.95719071,3270.0
5.7416991226,-112.47412226,-64.635173207,-85.495475367,3280.0
7.2533805474,-77.458557831,-59.108294737,-62.143325457,3290.0
12.941629257,-28.436124799,-50.062033686,-48.549714284,3300.0
17.243121037,125.98228506,-44.939607566,69.571135219,3310.0
8.7856576299,-169.1650709,-54.601102416,107.18865552,3320.0
6.403934977,-132.87747988,-58.421502769,127.41435442,3330.0
6.3570021826,-101.2388589,-58.788303947,142.92885923,3340.0
8.6056433358,-67.297435875,-55.719644502,164.79164711,3350.0
16.662283437,-17.66319588,-46.51063425,-147.55039174,3360.0
16.041591563,157.92402193,-48.637097502,33.325989722,3370.0
8.8700819267,-155.17405805,-59.77104876,93.147881354,3380.0
7.0150136866,-122.16217008,-63.412618702,143.02370784,3390.0
7.6027357058,-90.959605783,-61.942058486,171.79373911,3400.0
11.419294025,-55.698624157,-58.821481879,-171.78466536,3410.0
31.47619763,37.501391304,-40.023184566,-99.470110447,3420.0
12.187461586,-173.42736722,-60.119421659,29.696345049,3430.0
7.8806032302,-138.89527701,-65.740571575,44.936482122,3440.0
6.9687540216,-108.72298812,-69.467605486,67.023670323,3450.0
8.2762287259,-78.285076941,-70.923813263,96.84912715,3460.0
13.592940779,-41.714647599,-84.065841193,-144.66931867,3470.0
24.361900299,144.51139004,-54.440271498,99.521034437,3480.0
10.619870505,-160.84409263,-66.564229828,139.5017682,3490.0
7.4865376308,-127.50628371,-71.091718044,152.35267343,3500.0
7.2238714467,-96.476724783,-74.625541702,148.20092008,3510.0
9.4222844816,-62.504202482,-73.021628683,157.42090667,3520.0
17.866062686,-12.324049687,-63.198401505,174.67587313,3530.0
15.728366367,163.00146212,-65.379391841,-28.614320136,3540.0
8.7213077733,-152.41444334,-71.516041895,24.695805686,3550.0
6.6881749098,-119.91447843,-74.761182401,86.425084827,3560.0
6.8722625023,-88.726638626,-71.958006571,140.02759378,3570.0
9.4764627892,-53.011345583,-69.898284551,-172.45343229,3580.0
19.046791862,9.1750948504,-62.123871662,-121.27429832,3590.0
13.684029101,170.86727415,-73.215284321,51.2107624,3600.0
7.9594804518,-144.94485476,-80.912721802,132.15980987,3610.0
6.4402884858,-111.30826942,-78.549576691,-177.69599679,3620.0
6.9555928168,-79.025184644,-74.248821591,-152.03266976,3630.0
10.118748637,-40.336417579,-73.010779732,-125.53501212,3640.0
19.801942616,44.10417334,-65.697809096,-34.826196922,3650.0
12.032985721,175.96940564,-73.965951037,118.93698714,3660.0
7.4288092872,-140.5233809,-73.559911984,151.90337942,3670.0
6.23033406,-106.59092102,-71.085055216,156.62509115,3680.0
6.9900335561,-73.197158457,-68.026783432,166.23139374,3690.0
10.8490262,-31.729114708,-62.711176229,-172.48954727,3700.0
21.108553796,83.30384353,-52.290945018,-72.774911141,3710.0
10.739986004,-169.68036026,-63.830510518,19.493534404,3720.0
7.0734450134,-128.76375384,-68.554817649,44.440056912,3730.0
6.3115510395,-95.295373007,-70.753856619,68.609574373,3740.0
7.5631036389,-60.171141188,-69.596412607,93.964062214,3750.0
12.288008583,-11.600005057,-65.483647913,132.8139137,3760.0
17.085506763,121.88722397,-62.419950055,-87.214208039,3770.0
9.1398320663,-161.93711006,-70.462543617,-2.2044542372,3780.0
6.4360545361,-121.27248919,-73.67696428,37.869819858,3790.0
6.1679576347,-86.72289846,-73.863852384,56.368790394,3800.0
8.1407835018,-48.480587998,-72.884263307,72.513677414,3810.0
14.965409531,14.398419305,-67.166768351,107.12592224,3820.0
13.625500531,159.79584566,-69.114046631,-131.22755564,3830.0
7.6290532871,-144.12301929,-77.426003678,-86.384640748,3840.0
5.8089899217,-106.70586232,-78.900979429,-45.38218433,3850.0
5.9354118484,-71.353261663,-85.098241457,-41.913682952,3860.0
8.2044693729,-28.014782914,-72.694384085,-129.55383247,3870.0
13.665678724,53.515966092,-60.635361463,-42.960929906,3880.0
10.280293805,166.92898454,-65.382137533,74.000044609,3890.0
6.3675253678,-138.2856015,-73.118792353,120.43868491,3900.0
5.2709016973,-99.522720564,-78.01950013,157.2395664,3910.0
5.9884889825,-61.330698143,-76.462198602,-163.58261532,3920.0
9.1910219407,-10.111369785,-72.19877992,-121.85043751,3930.0
13.438087954,94.659245633,-67.742837359,-29.462062539,3940.0
8.1518056953,-173.69215806,-71.617073267,58.886643192,3950.0
5.3005524253,-126.80796892,-72.812950231,102.19166731,3960.0
4.5657133558,-90.207240444,-68.304566311,126.99230747,3970.0
5.3395887865,-52.005494694,-63.440819653,-177.5796241,3980.0
8.3060830985,1.887421985,-60.8337732,-117.46724883,3990.0
11.593002071,103.17480388,-58.539693785,-33.352289134,4000.0
7.4244814586,-169.11485188,-64.763226908,32.359467673,4010.0
5.1291243621,-121.31458091,-69.890016867,65.707023566,4020.0
4.7661379699,-83.14938367,-72.788568957,103.18487126,4030.0
5.978134956,-42.017704167,-73.028680908,135.9942914,4040.0
9.5643771732,19.509364617,-71.044754506,176.66116167,4050.0
10.819614016,128.90043069,-69.473902194,-91.424625191,4060.0
6.5288063793,-157.54409449,-74.321404485,-35.081298426,4070.0
4.7263669959,-113.57922152,-73.926202224,21.578981204,4080.0
4.6512178601,-76.23204342,-74.150382363,59.356900889,4090.0
6.2139487633,-34.026951277,-75.207366404,99.872237653,4100.0
10.728612883,32.598300962,-67.281221258,169.10838603,4110.0
11.035586815,151.08379013,-68.298497339,-90.473883829,4120.0
6.6616665686,-141.48597351,-73.586039197,-43.151970649,4130.0
5.2021824158,-98.650602613,-76.292191914,-26.681562116,4140.0
5.5607957235,-58.989489564,-76.290044171,-15.274404696,4150.0
7.9526564209,-9.2312165638,-71.946981724,7.1074860356,4160.0
12.037690074,80.622923293,-64.314035227,85.558802758,4170.0
8.5445566825,179.29434372,-62.967156547,177.05068433,4180.0
5.6918852485,-127.64158227,-62.122960434,-130.35843348,4190.0
5.0155352571,-87.786727709,-63.548220785,-80.73758788,4200.0
6.0014058068,-47.745609517,-66.142373591,-46.310828193,4210.0
9.6148505965,7.5410490468,-64.995658412,-11.176476603,4220.0
13.001991387,118.75114331,-62.848291758,69.747110885,4230.0
7.8378641393,-157.13314809,-70.584091236,122.18389317,4240.0
5.4975004524,-111.07828909,-73.946995824,146.15770253,4250.0
5.1743209425,-72.77308334,-75.948776731,174.12227759,4260.0
6.5622226624,-30.654085304,-74.421154782,-147.95839799,4270.0
10.528258983,33.703228152,-67.129848622,-59.692241166,4280.0
11.139041572,143.73095907,-58.669966194,48.295333762,4290.0
7.007706871,-146.82988876,-60.683522044,134.17891722,4300.0
5.3681805346,-103.3526687,-65.616628719,173.32338661,4310.0
5.5051627813,-65.472277899,-68.201885206,-161.49943441,4320.0
7.5513195169,-21.538022137,-66.561493,-132.50841915,4330.0
12.586952121,51.996889829,-61.961961031,-76.627700206,4340.0
10.943450284,166.03311892,-65.504447878,11.224380528,4350.0
6.859691972,-134.35266812,-72.484718637,58.526316603,4360.0
5.500153195,-94.053008155,-75.3619736,94.892292604,4370.0
5.9209650247,-56.698480727,-72.534043983,141.90222278,4380.0
8.5107647935,-11.54384013,-63.609058694,-168.6722613,4390.0
14.180819349,70.13161306,-54.319946097,-87.741151506,4400.0
11.064289012,-178.52282352,-58.370356176,25.487923092,4410.0
7.2943410286,-124.82503339,-65.322142742,83.686914367,4420.0
6.3513183536,-86.375760334,-70.063682254,129.41543556,4430.0
7.3804485498,-49.19776073,-70.773955966,171.52961745,4440.0
11.530326872,-2.2500267162,-67.315179803,-164.05154662,4450.0
18.578401024,114.02765223,-61.030884733,-77.79636372,4460.0
10.664344688,-151.4457126,-70.744276357,-6.8578784517,4470.0
7.4847766513,-108.1942142,-78.602120827,27.601164146,4480.0
7.1311337551,-72.263768913,-71.949737416,148.21891601,4490.0
9.2523273324,-34.136130952,-60.535001865,-178.67176789,4500.0
16.49727481,21.953074754,-49.759010154,-134.06294559,4510.0
16.254830136,179.10673857,-51.72238191,11.306322792,4520.0
9.4096925383,-127.16736963,-62.906224059,50.199822894,4530.0
7.5356313448,-90.220456882,-68.446494391,66.822344195,4540.0
8.0793233182,-55.091524977,-69.906542199,83.904498407,4550.0
11.721631285,-12.67804164,-67.267681888,119.00786694,4560.0
21.008934602,91.036116873,-55.334013613,-138.28401115,4570.0
11.852017613,-156.38624428,-63.391349075,-23.322952969,4580.0
7.799775432,-113.12162334,-68.312113959,13.830670713,4590.0
6.9120773257,-77.770385622,-71.714819726,37.633108807,4600.0
8.0682163352,-41.347755372,-72.517350932,70.24154384,4610.0
12.55369231,6.6027917755,-69.346659197,101.70063351,4620.0
18.196770369,128.30277642,-66.633399864,-163.94876272,4630.0
10.385776343,-148.37981778,-82.793418624,-117.65438285,4640.0
7.3179758328,-106.44245553,-85.257295294,77.312494196,4650.0
6.791304066,-71.018708127,-82.049349259,111.08128384,4660.0
8.2911568033,-32.59827151,-78.751319938,153.43454397,4670.0
13.169172596,23.074870964,-75.570699639,-152.39279526,4680.0
15.361952345,146.07013785,-71.699626092,-5.8423854019,4690.0
9.0831962633,-144.0101568,-69.305186424,74.7115163,4700.0
6.6906450144,-102.95315903,-64.647705903,100.6299278,4710.0
6.4264770013,-67.773111478,-61.918950976,142.21832437,4720.0
8.1227783362,-29.786499491,-60.383819519,-165.99220563,4730.0
13.235669165,25.651557047,-55.495306705,-115.61553226,4740.0
15.467914926,150.92755483,-53.875261528,-11.814833016,4750.0
9.1211087235,-139.34194083,-62.55954473,32.200738283,4760.0
6.7800882622,-98.139195206,-65.780606884,37.817416411,4770.0
6.6456514695,-61.27508672,-65.55526795,38.479579734,4780.0
8.6160187855,-19.193314431,-61.777280727,47.54551167,4790.0
13.972033295,50.440666424,-54.068438563,99.33196196,4800.0
12.408904312,168.09073778,-47.239298695,-118.34398114,4810.0
7.6697692262,-131.77693847,-47.736531078,-18.679577672,4820.0
6.0475828702,-90.981683674,-52.957598678,27.936468348,4830.0
6.4085094017,-52.118270793,-55.846757702,53.078591936,4840.0
9.2045478842,-3.1328725823,-55.753305553,74.648680735,4850.0
14.36362004,96.094631074,-52.696522641,136.08658114,4860.0
8.7647488043,-159.70784933,-59.645261674,-168.26420536,4870.0
5.2953886804,-106.04130883,-62.789754882,-166.50345296,4880.0
4.1570233095,-60.277833546,-59.829262778,-166.92935038,4890.0
3.9540954826,-4.746190925,-51.05659162,-148.52977911,4900.0
2.5135838002,77.472063356,-36.730971182,-73.814005031,4910.0
-1.0126789069,163.33365489,-46.854881465,94.079305308,4920.0
-2.9620548656,-135.68482841,-61.378268601,132.82960765,4930.0
-3.9149121673,-92.485800015,-74.116923597,169.12208797,4940.0
-5.4029760999,-51.015388442,-75.199737502,132.87768479,4950.0
-10.184624049,7.3226987738,-67.273360833,133.79270828,4960.0
-13.967705919,170.81869072,-62.175368732,176.19012326,4970.0
-6.1742028093,-103.10489447,-58.268399597,-138.21496397,4980.0
-3.8869761133,-39.710688242,-56.079563746,-91.875791756,4990.0
-1.8778723808,45.657199083,-52.232884896,-35.547565179,5000.0
1.5056708877,153.94098191,-48.353578083,52.306694503,5010.0
2.3250072246,-127.73152382,-49.507771924,172.70079207,5020.0
2.6067755035,-75.428405389,-55.788152173,-134.90549397,5030.0
3.7359526945,-24.906808034,-57.762310076,-130.09385896,5040.0
6.2923032981,44.200100654,-56.243068177,-112.87681563,5050.0
7.2273495087,139.79155266,-56.379755155,-51.547724757,5060.0
5.3386108334,-148.28127651,-60.01689763,10.336082795,5070.0
4.5647644048,-101.46602148,-61.907669243,47.722105806,5080.0
5.2080012449,-62.243418411,-61.929337685,81.825841748,5090.0
7.9239268847,-18.993742129,-57.828565056,106.61641144,5100.0
15.164943314,53.060236466,-48.134892231,147.25527284,5110.0
12.752494853,-172.66860544,-47.564351163,-88.636621568,5120.0
7.790926707,-118.00415478,-52.244628705,5.8900414553,5130.0
6.4023960862,-79.907514115,-58.02575233,69.498665933,5140.0
7.1489658825,-42.81460485,-60.965416332,101.27586969,5150.0
10.530358107,3.3501890878,-58.788005103,129.67554861,5160.0
16.798256915,97.461735301,-52.96666004,-166.53420949,5170.0
11.359907791,-160.71696268,-58.638398729,-94.198455344,5180.0
7.8194505962,-114.59977176,-61.790128001,-76.551519023,5190.0
6.9647032483,-79.710233057,-61.246514787,-65.038949584,5200.0
8.1199625408,-45.855602531,-56.808054289,-49.836265265,5210.0
12.526009803,-5.198987744,-47.618800762,-18.743707324,5220.0
23.639930059,113.95248899,-32.118066485,122.66674695,5230.0
12.063495753,-144.39372124,-50.061684904,-110.61906774,5240.0
8.2260381714,-106.54934678,-59.924298486,-92.032818475,5250.0
7.3787715557,-75.284516932,-62.847012825,-84.300510529,5260.0
8.4934458395,-45.004705981,-60.992808885,-79.8434431,5270.0
