S11m,S11p,S21m,S21p,Frequency
5.828447029,-107.38190971,-51.477553805,-127.47080454,2000.0
5.5271525309,-79.116731834,-55.596027219,-114.37789,2010.0
5.3880958278,-47.642766093,-52.226013888,-122.10486606,2020.0
5.8284009436,-14.788682011,-38.125044915,174.47848236,2030.0
7.1323007555,18.751921844,-47.118466899,62.462496492,2040.0
10.971020131,47.230058108,-46.494490139,17.255839237,2050.0
13.069146942,27.448289932,-46.644405475,-71.184153795,2060.0
8.5762864166,40.502568049,-53.538384808,-112.81542447,2070.0
6.6180000074,69.251301714,-52.877965607,-136.99444477,2080.0
5.7965584432,98.192937556,-50.086155585,-173.31538181,2090.0
5.4147842968,126.2082014,-51.568968414,114.45211545,2100.0
5.0860463176,153.0540014,-56.927176813,89.06066608,2110.0
5.0085876484,-178.04197692,-55.247947585,80.817013093,2120.0
5.3040529306,-147.42065192,-45.405989568,37.0090746,2130.0
6.3948987514,-115.42063135,-49.746861355,-90.715814557,2140.0
9.8153094733,-88.341380758,-50.523957322,-124.48218962,2150.0
11.771038534,-103.82858346,-50.065551663,157.45559848,2160.0
7.8398521638,-89.621862436,-54.117516113,113.85977174,2170.0
6.158623045,-60.552089267,-55.27769471,88.053814367,2180.0
5.4463675019,-31.73817573,-52.880540068,47.253240094,2190.0
5.093211469,-3.7529208876,-52.100004886,-1.4873138042,2200.0
4.9629635971,23.769479086,-56.617435673,-48.536826868,2210.0
4.9471897752,51.805288755,-58.901352891,-50.927774554,2220.0
5.1388713011,80.843395836,-50.241141763,-57.958840496,2230.0
6.017300121,111.65056883,-44.188889485,169.8775947,2240.0
8.9055384932,139.51324806,-47.195192331,115.79130867,2250.0
11.228728131,130.40871734,-47.019538625,35.986727695,2260.0
7.5682290721,141.77581706,-53.258704059,-17.21593317,2270.0
5.9363987683,169.64861897,-54.927786599,-57.828822935,2280.0
5.2519290726,-162.44883863,-55.424364019,-94.837347262,2290.0
4.9525931875,-134.90817561,-58.693424763,-133.44105103,2300.0
4.8482491528,-107.49150666,-61.868190007,-174.08291827,2310.0
4.8353883016,-79.709020291,-64.764618621,-172.96669579,2320.0
5.0460386358,-51.393642678,-55.801732926,-164.78304749,2330.0
5.791049704,-21.016117984,-40.447099919,58.98019726,2340.0
8.2407888101,7.8037546443,-47.807415722,-13.757691455,2350.0
10.974574793,3.0850367555,-48.58761251,-99.766329985,2360.0
7.4569617936,12.345069586,-55.524239758,-173.41368988,2370.0
5.7269153347,39.920792447,-60.395526765,153.05941102,2380.0
5.0548823931,67.768649305,-66.781385809,132.59352252,2390.0
4.7127175231,94.732606006,-68.994938212,108.69962433,2400.0
4.5847720297,121.05033782,-70.385480224,93.621919562,2410.0
4.6084798846,147.50488791,-70.066847264,84.592981022,2420.0
4.8168364847,174.66694727,-65.699331396,90.037379826,2430.0
5.4459033088,-156.69534016,-50.672304692,35.024388709,2440.0
7.458409172,-128.35055726,-51.91395065,-83.040154554,2450.0
10.474991772,-126.15279326,-50.468844177,-161.03459151,2460.0
7.5153548228,-120.54878603,-53.510040865,119.55011905,2470.0
5.790048946,-93.011885536,-58.391488007,64.329124192,2480.0
5.0901747969,-64.626885575,-62.021072682,17.714269556,2490.0
4.8204218829,-37.389335066,-64.852720094,-13.172467768,2500.0
4.6890773464,-10.521559632,-66.47106718,-40.20053597,2510.0
4.6716583342,16.353731689,-66.749022262,-58.170912397,2520.0
4.75414706,43.427066822,-67.360748842,-75.25563094,2530.0
5.2345684386,71.518882143,-57.727043048,-91.129240198,2540.0
6.8165737523,99.805955465,-50.936541595,140.36897962,2550.0
9.8602874828,107.7116452,-52.981677123,46.556025677,2560.0
7.5205918594,109.23094453,-60.496135155,-43.171672289,2570.0
5.5953106716,134.6922966,-68.95264081,-95.084694823,2580.0
4.9324260386,162.15566945,-76.061154985,-120.06760497,2590.0
4.6977833949,-171.24181844,-80.263589469,-146.74350519,2600.0
4.6296961234,-144.86736435,-82.044620103,-150.68449427,2610.0
4.6674149023,-118.26928246,-86.933090737,-133.61474792,2620.0
4.8700043366,-91.338090247,-78.753173516,-115.63369551,2630.0
5.3417924219,-62.688049333,-67.930310281,-134.01079854,2640.0
6.6625492333,-32.328000899,-53.627498577,134.40592813,2650.0
10.301051358,-16.377979473,-53.053244241,32.424111944,2660.0
8.3968541099,-22.239252439,-57.048627446,-73.120029465,2670.0
6.0124148988,3.5053445366,-65.35923308,-132.44343214,2680.0
5.1085228848,32.251547483,-72.136123251,-165.24955578,2690.0
4.7037322817,59.229776336,-77.930903053,179.17618796,2700.0
4.5468360929,85.30841099,-80.965267598,158.116132,2710.0
4.540273401,111.11185844,-79.749548,143.52031736,2720.0
4.6668935519,137.11936089,-77.935879813,147.63196319,2730.0
5.0262837017,163.82820929,-71.060063364,149.6913511,2740.0
6.0402094477,-168.74699895,-56.610261569,105.1499053,2750.0
8.8947466387,-147.18919722,-48.20677449,-13.804541013,2760.0
9.1745277769,-155.78554068,-46.804393785,-131.76143614,2770.0
6.2049540521,-133.78639091,-54.054576172,123.96294651,2780.0
5.2602692739,-104.70282836,-63.119355263,86.795992696,2790.0
4.9852927837,-76.532984216,-72.165345289,50.835639207,2800.0
4.945947512,-48.917623275,-72.147154349,19.75063002,2810.0
4.9135729428,-21.640083573,-73.320096074,55.867360816,2820.0
5.0169298057,5.8742799238,-75.724545756,41.672116124,2830.0
5.3022764664,34.282363001,-70.536672836,34.934552752,2840.0
6.1017643352,63.213220242,-60.059989179,7.4693802195,2850.0
8.3848942664,88.589188936,-49.327743745,-95.353024544,2860.0
10.325857741,85.048320288,-46.508062138,144.38582615,2870.0
6.8311882458,96.105983558,-51.563095338,9.8618588843,2880.0
5.341259132,124.84653993,-65.440290108,-49.254450121,2890.0
4.8993911942,152.51422126,-73.552688403,-70.336328955,2900.0
4.7486554835,178.66013734,-81.363293362,-71.781525619,2910.0
4.7249505916,-155.82888414,-77.484054429,-79.333026446,2920.0
4.9186107774,-129.35715739,-76.483890758,-81.158835697,2930.0
5.3037828675,-102.12223166,-75.46772162,-77.325522832,2940.0
6.0993686024,-73.204939761,-66.541440465,-105.23212127,2950.0
8.3658829072,-43.535893626,-53.730338402,168.24595016,2960.0
12.192750617,-44.911856705,-49.961980491,58.476518742,2970.0
8.1931502032,-41.431753349,-49.597615296,-47.653651156,2980.0
6.1164444969,-10.032552325,-62.646658198,-150.98506942,2990.0
5.4198207823,20.603212067,-69.490215093,-172.97058676,3000.0
5.1789437738,49.368383359,-72.681529141,-178.55642866,3010.0
5.1194486846,77.177242715,-71.447271707,-168.66125786,3020.0
5.1814601028,104.17518354,-75.721000867,-156.01075675,3030.0
5.384445115,131.04831871,-71.867546284,136.97975626,3040.0
5.8707256911,158.29871499,-61.55152918,138.56782156,3050.0
7.2658809949,-173.96941088,-51.478251554,71.939546826,3060.0
11.603968841,-160.0785957,-44.924322363,-29.234006619,3070.0
8.8769839374,-176.45704256,-44.356694522,-137.15178732,3080.0
6.0157674446,-147.39816266,-51.851814773,73.687399362,3090.0
5.3515615184,-116.95021502,-63.773875858,38.890835424,3100.0
5.2934992014,-88.369573805,-66.533194362,65.324606148,3110.0
5.3937427668,-60.566340017,-72.218438482,77.694238286,3120.0
5.566205015,-31.95126283,-71.163893027,45.779120672,3130.0
5.9952777341,-3.0187263925,-66.346982956,27.958339026,3140.0
6.6982760634,27.22074072,-58.3823179,12.23899671,3150.0
8.1522042077,58.273722252,-49.078112465,-44.749848777,3160.0
12.193246218,83.965978265,-45.401086389,-132.42402718,3170.0
12.549081504,54.446017173,-44.82337569,113.89743938,3180.0
7.3988131494,80.618765893,-43.67606966,10.691008878,3190.0
5.9102279173,114.80689215,-60.946064896,-84.231440531,3200.0
5.4625318257,144.85430019,-70.205428358,-98.009384552,3210.0
5.4991859578,173.05199196,-76.902446109,-82.740928449,3220.0
5.5436679656,-159.73513251,-74.188480583,-90.507602712,3230.0
5.8902862333,-132.84494077,-72.761273446,-115.37613116,3240.0
6.5232846883,-104.45447825,-61.958324295,-120.00029987,3250.0
8.1072916835,-74.134790383,-50.620579037,-179.25428195,3260.0
12.495499007,-47.326173204,-47.468303947,94.085593838,3270.0
15.154972795,-87.267308927,-44.201377985,-23.010100272,3280.0
8.3807082697,-66.122213737,-47.114243125,-70.714300256,3290.0
6.6230735658,-27.247858047,-50.814252988,141.63161462,3300.0
6.3396327513,7.4119392647,-64.982294746,133.70072683,3310.0
6.4462493643,39.89511505,-69.236692487,149.95527366,3320.0
6.6496647264,71.679453701,-69.430550533,149.8088439,3330.0
6.9731607226,102.89952353,-67.298007841,137.99284205,3340.0
7.5389588274,134.01643554,-61.473553966,119.67945191,3350.0
8.6186280592,165.35042478,-51.822229982,73.321718009,3360.0
11.576557645,-158.57856895,-48.78005696,4.918588774,3370.0
22.698393874,172.46884975,-38.141422298,-96.138138707,3380.0
9.9349782278,158.21451151,-49.096368338,-175.99342025,3390.0
6.8140414074,-159.43561425,-41.080352413,116.11147655,3400.0
6.250458045,-124.59551117,-60.373195517,8.5548523411,3410.0
6.3992495408,-93.236125468,-66.725274503,15.16089509,3420.0
6.9158020894,-62.835476869,-67.442466855,35.186058861,3430.0
7.6639657199,-32.246151241,-65.572044142,39.273694693,3440.0
8.918854003,0.24447361246,-57.89331959,32.940731562,3450.0
11.01726634,34.70078494,-43.724557661,-35.22682407,3460.0
14.825393049,76.703674595,-47.962944419,-100.86297703,3470.0
33.035218468,-117.86734818,-31.91547875,7.0865108596,3480.0
12.887366874,-3.8111968608,-51.691872776,70.618123712,3490.0
8.8385898975,54.505943174,-52.327351638,75.622912896,3500.0
7.8739510634,101.74950888,-52.791504386,-78.87508385,3510.0
7.8094078138,141.59874524,-65.662723847,-70.192214641,3520.0
8.1052847421,177.36937001,-68.070575268,-52.475322045,3530.0
8.6486033124,-149.14671241,-66.043163832,-50.893920954,3540.0
9.6229279108,-115.41246945,-58.62403423,-64.3870973,3550.0
11.440144497,-80.754231372,-53.624011347,-175.0063678,3560.0
15.518429419,-40.712288795,-55.948284962,157.90862732,3570.0
29.137723343,87.224930366,-44.369417006,-124.42188659,3580.0
13.350586036,-146.31976663,-58.843173069,-60.780615023,3590.0
9.0295977811,-89.623028977,-58.287479759,-78.265984891,3600.0
8.3043884449,-41.189219593,-46.419894752,111.14304227,3610.0
9.0233574723,1.9049895869,-65.428311456,107.65108746,3620.0
10.383985528,43.642300299,-70.323168081,164.50062838,3630.0
12.075808286,86.824361532,-62.812063044,-139.04681634,3640.0
13.872152719,135.38833602,-49.046694221,-99.388850293,3650.0
14.589987612,179.06004062,-53.077715289,65.949096277,3660.0
16.614895561,-106.99738435,-56.749990832,126.30084125,3670.0
16.122000619,-31.451502618,-58.416637082,-179.99502883,3680.0
13.516824435,46.763508139,-59.776544581,-149.71406959,3690.0
10.663986045,118.5490647,-58.277574882,-150.05364326,3700.0
9.6294908838,-179.64576919,-50.427245037,102.97940379,3710.0
10.073404942,-127.10414625,-61.725643913,34.570993244,3720.0
11.544193092,-80.931695344,-61.809143175,13.750770384,3730.0
13.977356139,-36.505200786,-49.569572136,-21.55993742,3740.0
17.705584388,11.314047311,-56.402214162,-78.068797568,3750.0
19.908834736,92.755677868,-56.668320957,-18.499684537,3760.0
16.774684866,171.07604381,-58.323804906,36.370924738,3770.0
12.998605369,-133.35375864,-58.441327017,66.052455713,3780.0
10.39004114,-84.8978682,-52.02417211,68.190282989,3790.0
9.1876471442,-35.737677685,-44.543837163,-24.782058397,3800.0
9.7760357768,18.438013475,-51.155214442,-57.436804884,3810.0
12.651773051,78.488903917,-50.420346285,-56.793020986,3820.0
17.701697109,149.24379256,-44.283588048,-37.643185111,3830.0
20.171373291,-115.72479543,-37.673868835,171.60414626,3840.0
17.400159985,-41.637309331,-53.373534491,-94.615348577,3850.0
14.928303159,10.454418139,-57.99039326,-69.733431672,3860.0
12.946973008,56.556119818,-59.317146583,-63.065312537,3870.0
11.203307208,100.34902838,-57.430830924,-71.746702821,3880.0
9.8489416204,144.67611629,-55.344357371,-106.89569258,3890.0
8.8830826574,-169.73104973,-58.553720758,-143.7235687,3900.0
8.9844122443,-121.09582769,-59.712732327,-166.25800412,3910.0
11.667121345,-69.554805926,-55.702606178,178.78788659,3920.0
20.436628838,-20.367916982,-41.252755166,156.10281747,3930.0
24.021956507,-152.24976544,-40.665957445,171.12431003,3940.0
14.662542458,-117.52142859,-61.060651742,176.40338838,3950.0
11.005344576,-85.023239806,-65.324496461,-174.91315169,3960.0
9.4349688253,-54.333248428,-64.849396845,171.20395789,3970.0
8.3825901881,-23.482559634,-61.828703413,126.8169603,3980.0
7.7640511904,8.7510796612,-64.323669021,92.822229135,3990.0
7.5944034551,43.726521441,-66.807727749,91.181143913,4000.0
8.4015376378,85.216638342,-65.707386037,86.330340903,4010.0
11.788216948,133.33556204,-60.766088208,78.684960928,4020.0
23.591059556,153.98592928,-43.661611543,20.698482477,4030.0
17.381940378,86.964973312,-45.873059882,142.1910186,4040.0
12.281327732,118.87906222,-66.670048116,98.986456643,4050.0
10.146379253,153.93057333,-70.029515832,104.71317533,4060.0
8.758119448,-173.58222414,-65.987150513,77.666535364,4070.0
7.7301289201,-142.77415415,-65.573323272,24.132131629,4080.0
7.0148729766,-112.8476623,-70.788118195,-23.474453792,4090.0
6.6337551043,-82.319161392,-70.301307632,-54.836944908,4100.0
6.819586484,-49.631639224,-67.795855066,-62.237817866,4110.0
8.6114169508,-14.811084801,-62.710136343,-80.92050816,4120.0
14.012160742,-1.1258153211,-51.81970147,-151.02604146,4130.0
12.51458668,-22.213475895,-47.499724445,35.075149523,4140.0
9.2534863117,-1.7669887428,-62.585316393,-49.14413328,4150.0
7.8299174958,25.690141092,-73.346187488,-46.801308172,4160.0
7.1697031206,53.25899369,-68.836499009,-40.647652467,4170.0
6.8884489023,81.513819154,-65.986758016,-97.194779578,4180.0
6.7245863531,111.08702039,-69.450620691,-135.57142621,4190.0
6.6552572788,141.89257445,-71.11554508,-144.38643086,4200.0
6.9320311056,174.81422022,-71.347647296,-157.43788359,4210.0
8.3194941859,-149.76701044,-66.877958552,163.98739359,4220.0
12.336618695,-128.69695776,-54.951660074,99.801518264,4230.0
11.774227616,-139.46364188,-53.783957783,-17.722927808,4240.0
8.7278914872,-119.46380023,-64.08089052,-119.96388062,4250.0
7.2896145755,-93.362733916,-70.477517887,-165.42902563,4260.0
6.533428521,-66.692766345,-72.879281126,-168.33800963,4270.0
5.9818062326,-40.77228757,-71.546135929,139.01199316,4280.0
5.700393019,-15.593243195,-74.235886697,71.156370757,4290.0
5.6411006942,10.058706419,-75.803871978,61.485992565,4300.0
5.8578151771,37.470375638,-75.739129313,89.676851002,4310.0
6.8253376956,67.137429744,-75.930726418,12.548118044,4320.0
9.7533420003,90.446701939,-62.662053225,-16.879739413,4330.0
10.258699716,86.567320047,-60.613310586,-118.15470845,4340.0
8.0289284223,106.15340115,-70.302648599,159.48290848,4350.0
7.0438252462,133.51747413,-74.140799088,90.593177404,4360.0
6.4857220477,160.87404715,-77.824408805,69.126365861,4370.0
6.1562475786,-171.83561625,-78.666988529,77.278592591,4380.0
5.9352987234,-144.63661148,-80.124423271,8.0397376003,4390.0
5.7865244582,-117.92574657,-83.446127924,-12.663548813,4400.0
5.7509851288,-90.421880445,-82.750349234,-74.267994994,4410.0
6.0731078322,-62.2766717,-74.378938759,-65.188523508,4420.0
7.6063070619,-37.624575792,-67.401861734,-107.35514676,4430.0
9.0514779707,-31.644735259,-65.805103824,148.2002182,4440.0
7.147927377,-18.736454425,-72.380474774,9.2178775899,4450.0
6.0649233386,5.1300464173,-74.242660213,-1.8935047001,4460.0
5.6810634388,29.279366961,-82.88121476,-24.539837803,4470.0
5.5662316261,53.670058895,-77.646831269,-44.759249378,4480.0
5.5454403787,79.007293445,-74.842625897,-66.195530151,4490.0
5.5566291073,104.90753395,-80.694347551,-139.54524827,4500.0
5.7759853579,131.36126627,-77.483314946,-159.44277788,4510.0
6.237671581,159.23350449,-77.417737656,-168.65777829,4520.0
7.5279597306,-173.04924998,-73.528959306,145.5812365,4530.0
9.1305803024,-159.75143243,-71.780038011,38.418952376,4540.0
7.8246842282,-146.58079306,-71.810040252,-87.017613378,4550.0
6.5897183943,-122.40250798,-79.41872088,-115.33289288,4560.0
5.8533827465,-96.320039073,-92.451878616,169.95503419,4570.0
5.5335389072,-70.497557324,-85.670450648,-162.1075761,4580.0
5.2750322717,-45.786338538,-95.569014588,60.707035416,4590.0
5.0746001232,-22.281766456,-85.894649231,59.278287587,4600.0
5.0285173712,1.210548991,-92.848175772,80.687979549,4610.0
5.3243183288,26.090871644,-95.808917037,-87.71421354,4620.0
6.1081297205,51.3595232,-91.137786247,-93.955428924,4630.0
7.6239346963,66.89432693,-77.594111318,136.33010927,4640.0
6.9600315289,78.441059148,-78.969981294,66.604901455,4650.0
6.0761770916,101.42623239,-94.071302808,42.147185392,4660.0
5.6798228443,125.8937139,-93.4792794,-61.192752708,4670.0
5.5190087859,150.88430455,-111.84655388,-64.355263665,4680.0
5.4975135795,176.19191979,-92.978980397,44.712602617,4690.0
5.5818302902,-158.26518542,-90.49190071,15.270391194,4700.0
5.6554250214,-131.7144579,-81.992974203,-124.76561736,4710.0
5.6672076701,-104.89041991,-81.325609591,-109.64950928,4720.0
6.0213037603,-78.838683664,-92.881697941,140.15420841,4730.0
7.3500198488,-55.914112543,-75.032692054,107.24570155,4740.0
7.4595999886,-46.160981983,-75.524319093,35.210354595,4750.0
6.0402125775,-25.859628124,-90.50459735,-38.842887481,4760.0
5.4529988761,-1.7305439742,-91.439810681,-133.84862855,4770.0
5.2626580857,22.201514213,-88.458758082,-111.98168528,4780.0
5.1453860538,45.852866782,-89.351741384,-54.266027498,4790.0
5.0559270039,70.661563096,-95.773400395,116.98199347,4800.0
5.1775378061,94.669721402,-82.90032358,160.40509378,4810.0
5.2634177387,118.39954764,-88.210145067,-157.88287107,4820.0
5.7304258983,143.8686287,-89.534202685,48.225865425,4830.0
6.9874742333,167.83142623,-75.031892889,57.056121029,4840.0
7.5535680372,-178.64656818,-76.007748891,-7.6184003037,4850.0
6.4819696573,-159.04987061,-88.335609555,-179.90621458,4860.0
5.8423488982,-133.42463231,-82.076519109,157.85433236,4870.0
5.4961193972,-107.59006368,-84.688227665,179.42485973,4880.0
5.1984982675,-82.614999796,-96.720950721,-29.645201491,4890.0
5.013342113,-59.411015619,-78.130650498,27.252392764,4900.0
5.1091604377,-35.722495255,-86.333554203,11.931827693,4910.0
5.0810711189,-9.8243815858,-91.958408423,-88.565321191,4920.0
5.3324652882,12.955872972,-80.220668452,-123.16502758,4930.0
5.9807345761,35.820979899,-77.37216051,-146.31855473,4940.0
6.905718276,51.031037967,-83.698704491,151.27594724,4950.0
6.1077330924,65.862832415,-79.658562888,-39.948224569,4960.0
5.44870719,89.070304499,-78.8932256,-39.451992203,4970.0
5.2247924072,112.83462209,-85.551912944,9.5668923015,4980.0
5.2372125934,136.62477998,-88.159575935,177.02536183,4990.0
5.4374362525,161.29665796,-76.944819188,-133.29689478,5000.0
5.6546631703,-173.22450888,-74.836108564,-115.69339083,5010.0
5.5104431187,-147.77369461,-82.974512258,-60.630969345,5020.0
5.8825293962,-122.13245495,-74.813474983,84.966359514,5030.0
6.371961062,-96.193972315,-69.406230384,74.224581161,5040.0
7.6497885804,-75.288098006,-82.744569665,8.0704650657,5050.0
6.9615187175,-63.458987259,-75.685242647,-113.67411517,5060.0
5.7769670086,-39.600133026,-83.673232045,-113.44425834,5070.0
5.3722574929,-14.496608285,-88.628161346,-169.19418929,5080.0
5.1688161566,11.742532763,-80.049902122,158.68833807,5090.0
5.0313204282,33.696704472,-80.88044495,-131.72417783,5100.0
5.1068177886,57.211452301,-81.691811216,-89.459254193,5110.0
5.2421761742,81.370630185,-87.351208771,-48.46212947,5120.0
5.443898281,104.79831799,-78.980758254,83.831275094,5130.0
5.9663307898,128.3303192,-73.197400674,58.632988425,5140.0
7.1625242993,148.67198982,-73.50622331,-92.89218743,5150.0
7.2179091364,158.82296587,-67.005869092,-123.13792592,5160.0
5.9084496898,-179.374245,-74.303210919,-86.179983164,5170.0
5.5596217185,-152.96969799,-78.306242643,95.037931702,5180.0
5.4883661099,-126.34485282,-70.857621162,172.80632856,5190.0
5.3895393858,-103.26743578,-73.262568092,-124.74457759,5200.0
5.4670804525,-77.946795984,-71.960858365,-56.950791898,5210.0
5.6668962368,-52.029589539,-71.73500965,50.633172694,5220.0
5.711676197,-26.228204105,-70.452611145,130.55151346,5230.0
5.9200207752,-1.8663586736,-70.497257332,98.830709141,5240.0
6.8607500046,20.986959413,-61.325022972,-87.81268657,5250.0
7.9052032034,31.760868298,-59.542048409,-106.17965786,5260.0
6.1986677883,47.243792968,-74.248098408,-46.028124854,5270.0
5.2373053325,73.464632549,-63.685180268,89.355964263,5280.0
