S11m,S11p,S21m,S21p,Frequency
5.7029028893,-60.24487219,-50.634823371,104.61772152,2000.0
5.3659915845,-30.931236575,-55.824184234,99.441390087,2010.0
5.3984040149,0.70533448528,-62.819833279,95.760937773,2020.0
6.0938292152,34.216997989,-67.861268921,174.61146012,2030.0
7.9142837176,67.757547118,-56.778827397,-172.98736721,2040.0
12.658561339,84.770953576,-44.721315739,149.16937298,2050.0
11.264443997,65.287665468,-37.684851886,49.707877397,2060.0
7.6885790196,87.599411788,-34.635442493,-44.864825127,2070.0
6.2560235655,117.66335776,-40.6141886,-125.98362459,2080.0
5.5675621447,146.70793923,-46.390788155,-160.71663401,2090.0
5.2907725085,174.3239663,-51.459381306,178.49270939,2100.0
5.0314996089,-158.26165101,-56.213961356,173.08090726,2110.0
5.1241025652,-128.58674907,-58.609022292,-177.80855262,2120.0
5.6163066667,-96.945316969,-56.303119828,-168.07555189,2130.0
7.3141762869,-64.868567909,-48.277478855,-174.4634343,2140.0
11.749057166,-48.083050903,-31.853902856,130.94182457,2150.0
10.550205956,-63.941481191,-33.996429017,-79.022406772,2160.0
7.2187039058,-40.249736766,-46.14334066,-125.63307093,2170.0
5.8582975921,-10.820300762,-52.073197922,-145.94153788,2180.0
5.2617619174,17.881213636,-55.65155332,-157.82237163,2190.0
5.017070896,46.296812329,-57.820164787,-172.04397302,2200.0
4.9531862771,74.530849286,-62.270393441,-177.27853338,2210.0
5.0167603325,103.36891455,-59.455871754,-151.38671466,2220.0
5.4823097793,133.37556022,-53.554520302,-163.02296892,2230.0
6.9558211162,165.10667843,-43.793416979,-171.10107698,2240.0
10.868442139,-175.4216801,-30.594575522,-44.016909039,2250.0
10.261137569,170.9810387,-44.268990696,-96.436711083,2260.0
7.0523052136,-167.36855284,-53.273835721,-114.8097951,2270.0
5.7741088397,-138.41558398,-58.431091411,-121.87655656,2280.0
5.2070654153,-109.98964368,-61.948240891,-126.2318647,2290.0
4.9424873766,-81.867735249,-64.50714747,-127.69360483,2300.0
4.8184184923,-54.065141196,-66.551427889,-122.30843897,2310.0
4.8904398082,-26.126513077,-64.674158479,-100.98352328,2320.0
5.2433401966,3.263569918,-56.63443221,-92.697067608,2330.0
6.4940164296,34.144675429,-40.805706288,-84.106637364,2340.0
10.246495932,53.989427001,-40.511271901,-3.3053834866,2350.0
9.66660591,41.721878566,-48.83073202,-76.342389951,2360.0
6.6164550113,63.595248827,-59.670693159,-110.05435285,2370.0
5.4498503433,92.230661808,-68.593496516,-112.29862535,2380.0
4.9239197754,120.09321477,-73.844062281,-87.430948857,2390.0
4.7420757823,147.2490901,-74.050533072,-66.639259574,2400.0
4.7271857262,174.41476309,-72.230844877,-52.398727303,2410.0
4.8482988378,-157.77532074,-67.392980237,-48.104777837,2420.0
5.2273555634,-129.05652793,-60.446419575,-51.489733097,2430.0
6.381092833,-98.716383169,-45.230088973,-60.968813866,2440.0
9.7527015807,-75.48757876,-45.608142062,77.505186879,2450.0
9.9980776202,-86.167972102,-52.447726113,11.516884145,2460.0
6.7590546432,-65.6782968,-59.721069072,-20.762480125,2470.0
5.4758535349,-36.412909876,-64.281412651,-39.098184354,2480.0
4.9728938204,-8.0996285803,-66.789360149,-51.759552504,2490.0
4.7659419466,19.410079526,-68.064363227,-61.551823287,2500.0
4.643639296,46.230655213,-67.985695234,-73.267227733,2510.0
4.6761759636,72.889652654,-67.909941625,-81.243644485,2520.0
5.011227152,100.59096523,-65.28614989,-76.520188067,2530.0
5.9447124727,129.80983213,-54.112652444,-76.586267718,2540.0
8.7720861215,154.02897197,-46.56222759,76.790708952,2550.0
9.8969164302,146.16725045,-56.720996396,-4.4075356757,2560.0
6.7487815325,162.5900653,-67.806944712,-60.260607347,2570.0
5.4669254713,-168.67830465,-75.072696569,-91.132023208,2580.0
5.020763448,-140.17951598,-78.150166511,-110.00632535,2590.0
4.8248750679,-112.52766468,-79.316710314,-123.8183017,2600.0
4.7810279712,-85.215164744,-78.446577873,-140.07924122,2610.0
4.9001878059,-57.507578632,-75.496318832,-170.63367713,2620.0
5.1232827649,-28.935035038,-70.204903606,157.26420706,2630.0
5.811447577,1.0029327805,-58.399670066,120.68514755,2640.0
8.1970146333,30.192086824,-42.967355554,-37.555865665,2650.0
10.86580247,23.739835383,-48.6047446,-144.2180469,2660.0
7.116035966,34.676737976,-57.910204839,158.90345292,2670.0
5.4036580494,63.091517241,-64.338815804,144.11549603,2680.0
4.8596420917,90.712547613,-68.534406314,138.05506265,2690.0
4.6862133804,117.48288284,-71.238403894,132.71924568,2700.0
4.6676016029,143.83992734,-73.143048064,123.94502438,2710.0
4.7726877631,170.24248433,-73.442949895,115.97867578,2720.0
5.1047064119,-162.51437381,-71.304022048,111.79364115,2730.0
5.9206775423,-133.60938596,-63.590821452,107.29298904,2740.0
7.9961416018,-104.92510051,-51.465670266,41.639515978,2750.0
11.732169181,-100.74953542,-48.721296043,-55.062691513,2760.0
8.1416583915,-100.77275787,-54.65089925,-123.24398444,2770.0
6.0501150875,-70.101319926,-58.95723086,-139.95675662,2780.0
5.3929913195,-39.081101025,-60.946210594,-149.0570385,2790.0
5.0678146854,-9.8673145909,-61.779584086,-160.1619586,2800.0
4.9290950838,17.437132831,-62.179179075,-174.31249582,2810.0
4.8736772096,44.330177677,-61.306762656,172.49953555,2820.0
5.0773416131,72.476377116,-59.533710483,153.9448835,2830.0
5.559296271,100.80495482,-57.11017431,125.6790309,2840.0
7.1030443738,128.32957769,-53.786782889,88.146491686,2850.0
10.414343301,138.67448589,-49.609092979,14.973966629,2860.0
8.3854771567,132.08287442,-54.039739713,-73.338634428,2870.0
5.8259148672,158.12042593,-60.977375251,-110.96533415,2880.0
5.0344610245,-173.1766837,-65.615858062,-138.73335485,2890.0
4.8588541814,-146.23439748,-70.477613558,-164.13732948,2900.0
4.9857064463,-119.04335076,-74.454525173,-176.97709142,2910.0
5.1948232922,-91.048491416,-76.958360778,-177.48971162,2920.0
5.5085962129,-62.698432339,-79.944438643,167.11164163,2930.0
6.1208307331,-32.59775052,-89.586616439,110.04881634,2940.0
7.6571820058,0.1473532395,-77.833675294,-26.888734213,2950.0
12.278735124,22.097839728,-65.290147118,-82.610534705,2960.0
10.932939945,-0.073226603903,-63.036719326,174.33960516,2970.0
6.9532348377,26.715349471,-67.511815803,99.479090034,2980.0
5.735308748,59.623761444,-69.579810276,4.7603551008,2990.0
5.2554852613,89.501587347,-69.701293234,-67.854065875,3000.0
5.0229092909,117.15049627,-70.204381004,-105.4750784,3010.0
5.0245022093,143.19073172,-72.021605751,-127.20147643,3020.0
5.2675639728,169.8636649,-72.850027325,-146.46445447,3030.0
5.8274088128,-162.13738397,-69.614774605,-159.45001407,3040.0
7.0644636898,-134.49108574,-64.944132122,-175.25937891,3050.0
10.429518964,-108.93352387,-57.339012022,159.52857501,3060.0
12.344152679,-134.07166265,-51.393598568,68.454845146,3070.0
7.3115822486,-113.40726305,-53.374570056,12.659129117,3080.0
5.9621356292,-79.029649704,-54.639496547,-64.945992202,3090.0
5.638692343,-47.848275424,-62.684649046,-106.86939246,3100.0
5.7097084358,-17.795554915,-67.072037558,-114.69796023,3110.0
5.8347328101,12.495160919,-69.258526494,-114.06865181,3120.0
6.1143590472,43.196856431,-68.387865712,-114.6632948,3130.0
6.563774162,74.063805008,-67.045772122,-121.72420133,3140.0
7.6549092542,105.44529206,-63.649784557,-134.61054835,3150.0
10.547985596,134.17166059,-57.524383476,-156.16942445,3160.0
15.559341246,120.89912864,-50.714169594,126.51455602,3170.0
8.9179531515,117.23267243,-56.381106486,62.805978873,3180.0
6.3079628948,151.91932231,-54.660251232,25.384227984,3190.0
5.6578568603,-176.03764569,-62.905440446,-66.422468404,3200.0
5.5780319054,-146.40172161,-70.491216686,-73.394367933,3210.0
5.8018578063,-118.17842223,-73.074379487,-80.186533298,3220.0
6.202442799,-89.690359021,-73.532388429,-90.927450478,3230.0
7.0662316965,-59.873560696,-71.041810164,-105.56728642,3240.0
8.5951785828,-26.173620435,-68.097179893,-112.43298038,3250.0
12.459136106,9.3571144698,-60.231971727,-123.19596564,3260.0
22.408587316,-19.609247048,-46.272488015,146.59672662,3270.0
10.988386611,-30.97713201,-55.305630144,77.943246481,3280.0
7.6868330294,13.51098758,-54.352700411,68.570977502,3290.0
6.7511574224,53.157389163,-51.79941146,-45.771039775,3300.0
6.4701579594,87.68692637,-63.561340974,-52.676912203,3310.0
6.5451892841,119.80689554,-66.417413434,-52.649030041,3320.0
6.8248876506,150.9679967,-66.863925618,-51.014715202,3330.0
7.3804439606,-178.3186641,-66.434576617,-49.384913755,3340.0
8.5862137161,-147.74922884,-64.249673513,-53.052711033,3350.0
11.204596265,-115.57271897,-59.66816627,-58.2036715,3360.0
22.342322186,-99.916793988,-46.377497369,-84.276746068,3370.0
12.4912416,-171.51222364,-53.969484523,153.89934893,3380.0
7.6538384621,-126.23613137,-56.701778783,151.13779882,3390.0
6.6949700093,-86.519317487,-47.687726185,123.88856081,3400.0
6.9644944508,-50.427455916,-62.093700148,13.412459233,3410.0
7.6094370261,-15.577293619,-67.747783136,30.982877062,3420.0
8.5575335924,19.701686356,-69.608660511,39.918803466,3430.0
9.8623091952,56.724600306,-68.608741648,44.298879414,3440.0
11.78858242,97.59292434,-66.909066803,48.428128072,3450.0
15.435660986,139.16014789,-63.67373949,50.605208667,3460.0
23.466296023,-133.36340446,-55.157630682,106.62986747,3470.0
15.584689907,26.915600917,-60.863783315,-133.2206816,3480.0
9.8522370487,93.371620307,-63.371577358,-111.50202537,3490.0
8.0218890523,145.02583959,-58.599443531,-98.012990827,3500.0
7.6785093379,-172.92666494,-57.629066618,79.107440307,3510.0
8.0242056037,-136.51019863,-69.765244081,120.63121155,3520.0
9.0119627466,-102.01586779,-70.443228529,135.46852621,3530.0
10.661560545,-66.524348641,-70.460125594,144.80940137,3540.0
13.598887069,-26.001785741,-69.811661506,151.14022868,3550.0
19.729292605,31.029040267,-68.206616194,169.59765562,3560.0
20.258195575,166.00510705,-81.662506192,176.42862592,3570.0
12.62446041,-119.41991692,-72.021075297,146.30392962,3580.0
9.4968678658,-61.581222091,-66.979909596,158.23884523,3590.0
8.8594657036,-7.1821993458,-58.667789783,179.52198016,3600.0
9.6900451765,44.300324736,-52.223027392,-7.597224578,3610.0
11.171834793,94.584796616,-64.799013581,26.056076075,3620.0
12.761951702,145.11130013,-67.400797482,59.45235651,3630.0
14.289789511,-162.17037781,-68.329000874,74.517018619,3640.0
15.361564919,-104.9062892,-68.248901457,87.674111383,3650.0
16.315742225,-42.916219838,-64.823075828,94.174886599,3660.0
15.673575626,29.056357608,-60.313911963,114.76192983,3670.0
12.87287919,99.120185678,-57.807304538,153.891183,3680.0
10.031913993,160.66375555,-55.340735117,-161.02759487,3690.0
8.801736538,-143.7791454,-46.116554791,-80.284765113,3700.0
9.4729847858,-92.445473169,-53.769895983,14.82043905,3710.0
11.818054817,-44.099394162,-60.93505222,27.438982109,3720.0
16.550036016,6.3570935147,-63.273362618,67.504044037,3730.0
22.519346495,89.10432307,-56.823858878,127.36974663,3740.0
18.191090676,-171.56997987,-61.204799511,171.61164261,3750.0
13.794913364,-119.08218879,-62.194226461,137.41899857,3760.0
11.148929489,-76.260364666,-57.482118338,67.56085083,3770.0
9.6136884909,-33.975572149,-58.634530925,11.676813075,3780.0
9.0268164977,11.987613805,-61.246307177,-3.6624411663,3790.0
9.4665937603,64.114658258,-61.592305829,-2.0579014142,3800.0
11.46147909,123.24989149,-60.452930487,-3.1212293361,3810.0
15.575779021,-169.63513675,-57.876391285,0.015565134135,3820.0
20.68517921,-83.350260716,-56.275755739,26.250907198,3830.0
19.907742762,19.617123286,-57.596490481,97.834199743,3840.0
15.618088973,85.91076805,-54.18321174,106.4795569,3850.0
12.353442748,132.8216416,-55.837598995,48.133951902,3860.0
10.057131233,172.2932131,-62.086176931,35.771214597,3870.0
8.4265136975,-150.04733343,-65.414981072,40.43688601,3880.0
7.5151357604,-113.01702089,-67.236428931,42.969537545,3890.0
7.6079022862,-73.79881259,-67.53514094,38.972868555,3900.0
9.7244324166,-30.706281515,-65.600724893,28.102281315,3910.0
17.190629984,5.7362747714,-58.181074008,8.265726277,3920.0
20.350553694,-76.45715262,-54.702152826,-136.20320923,3930.0
13.31402177,-58.796349696,-62.322020572,-175.66587183,3940.0
10.213113852,-25.071620987,-65.290333859,145.35711241,3950.0
8.9513882859,6.1369959141,-69.190375793,94.37536707,3960.0
8.2448387908,38.261810518,-72.528657846,79.949372368,3970.0
7.8796965022,71.821926663,-73.895261536,82.130162097,3980.0
7.7421751531,108.18607523,-73.39677178,97.078476991,3990.0
7.9158803085,148.39746776,-72.168473935,103.88052369,4000.0
9.3035466714,-166.78164017,-68.495473877,107.74433126,4010.0
14.861773809,-124.7824544,-60.31862262,94.720297446,4020.0
20.584443454,-171.35703085,-53.967837011,-12.709748339,4030.0
12.605146725,-163.86186835,-61.943249552,-72.656906833,4040.0
9.4426567743,-133.21932849,-64.445398191,-113.10959896,4050.0
7.8738809676,-104.20008933,-67.53990457,-168.20875399,4060.0
6.9460900668,-76.251125545,-71.312601798,160.72134348,4070.0
6.3935754033,-48.617318588,-73.223251186,144.67795945,4080.0
6.1479193029,-20.521211381,-72.837612541,133.20846446,4090.0
6.3853246611,9.4608850853,-71.112710817,123.64800364,4100.0
7.7779814968,43.149016885,-67.806281504,112.6536644,4110.0
12.155495877,70.518301232,-61.976704917,83.331862709,4120.0
14.31929504,48.015245079,-58.506077287,-7.1215943723,4130.0
10.272119482,62.026766511,-60.98488928,-55.384907155,4140.0
8.5276952868,91.901933699,-60.95994742,-106.77865054,4150.0
7.727891473,123.28621255,-66.053250236,-143.92929753,4160.0
7.1256942293,154.12363572,-67.628640195,-158.40426115,4170.0
6.7027143763,-176.12137538,-68.886669039,-164.85111294,4180.0
6.5070397881,-145.60778347,-69.898856185,-164.38036987,4190.0
6.4164704266,-114.39504756,-70.121720781,-171.82813708,4200.0
6.8868854472,-82.300353088,-66.928284553,175.90300744,4210.0
9.3405792269,-54.100888473,-61.291393106,154.86815824,4220.0
11.485828453,-57.845481288,-58.409177025,93.062577611,4230.0
8.6794538379,-48.878123913,-60.827097249,39.197950443,4240.0
7.0439002139,-25.292390783,-60.779530445,-13.904994696,4250.0
6.2553830674,-0.28523413375,-65.158777102,-90.162178823,4260.0
5.9356056074,25.153673182,-70.553353932,-106.76534966,4270.0
5.9072869494,51.424075729,-72.404475784,-116.08206475,4280.0
5.8245477883,78.466538854,-73.15210004,-130.12912092,4290.0
6.0282986586,106.54505087,-71.919294749,-137.98435186,4300.0
6.8164869906,137.08918364,-69.770702332,-148.89175908,4310.0
8.9964352068,169.09170903,-65.353606554,-168.06916979,4320.0
11.77391647,172.84355151,-60.189933,130.23116675,4330.0
9.001818441,-177.18802063,-62.118967271,79.210218798,4340.0
7.359458434,-150.2369939,-62.305340815,41.700384326,4350.0
6.5197256202,-122.44852019,-65.75283733,-35.142021948,4360.0
5.9201753104,-95.376262215,-76.49311855,-64.07972646,4370.0
5.4663201243,-70.106674502,-81.963203828,-46.4309615,4380.0
5.3042953482,-45.230473039,-81.626710894,-41.152507551,4390.0
5.3950745655,-19.502267832,-79.472289571,-52.998974119,4400.0
5.6650861454,6.8224028874,-75.091574211,-63.428829441,4410.0
6.750599665,33.059521639,-67.897091659,-90.778616162,4420.0
8.942661607,45.303114684,-62.401947312,-152.97185229,4430.0
7.9600921647,50.849421024,-62.505365034,126.97985434,4440.0
6.6004304229,75.045850865,-65.605539953,74.526447036,4450.0
5.9406544342,101.34647218,-68.906489141,34.448798593,4460.0
5.8605603615,126.69008205,-72.585147634,29.013810176,4470.0
5.9731717319,154.93025914,-75.04681882,36.583191185,4480.0
6.003538363,-177.05858593,-75.914674311,37.477456638,4490.0
5.9343079669,-149.03221265,-72.472564484,27.922816185,4500.0
6.0287569812,-120.73539923,-68.081777697,7.3109647888,4510.0
6.8386221181,-92.440521237,-64.018693739,-32.096206313,4520.0
8.5953389672,-73.601938968,-61.116309844,-105.35928572,4530.0
7.8398245627,-64.501491988,-64.77584989,172.80087489,4540.0
6.3685143637,-44.060857888,-71.76796766,127.57044297,4550.0
5.6756406428,-19.806198034,-77.935113528,105.9763895,4560.0
5.317575739,4.4287641755,-84.087724845,88.090839781,4570.0
5.0631857431,27.660764571,-90.75102761,54.675242596,4580.0
4.9157672015,50.980358998,-91.992143592,-10.89958527,4590.0
5.0558152972,73.658211978,-82.781360913,-55.543617745,4600.0
5.50909689,97.504642626,-70.836283193,-114.81893712,4610.0
6.1882568746,125.92744182,-67.677487055,140.29822531,4620.0
7.7738075025,149.76061855,-67.852893036,92.045881111,4630.0
8.159027589,157.85100341,-68.539428446,25.151544132,4640.0
6.9458404443,179.03144803,-71.946813716,-10.489114915,4650.0
6.2165431945,-154.20627953,-76.580331984,-21.697494918,4660.0
5.7591331248,-127.55453718,-82.58221895,-34.660877541,4670.0
5.5555058981,-101.21041699,-86.031422185,-36.978470787,4680.0
5.5051072084,-75.221311987,-84.938830343,-4.5761916181,4690.0
5.4626679286,-49.698566502,-77.582816209,30.684327977,4700.0
5.3592488917,-23.837874533,-63.043328787,26.044983971,4710.0
5.5723246861,0.88538072132,-67.29711342,-140.02188834,4720.0
6.6974911171,23.441037721,-70.908316138,178.10498009,4730.0
7.7027380643,35.909466539,-73.20355024,122.59484488,4740.0
6.3247690591,50.43569379,-80.307981448,77.071722354,4750.0
5.6040213354,72.794322954,-86.518873145,68.665069972,4760.0
5.5463300657,97.757094443,-93.408254936,72.899415631,4770.0
5.6948164925,123.59504358,-94.956060205,70.297511804,4780.0
5.6542142159,150.29682399,-90.180095277,62.862705958,4790.0
5.5975918397,175.11438258,-84.597345921,87.618592563,4800.0
5.6929851961,-160.49764838,-74.96146256,116.3894964,4810.0
6.1465046341,-133.38812821,-73.844252647,-67.852016173,4820.0
7.0960856754,-106.01741825,-79.538867604,-43.847979311,4830.0
8.0772268202,-88.895849422,-77.348646609,-63.198251797,4840.0
7.0763419023,-73.894798406,-79.226282239,-104.98197501,4850.0
6.0523430486,-49.603056673,-82.937420535,-137.68259538,4860.0
5.4201833735,-24.285088673,-85.225944267,-166.54008325,4870.0
5.1475932873,-0.21277125872,-84.966442737,162.06226275,4880.0
5.0875180766,22.79348816,-83.800464882,147.56464802,4890.0
5.4542450814,45.880619826,-80.949350629,133.97178003,4900.0
5.4856374532,73.39696029,-70.404562586,121.40422595,4910.0
5.5139840473,98.219441044,-63.76598945,-105.88946904,4920.0
6.1786281496,120.47249097,-71.643096445,-114.31491654,4930.0
7.4978198966,137.72807975,-73.314955434,-146.6619694,4940.0
7.1182575431,150.52037812,-77.801381248,176.62272394,4950.0
6.165209824,174.30248029,-81.33616209,152.80424566,4960.0
5.7863366596,-160.2511085,-83.049719288,141.33702038,4970.0
5.6964859058,-134.53792644,-82.585532745,143.16420898,4980.0
5.6665336457,-108.07536254,-79.544706767,139.83095704,4990.0
5.5407762339,-81.963420621,-74.496534674,137.37082558,5000.0
5.4492265285,-57.135784984,-66.600392449,148.11491299,5010.0
5.7145355746,-32.272111004,-49.052795956,-82.835259305,5020.0
6.1247996924,-6.644347917,-66.151890562,-58.111804728,5030.0
7.0714434153,15.638314664,-68.548987629,-81.395669683,5040.0
7.1053891808,26.009508745,-69.845991538,-117.6132306,5050.0
5.8197652995,44.787728846,-74.918478785,-130.85741419,5060.0
5.4669801543,69.956354341,-79.155162959,-118.90786573,5070.0
5.3876462136,95.411551697,-78.100199971,-112.32603899,5080.0
5.0807122537,118.83882412,-77.620525668,-102.74086248,5090.0
5.1471077193,141.10246514,-77.034308677,-113.53277615,5100.0
5.5723053974,164.77165884,-70.450643118,-141.23291565,5110.0
5.9761946128,-169.85097149,-57.31537816,159.27884539,5120.0
6.5068510888,-143.96225836,-63.828861798,49.510109589,5130.0
7.646081024,-120.52949841,-68.294678803,30.374591576,5140.0
8.2568221086,-107.42174326,-66.732609719,11.575353556,5150.0
6.8075928635,-87.953033045,-66.704714497,-22.611740224,5160.0
5.9384090539,-61.314712916,-66.589585032,-34.032101277,5170.0
5.7011195783,-35.292023296,-66.599322153,-28.996512333,5180.0
5.8468618549,-8.8411395688,-66.279448799,-10.837809783,5190.0
5.4227011314,18.37847231,-68.032333299,7.184672622,5200.0
5.3431007815,43.048776175,-70.584113703,-25.66780456,5210.0
5.629302217,66.180502478,-68.465501246,-70.166810985,5220.0
6.200487859,90.946619476,-64.040748023,-111.50624705,5230.0
7.1202264425,113.43783157,-62.321490093,-160.20361835,5240.0
7.975995163,126.9222689,-61.247882152,154.52826113,5250.0
6.6810482449,141.7797323,-62.993432828,100.46097006,5260.0
5.8055263627,166.55530169,-64.599325344,65.00565423,5270.0
5.700489958,-167.14778059,-66.551404777,50.293281621,5280.0
