S11m,S11p,S21m,S21p,Frequency
9.305102536,162.49777249,-54.87807757,36.796612874,2000.0
8.2915066361,-168.41828801,-54.982300874,62.199650466,2010.0
9.6823699926,-138.7437972,-51.115128275,78.322706945,2020.0
15.710612866,-107.14146725,-43.020522183,80.198796571,2030.0
23.192261234,118.12396086,-35.807236971,-91.198854054,2040.0
11.420985469,147.07520613,-49.977976424,-95.811700686,2050.0
8.6413946876,178.09430544,-58.559365195,-91.252253026,2060.0
8.6920309442,-151.99454969,-69.435480386,-104.38074117,2070.0
11.749677925,-121.45199514,-61.328621768,160.80465574,2080.0
24.685304607,-93.35762013,-42.243319197,170.69831651,2090.0
15.80170866,129.38263793,-49.040624869,26.753121245,2100.0
9.8957787512,159.89003766,-53.874427313,38.905613665,2110.0
8.3120156359,-171.39641846,-55.082695768,42.111215838,2120.0
9.2177109033,-143.11541583,-54.260380069,47.483967193,2130.0
13.875349738,-116.02928261,-49.808592171,55.568534756,2140.0
26.338818622,168.11111445,-37.249454742,-31.889617376,2150.0
12.57599094,154.06008559,-51.829842777,-61.637713997,2160.0
9.1421052607,-178.55157282,-59.099882201,-54.77469069,2170.0
8.9282513518,-150.71152629,-67.600203989,-32.685920132,2180.0
11.706111863,-122.23614075,-64.448220333,82.462173503,2190.0
23.030217342,-103.55132789,-49.132164059,100.93829711,2200.0
15.907177042,138.66089394,-63.232294726,31.898564663,2210.0
9.7057656364,165.97675674,-57.400865053,91.140820999,2220.0
8.0679413829,-165.35590097,-53.67625068,92.272766126,2230.0
8.968353248,-135.81422552,-50.738561533,94.398132727,2240.0
13.932522236,-103.63405639,-45.118648455,103.76975331,2250.0
27.039020633,123.38656845,-31.274417695,-55.159211318,2260.0
11.180589015,150.99211827,-48.010226881,-52.002532097,2270.0
7.7093190763,-177.81822702,-53.042962514,-38.844695465,2280.0
7.1677809226,-147.67363188,-54.57439813,-21.643370117,2290.0
8.890334235,-114.27729418,-53.51555314,2.5036987839,2300.0
15.574762828,-67.569677258,-50.712407892,53.30484566,2310.0
17.488107277,101.8692254,-66.339558597,39.169305467,2320.0
9.186511777,154.41315539,-57.19313972,71.169039079,2330.0
6.8577822017,-170.78488533,-56.92523297,86.219420707,2340.0
6.9340027599,-138.27609774,-57.47719185,99.865486551,2350.0
9.6449838582,-101.19972701,-55.666468013,123.31748753,2360.0
20.020527259,-32.536301413,-43.026139489,-178.76882888,2370.0
12.931685399,125.58782514,-47.510836774,-39.597457557,2380.0
7.6792604919,168.36320121,-52.074779817,-12.736858864,2390.0
6.2439746776,-158.29798479,-53.560489649,12.030395574,2400.0
6.8618487134,-125.59873563,-52.64489542,48.593780778,2410.0
10.524702232,-85.656701981,-50.442656386,102.26694922,2420.0
22.283140808,22.789108269,-42.901850162,-145.02394938,2430.0
11.09846343,141.21334961,-60.60542979,-33.673113139,2440.0
7.2866163301,-178.21172635,-81.792743743,-19.527596255,2450.0
6.6084693959,-144.60143228,-69.286521262,-178.3078183,2460.0
8.3182829471,-109.36740124,-62.489720643,-172.27017143,2470.0
15.54669355,-58.496993542,-52.232615266,-154.65394873,2480.0
15.74945669,113.07336883,-51.676776913,-6.6741097902,2490.0
8.3745176135,164.74349611,-59.744938236,37.28963388,2500.0
6.328191157,-160.21764118,-60.362172714,70.975191289,2510.0
6.6059753424,-127.24935687,-57.378267092,98.251406944,2520.0
9.8375396407,-88.09499692,-54.120367456,133.08097015,2530.0
21.785562265,6.4196656844,-48.451750028,-142.60293466,2540.0
11.166021711,142.5163298,-70.195834091,124.40415624,2550.0
6.9053693372,-175.65525442,-63.885737111,146.65687507,2560.0
5.9322355374,-141.75806125,-64.272032609,163.09732178,2570.0
7.1586419556,-105.85109624,-63.665677554,-173.13688038,2580.0
12.379843573,-52.809585685,-60.216643118,-111.12661328,2590.0
15.553046977,90.136261728,-55.955253351,61.452377943,2600.0
8.1018628439,159.09978856,-63.862526809,116.58124244,2610.0
5.7520215047,-162.55494231,-67.429626906,144.74688314,2620.0
5.6616310602,-128.77846279,-70.472659037,-153.03875791,2630.0
7.8320037478,-89.823523242,-60.833956691,-66.342900219,2640.0
15.234487731,-20.975643427,-47.005576354,-22.956213885,2650.0
12.346948188,123.37799471,-47.771806814,80.120623679,2660.0
6.9449049105,175.74261651,-54.250419401,105.23349154,2670.0
5.444074606,-148.38423073,-58.170532155,127.85374417,2680.0
6.0052192883,-113.6253011,-59.832558501,164.37482701,2690.0
9.3690182023,-68.914158091,-56.394557408,-111.98602495,2700.0
17.595499231,39.341477642,-48.009233943,28.991818969,2710.0
9.51738596,148.55284011,-56.919723717,145.26360882,2720.0
6.1136281856,-167.92949453,-60.093966245,-166.94225544,2730.0
5.5208448122,-133.22430813,-60.539603952,-130.26566997,2740.0
7.0420438197,-95.90886695,-59.95744542,-99.024612806,2750.0
12.870031025,-38.660765246,-51.917116431,-44.77969117,2760.0
13.732974554,110.79797652,-45.600920348,82.41209031,2770.0
6.9892598263,172.71175019,-49.403142162,120.1445063,2780.0
5.0734718945,-149.13271163,-49.822104197,145.40906195,2790.0
5.2230580297,-113.3302563,-47.993672471,-172.95823975,2800.0
7.7274491214,-68.314132768,-46.68548767,-105.82884847,2810.0
14.2737928,26.742064975,-44.279128614,-18.457290671,2820.0
8.7142534707,142.73061181,-54.155510446,73.410889072,2830.0
5.2173590451,-167.66667721,-64.055631158,98.434230526,2840.0
4.3435052992,-130.04306551,-76.156654318,-29.478705215,2850.0
5.0063673823,-89.046929476,-58.870984798,-38.552215178,2860.0
7.6917705437,-23.266852778,-49.949338454,-9.8518090101,2870.0
7.3068190914,90.360604783,-45.122661766,75.853725786,2880.0
3.5229376741,164.36681633,-46.612587222,137.66308509,2890.0
2.084445999,-151.08703995,-47.868186716,-174.29638765,2900.0
1.6223944221,-112.70918648,-48.054313168,-124.78922289,2910.0
1.7056817292,-64.857800904,-48.124470359,-72.415023151,2920.0
2.0015614511,15.668846488,-48.425034108,-17.484279915,2930.0
0.92168499364,117.1127492,-51.801101591,37.620627353,2940.0
-0.23207515134,-176.7208946,-56.124855753,55.593510633,2950.0
-1.4568105259,-132.05064285,-59.607051947,44.94739185,2960.0
-4.5633764193,-89.95847243,-59.099098618,26.791891342,2970.0
-17.571146437,-62.273205301,-54.973343382,22.944029174,2980.0
-11.199349374,-149.87354276,-52.68839603,58.338208179,2990.0
-9.0053188855,-110.84899252,-51.898493443,123.42695022,3000.0
-14.318701895,-53.970329877,-50.358874874,179.95804801,3010.0
-12.889637008,113.87070208,-48.7940444,-124.62371697,3020.0
-5.0845797981,172.47892479,-49.288646846,-71.062507837,3030.0
-2.4267531947,-147.79906373,-50.945050289,-25.71155119,3040.0
-1.2623024009,-110.30486579,-50.959563092,15.313312773,3050.0
-0.3142975047,-62.552569244,-49.505405967,61.382538821,3060.0
1.8619276059,15.895421687,-46.900388258,126.95389594,3070.0
3.4842608344,118.59561075,-47.309966631,-157.88828198,3080.0
2.7827070277,-174.18181002,-50.993137467,-96.945733172,3090.0
2.5131055582,-130.6838364,-54.632169326,-24.325003198,3100.0
3.0381240229,-89.723612849,-54.901377225,36.886083695,3110.0
5.2076025446,-33.808757009,-50.967635156,88.757741483,3120.0
8.2710996148,65.594910146,-46.159061607,175.87864541,3130.0
5.7499874163,157.18648029,-49.48014105,-104.5805479,3140.0
4.1590313023,-152.96512727,-52.54554333,-66.443744959,3150.0
4.0985337645,-115.3868453,-52.746664768,-43.535233404,3160.0
5.6912567378,-76.085735388,-50.836854585,-16.280070057,3170.0
11.128980824,-16.991818802,-47.425678504,23.766779351,3180.0
13.296186606,122.60173759,-50.433134204,132.27864599,3190.0
7.3398057736,-170.01553742,-64.131400412,-172.56001148,3200.0
5.6532403186,-130.81472049,-75.838684168,-10.502651694,3210.0
6.1634502616,-95.935379844,-62.135763182,24.618239681,3220.0
9.6112170596,-54.856605396,-53.184876826,43.703678344,3230.0
20.77671643,44.691817729,-39.091951966,121.30204589,3240.0
11.079537718,171.04471511,-49.155675959,-135.52069279,3250.0
7.1805600188,-147.37972886,-54.011161654,-116.84502296,3260.0
6.5124195012,-114.88588019,-54.126680545,-93.650416886,3270.0
8.1978184587,-82.845150197,-51.359253881,-45.381900634,3280.0
15.010076633,-45.278748304,-48.064066569,-1.7972811993,3290.0
19.322865159,161.31582403,-46.805924125,-168.6388314,3300.0
9.5618367172,-158.39719437,-59.849166267,-125.71074839,3310.0
7.2496129518,-127.03003155,-65.188958331,-68.198108058,3320.0
7.5052870886,-97.925242733,-61.751765587,-11.60552148,3330.0
10.606841148,-67.201140913,-54.805218465,15.597000238,3340.0
23.649360751,-34.107075298,-39.837358615,37.762101634,3350.0
14.631720906,-176.48240713,-47.875062976,-118.27100569,3360.0
8.999673356,-145.10888212,-52.004379745,-91.462601984,3370.0
7.6812477498,-116.9445785,-52.602475292,-40.723377161,3380.0
8.8260538013,-90.073251947,-57.00429771,-10.853118259,3390.0
13.629866753,-65.967360067,-57.527000459,-14.50840536,3400.0
23.432243925,-132.88689781,-53.266904038,-118.35099883,3410.0
12.291140354,-150.61091367,-72.378208356,107.26793544,3420.0
9.0078959684,-127.50761773,-66.206766294,71.441996413,3430.0
8.6771096852,-103.82755597,-62.335994097,70.786048569,3440.0
10.76018865,-81.123107144,-58.50905633,83.154515017,3450.0
16.926045755,-72.811442796,-51.575854319,89.560640737,3460.0
18.051055095,-139.59760398,-51.433262871,17.479529896,3470.0
11.596492649,-136.44904032,-59.589616702,26.475614736,3480.0
9.6977856772,-116.31196571,-64.339232687,59.180025583,3490.0
10.381966143,-96.05122353,-67.751033174,58.898944786,3500.0
13.575018515,-84.605227932,-69.710968886,22.942644301,3510.0
17.086859675,-109.64887873,-68.457207508,-74.539308723,3520.0
13.318379134,-129.04771466,-66.302511908,-167.71204595,3530.0
10.731194848,-118.1121563,-63.448733684,163.56205043,3540.0
10.417929233,-101.50714265,-60.005778382,156.93239512,3550.0
12.143788168,-87.251743762,-56.476517718,162.88310905,3560.0
15.813824835,-91.171400511,-53.765793613,157.28420985,3570.0
15.289018404,-120.6902662,-55.733733674,116.39665106,3580.0
11.931975416,-120.31222441,-60.242616145,107.49835254,3590.0
10.879318424,-105.34880713,-64.201268266,118.1408067,3600.0
11.938720486,-91.017764153,-65.61204376,116.58647819,3610.0
14.885569492,-90.495036515,-64.912199375,93.382779331,3620.0
15.525823213,-113.58328103,-66.820940044,44.500353565,3630.0
12.673928353,-118.8791116,-74.774129625,31.418786673,3640.0
11.202858439,-108.51261663,-83.400739856,-59.305847379,3650.0
11.502106575,-94.627622767,-73.523426122,-133.823766,3660.0
13.614841215,-87.803927309,-64.261393385,-149.96290036,3670.0
15.625847004,-103.61350469,-61.520310659,168.98011796,3680.0
13.144524007,-117.08244127,-63.894933565,141.42744205,3690.0
11.1422516,-106.69022707,-65.765582851,143.63175468,3700.0
11.328436555,-89.222970219,-65.215298667,156.76691024,3710.0
14.351334045,-77.769269863,-61.569426033,161.2333798,3720.0
18.384501788,-108.09654129,-56.311746234,105.07325848,3730.0
13.17218745,-129.74804067,-59.622121979,79.012047062,3740.0
9.9485403874,-114.79856748,-73.368824472,90.00099374,3750.0
9.2380531267,-92.736476439,-82.840308407,67.565635137,3760.0
10.829126081,-69.114574119,-79.227349655,36.788741518,3770.0
17.072014895,-51.308380198,-79.97030844,-19.240949611,3780.0
19.973896806,-145.87942944,-70.194116316,112.26974045,3790.0
11.085276718,-135.19567761,-74.958197272,106.44503039,3800.0
8.4441080636,-107.44911659,-72.138685281,113.71062861,3810.0
8.5205856318,-78.406854552,-69.069426669,139.01905393,3820.0
11.707233234,-45.738184203,-65.577460671,-177.13001727,3830.0
26.766666095,12.658121811,-51.387656679,-147.53123038,3840.0
13.652401535,-167.18376452,-66.053550868,-10.247103806,3850.0
8.4237250055,-131.26470526,-71.674153523,23.048727671,3860.0
6.96775532,-99.759585653,-71.09519273,52.087858477,3870.0
7.6581290133,-68.04238165,-67.958499617,89.727560343,3880.0
11.633579249,-29.240593509,-62.135494968,136.1615271,3890.0
23.820314961,92.935432944,-50.287236268,-105.27357116,3900.0
11.160740728,-159.26104323,-61.642868653,-1.2398802661,3910.0
7.3364602263,-119.42494551,-64.438038276,61.320776977,3920.0
6.6715846776,-85.431755409,-70.514459803,131.90652774,3930.0
8.3416970498,-48.550494309,-72.567412025,-138.98588036,3940.0
14.463579899,7.4143822193,-59.16926244,-60.89837868,3950.0
15.16655119,152.77650233,-54.363494548,61.922685139,3960.0
8.3171461778,-146.16689989,-59.804667151,92.409281525,3970.0
6.170065436,-108.0953716,-60.157146376,105.0248151,3980.0
6.2798794522,-73.16347741,-57.792846218,146.57742773,3990.0
8.9190322861,-31.42964753,-55.92785411,-167.08945752,4000.0
16.755243076,50.316742632,-48.127050906,-101.47146382,4010.0
11.431998796,-177.08942153,-52.05737477,24.829986103,4020.0
6.9183283688,-126.86438692,-60.41568114,107.37424395,4030.0
5.8223043103,-89.490185985,-67.746539692,154.18123137,4040.0
6.7660982551,-51.210691175,-67.801903414,-172.79078022,4050.0
10.574121402,2.6743739237,-60.626633539,-113.53892122,4060.0
14.12791041,117.72143038,-54.839747453,-13.64043806,4070.0
8.2238630654,-159.36296185,-60.615681934,42.101862056,4080.0
5.7529007606,-114.97291849,-62.68281192,66.39161177,4090.0
5.5431434663,-77.756739102,-61.45232282,109.4379699,4100.0
7.3615783118,-36.128366004,-60.199696105,159.8453939,4110.0
13.053149776,31.699264595,-53.442000585,-133.4743641,4120.0
12.14577299,163.60527844,-54.765258598,18.759668549,4130.0
7.0180566409,-135.19152383,-67.777359909,98.494575824,4140.0
5.5165055986,-95.053386239,-72.894359439,140.69745488,4150.0
5.9696741886,-56.884489193,-70.482976357,179.62843164,4160.0
8.7332162276,-8.477893617,-61.801373748,-143.15833854,4170.0
13.963966424,86.566079429,-52.996407361,-79.20262377,4180.0
9.2697716718,-170.64354277,-56.846953575,-21.742846747,4190.0
6.1728053976,-120.24369829,-55.050196799,-25.035627694,4200.0
5.5970825088,-81.418552663,-52.899998249,-138.39151663,4210.0
6.9473440709,-41.292553902,-61.546840091,-148.19349187,4220.0
11.62214525,16.51298414,-59.219659032,-108.51969959,4230.0
14.022346299,143.3953466,-58.952941803,0.69142216209,4240.0
8.0543654721,-143.94631747,-70.948380991,61.645933069,4250.0
6.0040316541,-101.57113616,-78.438996551,111.77009408,4260.0
6.0808223487,-64.118276393,-72.309816638,-177.22536477,4270.0
8.414947562,-20.952269511,-58.979413507,-148.25639306,4280.0
14.82583719,56.186916492,-45.728969841,-92.760665654,4290.0
11.750558546,179.58118904,-37.574760652,-0.019434058441,4300.0
7.4637793283,-125.57989376,-51.702131063,-177.94081488,4310.0
6.3715434954,-86.82573205,-61.373736945,-168.69258494,4320.0
7.4281470467,-49.361470084,-62.816076377,-163.84262935,4330.0
11.824435347,-1.7936148062,-59.212832634,-146.00852687,4340.0
18.605754532,124.6470964,-53.213040437,-32.672343844,4350.0
10.235354581,-148.41297436,-65.36354619,50.865951715,4360.0
7.2544796272,-106.47262301,-69.69537501,115.35349127,4370.0
6.942443673,-71.484033684,-62.787212664,159.82634373,4380.0
8.9809778023,-34.834422965,-53.104155194,-167.09251653,4390.0
15.866162938,17.722164045,-43.558795421,-111.09610093,4400.0
17.481730011,174.33176367,-42.443286051,60.556019162,4410.0
10.063317341,-129.77019315,-55.757068572,135.14005001,4420.0
8.0584701718,-94.294570715,-63.972965928,157.38698203,4430.0
8.5787771965,-62.368621536,-66.483947469,168.33326462,4440.0
12.160795864,-30.135127674,-62.830529443,-178.09432663,4450.0
27.512579081,4.7271972272,-47.185681845,-152.06597952,4460.0
15.509260165,-139.99530845,-64.984828519,72.412939243,4470.0
10.323875079,-108.42435704,-72.03533632,171.82561696,4480.0
9.3483675566,-79.731461172,-62.993911443,-155.39254382,4490.0
11.022731144,-52.966406773,-55.709387815,-123.39721264,4500.0
16.712288632,-34.617924111,-51.296018992,-104.17667341,4510.0
22.282016972,-106.50615534,-47.521915026,173.7391441,4520.0
13.787033314,-112.52656646,-61.822430702,-179.98105023,4530.0
11.154772591,-91.045682148,-69.904207708,-155.54931725,4540.0
11.405666728,-69.297243785,-73.233138134,-146.9828585,4550.0
14.362983442,-53.032303486,-69.845586864,-128.82554968,4560.0
19.427223481,-69.93113899,-59.397758655,-151.81139426,4570.0
16.158460345,-103.7146774,-62.816127453,177.50441905,4580.0
12.681397811,-94.885484335,-71.056451052,170.76543646,4590.0
12.016213048,-77.638347158,-92.089425697,-100.51302453,4600.0
13.471543079,-62.956919233,-73.417454016,-2.129067094,4610.0
16.697868584,-64.390178278,-76.134914873,-8.3718516484,4620.0
17.131470107,-89.210897918,-76.945280082,-75.791184834,4630.0
14.194923136,-93.789833615,-82.408323559,-167.6405909,4640.0
12.838713821,-83.005027086,-84.343858854,177.00209302,4650.0
13.428596486,-70.315216801,-79.669497586,108.77932986,4660.0
15.485609062,-67.630252336,-69.282833034,30.189358484,4670.0
16.465514738,-82.967307571,-56.253405332,-44.584300558,4680.0
14.385408513,-90.025845764,-43.695941948,154.37526301,4690.0
13.078938113,-81.47028589,-49.777902362,97.758964815,4700.0
13.479372814,-69.890389088,-50.034080988,110.83700857,4710.0
15.382400063,-66.723048335,-53.298031332,110.79252159,4720.0
16.548734661,-79.982884821,-55.68932096,75.019157212,4730.0
14.738862464,-88.852728124,-56.885951489,42.716776415,4740.0
13.130358418,-81.756007988,-56.248071725,24.825938746,4750.0
13.310600707,-68.10002975,-54.529642178,27.073549083,4760.0
15.830029331,-58.906987074,-51.945842568,9.441532893,4770.0
19.363834536,-82.257001602,-44.957756163,-77.379281634,4780.0
15.130547314,-107.50521416,-48.732165595,160.16785476,4790.0
11.582998713,-95.398559152,-53.875144359,114.9602599,4800.0
10.562930913,-73.736777264,-53.599767657,110.66192683,4810.0
11.909893881,-50.420361699,-52.420499988,127.42572044,4820.0
17.392393631,-31.882900783,-50.204382899,132.13314657,4830.0
22.973971259,-117.0053235,-45.869501123,17.850883189,4840.0
12.82008407,-116.44430405,-55.501938058,-17.547233525,4850.0
9.5827170021,-89.494241186,-55.961613196,-16.698971801,4860.0
9.2256601149,-58.291192581,-53.60320753,8.7571700264,4870.0
11.823001168,-19.703435593,-48.517317175,-10.776793308,4880.0
20.463830618,65.663470833,-38.135017588,-68.040904202,4890.0
12.197679922,-167.23963763,-53.160097116,-33.628887322,4900.0
7.055678322,-120.24484492,-61.305907456,-41.453016203,4910.0
5.2242320647,-82.965669746,-64.679956436,-35.885065498,4920.0
5.101676441,-45.085003977,-68.027077855,-26.111356668,4930.0
6.5597157212,3.9690219149,-70.470160427,6.0614154316,4940.0
8.8493351269,87.103260233,-61.003414742,44.239290319,4950.0
6.0995205224,-176.64510765,-55.578088898,83.262304991,4960.0
3.2053051725,-115.22863386,-43.305550071,126.09355865,4970.0
1.6615007161,-66.349024937,-46.577563143,-98.778101119,4980.0
-0.12269163549,-11.05749337,-44.928373038,-41.628280203,4990.0
-5.9227208134,71.665250305,-47.243335703,58.34829736,5000.0
-12.932280162,-143.93193706,-54.175541486,107.88727245,5010.0
-11.009679315,-35.372577302,-57.426621828,133.77257299,5020.0
-8.9735963392,83.472140939,-55.913020947,154.58469109,5030.0
-3.3862024828,-177.41140275,-52.603328352,-158.19918441,5040.0
-1.3736660851,-116.23446735,-50.548031877,-96.095895053,5050.0
-0.94092594777,-72.374415266,-49.805900052,-56.65286311,5060.0
-0.54280681922,-31.736555237,-44.117222886,4.1465347481,5070.0
1.182427085,17.30238242,-46.197720137,124.50302665,5080.0
5.1627366863,89.218196408,-49.827391466,-172.5928715,5090.0
7.0982949902,179.71100031,-51.133924741,-95.414528584,5100.0
6.1907016014,-117.08235147,-53.67242524,-32.236113654,5110.0
6.3125023787,-72.989662487,-57.275582269,10.780488732,5120.0
8.6612693731,-31.195132126,-57.057993035,24.610233997,5130.0
16.256838541,26.927166759,-47.087706289,47.54388626,5140.0
16.087253185,-174.26809692,-34.433823303,-150.00921726,5150.0
9.4131927839,-121.43093524,-45.693889857,-16.416362351,5160.0
7.6161132113,-86.198962262,-48.452871618,3.0186563764,5170.0
8.2212411434,-54.759893188,-46.934169083,41.850262381,5180.0
11.701277654,-23.471904238,-47.133125878,82.605349459,5190.0
24.868331812,5.0217425259,-38.061692221,88.894907118,5200.0
16.666420135,-131.58088703,-47.305411253,-71.732778695,5210.0
11.020890565,-101.38551098,-51.158766155,-54.501609768,5220.0
10.021302964,-72.487382247,-51.813481055,-21.782224783,5230.0
12.067117561,-44.62809163,-48.889432085,-12.291786357,5240.0
19.978378522,-26.406554958,-32.356828065,-39.515679777,5250.0
19.93709112,-133.34170431,-29.620160405,15.824288224,5260.0
11.975127838,-116.8552692,-45.133651062,-12.97143304,5270.0
