S11m,S11p,S21m,S21p,Frequency
16.886377155,-0.021818180644,-56.975350291,12.524170689,2000.0
10.903402287,105.69894435,-68.146104876,68.035381958,2010.0
7.2064954768,152.25331106,-72.96592927,141.29039015,2020.0
6.220582868,-172.10079428,-66.880577427,-166.21823162,2030.0
7.1927641978,-136.24062229,-63.417238889,-145.34521594,2040.0
11.453096236,-89.705351963,-60.2275385,-116.45248348,2050.0
18.837299497,36.586123323,-56.073994678,-22.920972542,2060.0
10.048879557,125.69372464,-74.11386129,20.745840136,2070.0
6.890441167,166.34443836,-75.553295486,-3.0398244677,2080.0
6.2342463392,-160.08764826,-75.187233374,25.841492537,2090.0
7.5197636328,-124.97683924,-80.553454703,58.87343752,2100.0
12.200509307,-76.522600921,-70.802182953,-119.91043669,2110.0
17.721782181,51.613668824,-59.506135839,-8.094910752,2120.0
9.7848917018,131.78748968,-67.380458889,88.028422565,2130.0
6.9440678671,171.90842547,-70.792425742,146.11958539,2140.0
6.6277898118,-153.9435652,-70.037573543,-157.83919787,2150.0
8.6464608248,-116.93209124,-67.986033485,-129.6365049,2160.0
15.818256576,-60.052866867,-64.290829055,-128.66853984,2170.0
15.31685225,95.437492201,-58.464211361,-80.606968061,2180.0
8.5202928166,148.65765977,-59.248407675,-71.770471235,2190.0
6.4181467169,-176.53712396,-60.108252195,-57.016815475,2200.0
6.4379170258,-144.37770836,-62.204525938,-35.997751884,2210.0
8.6448443304,-107.21525364,-61.418620287,-10.508298673,2220.0
16.02476626,-45.789137929,-50.102798018,46.321270787,2230.0
14.265227885,102.95983769,-47.375108577,174.46201659,2240.0
8.2103428824,155.28139361,-52.641624362,-153.98292245,2250.0
6.4758326422,-169.39985445,-55.685675066,-132.49888504,2260.0
6.8853232724,-135.64512778,-56.607415355,-103.22315118,2270.0
9.9270726125,-94.954335678,-54.072705942,-68.914858347,2280.0
18.883167963,-8.3587347021,-45.489144729,4.6769358419,2290.0
11.699907117,118.963729,-52.338881122,123.93904081,2300.0
7.2009233641,163.19644327,-60.252146724,-170.50556583,2310.0
5.960159338,-162.92476901,-69.41998826,-111.36585115,2320.0
6.5996147456,-129.31705877,-68.347792149,-79.40396503,2330.0
10.05803354,-87.58617122,-59.260827377,-54.98229079,2340.0
19.858571675,14.456440475,-46.221792284,28.245815813,2350.0
10.780623798,131.85865129,-55.40986986,116.14323574,2360.0
6.8566866067,173.85554548,-61.66668169,134.7135519,2370.0
5.9275805983,-152.2281009,-66.083768328,151.73876134,2380.0
6.8412045625,-117.19433535,-68.989624975,146.9371379,2390.0
10.87374716,-70.134751142,-61.57556106,145.80963452,2400.0
16.978354904,49.683773706,-48.632528291,-114.02020118,2410.0
9.2905451951,137.74720234,-56.921847437,-24.394116997,2420.0
6.3098249364,179.34173366,-70.321215927,23.259093239,2430.0
5.7513216533,-146.47367869,-69.742632919,169.58415074,2440.0
7.1429531783,-110.21917256,-60.003764202,-155.02976239,2450.0
12.480478633,-57.7956572,-51.765541259,-123.54193492,2460.0
15.437002241,85.266899487,-48.798779018,-7.7312957563,2470.0
8.1002535322,152.11362573,-58.414827851,41.958556225,2480.0
5.7232493955,-169.64785017,-63.445321251,71.611503215,2490.0
5.4307782395,-136.57932902,-65.991668503,91.161312897,2500.0
7.0762198374,-99.576135294,-63.577140983,111.63095302,2510.0
12.768156603,-41.180558773,-56.47772457,160.10524344,2520.0
13.776589067,97.01289997,-60.093252896,-44.756363473,2530.0
7.6271638108,160.13310158,-67.469966245,126.69523729,2540.0
5.6561438742,-161.90865747,-61.397994788,174.32350726,2550.0
5.6695372502,-127.9557194,-57.08570405,-165.26021002,2560.0
7.9100841367,-87.923298054,-52.357150846,-150.64885661,2570.0
14.688937819,-12.904807352,-44.562794748,-110.27195923,2580.0
11.363070254,117.79583101,-49.108464874,-4.864573162,2590.0
6.5986487889,170.61264399,-58.654981849,31.235441182,2600.0
5.1537280607,-153.61520179,-64.921209372,42.592993746,2610.0
5.5139868755,-119.80606457,-65.312278291,54.031000285,2620.0
8.1893402111,-77.568338055,-64.913844656,91.841370825,2630.0
15.453271589,7.9500932179,-69.97344859,171.20707551,2640.0
10.415212547,130.8670206,-67.711902977,62.633695628,2650.0
6.2628258096,179.75981475,-66.229319191,76.840297435,2660.0
5.0920075256,-145.03362714,-67.429143371,81.870822214,2670.0
5.6929582929,-109.7640288,-72.144284148,77.707209807,2680.0
8.7774464548,-62.140782925,-66.872997929,-9.7087707304,2690.0
14.48696376,40.810852872,-55.18616473,61.972574023,2700.0
8.6594741798,141.18980707,-64.364706349,161.33694683,2710.0
5.5213140559,-173.08970066,-74.001611847,-158.17640605,2720.0
4.7930502037,-138.03194361,-82.739644279,-38.730244859,2730.0
5.6885054545,-101.44591019,-74.964895216,53.747053269,2740.0
9.3135663295,-49.482579418,-71.306550465,159.54802369,2750.0
13.444796939,65.730390916,-59.224081307,-70.580903442,2760.0
7.3599487576,151.33547274,-59.427415087,-8.0764375724,2770.0
4.7129822669,-165.27612129,-59.173503679,19.940022358,2780.0
4.1426394008,-130.04085649,-58.351660227,39.721847901,2790.0
5.0042279543,-91.371914315,-56.915742821,72.231559089,2800.0
8.2902447293,-33.231603175,-56.41013914,128.02021871,2810.0
10.418004934,78.963670362,-57.254070417,-147.11278202,2820.0
5.986057671,157.76759631,-62.424315858,-103.99065459,2830.0
4.0633389301,-158.03523464,-64.865489427,-85.061724197,2840.0
3.6999661463,-120.97797704,-67.449883688,-53.698781708,2850.0
4.5065760549,-77.319649456,-71.473067722,6.8152992952,2860.0
6.5840301724,-4.3297817407,-62.810314227,137.03806774,2870.0
5.1129716109,100.54026685,-55.470695434,-141.19558588,2880.0
2.3697373473,167.72995108,-54.973398812,-98.650745903,2890.0
1.2901152345,-149.62147661,-55.366742971,-65.218019619,2900.0
0.80168784392,-112.32150794,-55.89988791,-24.104324,2910.0
0.49201887265,-65.924416013,-56.350451565,28.853794539,2920.0
-0.043870478131,10.660677891,-57.709814874,82.956508461,2930.0
-0.84818038445,110.13172809,-62.577517885,145.80064954,2940.0
-1.3123079777,177.72699381,-70.734666374,-150.53498173,2950.0
-2.2673869655,-138.46738033,-74.477094837,8.9457887948,2960.0
-4.9924237538,-101.75396527,-62.779106691,86.495360442,2970.0
-12.983882164,-84.315894568,-56.718348252,138.98565156,2980.0
-12.952449046,-135.35479983,-53.950835109,-167.78002455,2990.0
-10.719848393,-112.72465938,-54.769078056,-121.20543185,3000.0
-16.339480649,-75.183778606,-56.697461557,-78.636472641,3010.0
-17.131381609,131.35929499,-58.202331901,-37.03454793,3020.0
-7.315236925,171.93825294,-60.358478584,8.9638894918,3030.0
-3.9429239843,-154.62360561,-63.39514145,42.921459597,3040.0
-2.3963295901,-121.3447357,-66.509745611,81.904333079,3050.0
-1.5438021657,-80.310012863,-69.36683516,149.26443818,3060.0
-0.25489580832,-15.642905716,-64.314127025,-104.11899333,3070.0
2.1850964987,83.600432655,-57.931003109,-16.437501437,3080.0
2.3977836508,165.26890818,-58.354335536,42.856662831,3090.0
2.0659194846,-145.58699365,-59.909646455,73.771003093,3100.0
2.2123488571,-105.7492535,-61.15379879,96.985249339,3110.0
3.248572333,-59.34341555,-60.348220036,124.5956485,3120.0
5.9159058683,14.547861161,-57.232630126,-169.46326722,3130.0
6.2457876901,116.72425776,-58.031803618,-71.106817306,3140.0
4.3199048199,-177.40146645,-65.115428176,-0.87964711621,3150.0
3.6829264314,-135.27888623,-68.058277221,59.604790367,3160.0
4.2210408579,-98.05977459,-66.000475763,122.52527004,3170.0
6.7026720701,-52.491682243,-59.971614992,-170.23509337,3180.0
12.683112152,35.08527719,-54.383686495,-82.298137644,3190.0
8.9466135254,150.64718148,-60.450224171,19.828007504,3200.0
5.5300285432,-157.13027874,-65.154044884,46.92620998,3210.0
4.6813418418,-120.46598086,-66.391124001,56.216901856,3220.0
5.4800260698,-84.686045119,-64.290529305,61.72818118,3230.0
8.9589226656,-37.986730741,-58.50301702,93.718780597,3240.0
15.661401471,68.117428477,-52.839214651,-171.14913167,3250.0
9.325741083,169.05975726,-60.752964892,-85.403072528,3260.0
6.2666488769,-146.48038518,-65.361641011,-44.389641708,3270.0
5.7392547852,-112.12727574,-62.461094021,12.636996153,3280.0
7.2337815234,-77.132923064,-56.372334959,72.304477318,3290.0
12.921291009,-28.222641239,-48.543685243,108.35328662,3300.0
17.234557588,125.90481728,-43.6824112,-121.30240726,3310.0
8.8018901342,-168.96424022,-53.349111323,-70.647935572,3320.0
6.4074335527,-132.56072549,-57.593412994,-39.275284959,3330.0
6.3493142887,-100.96761059,-58.310555054,-12.135754583,3340.0
8.5922478401,-67.049227304,-56.119149492,23.045101315,3350.0
16.626651432,-17.519883365,-48.443325208,72.2593302,3360.0
16.06435126,158.04429463,-50.437002917,-113.93273238,3370.0
8.8815992939,-154.92625989,-58.843520886,-50.048393377,3380.0
7.0089927818,-121.8349398,-61.462818521,28.65608316,3390.0
7.5847523341,-90.720302441,-60.446978703,72.861117682,3400.0
11.41233471,-55.446300859,-56.752046976,97.043789192,3410.0
31.269306165,37.340744845,-37.208813887,-176.59438795,3420.0
12.209704167,-173.19058159,-57.795065676,-26.798297646,3430.0
7.8853633289,-138.59912753,-64.737807718,0.010316249429,3440.0
6.9598277431,-108.5002446,-68.699392153,30.224102992,3450.0
8.2792089926,-78.096936624,-70.946692236,62.158585584,3460.0
13.598331527,-41.506098553,-90.715644051,-117.84717158,3470.0
24.411754525,144.84174476,-54.846773709,77.772258556,3480.0
10.621905787,-160.41254657,-64.934173156,131.56918691,3490.0
7.467179117,-127.12354249,-69.404721911,151.78118303,3500.0
7.2125879832,-96.232972227,-70.898136207,159.44137995,3510.0
9.4181556832,-62.191408304,-69.789789279,-174.65594374,3520.0
17.781911855,-12.030439482,-60.007417501,-136.61416651,3530.0
15.78623678,163.16144766,-63.833976049,30.909991172,3540.0
8.7342141985,-152.13824629,-71.937707372,86.527331766,3550.0
6.6913268449,-119.6356618,-72.817372494,148.25175796,3560.0
6.8793742465,-88.503375145,-70.961438632,-136.34276084,3570.0
9.4884125136,-52.612689078,-68.332163139,-89.501095323,3580.0
18.975925027,9.7116166864,-61.309114967,-31.654361575,3590.0
13.704717009,170.9956483,-71.068524998,152.05936806,3600.0
7.9595448878,-144.79428542,-78.548212621,-121.09761075,3610.0
6.4556119992,-111.18308615,-74.820830065,-66.429214134,3620.0
6.9740370056,-78.791365772,-69.179071563,-34.943525047,3630.0
10.133166274,-40.009282932,-65.564948891,24.193947027,3640.0
19.819531302,44.423091118,-60.706530276,130.67064755,3650.0
12.030019697,176.28295427,-70.170353266,-63.819286697,3660.0
7.4241623477,-140.35918072,-70.622857151,-15.746236606,3670.0
6.2451710973,-106.40555586,-70.242140524,-13.399247847,3680.0
7.0049933655,-72.902484436,-67.703688577,-9.1259168771,3690.0
10.840486325,-31.437404,-61.839984223,10.668761177,3700.0
21.189085662,83.715300851,-49.805805745,107.58379211,3710.0
10.732113616,-169.47697632,-58.740474273,-160.12285633,3720.0
7.0841760627,-128.58599675,-57.712980849,-136.12767536,3730.0
6.3265050541,-95.051042605,-45.214366038,67.84308282,3740.0
7.5701004208,-59.912330499,-60.661121477,81.395485477,3750.0
12.293244544,-11.439646916,-60.711444513,103.91915762,3760.0
17.117993715,122.12144452,-60.861732437,-137.30260923,3770.0
9.1514607758,-161.74091475,-70.854733559,-62.591551012,3780.0
6.4636791796,-121.06682694,-73.586925102,-49.154851341,3790.0
6.1904968028,-86.359045209,-71.794232844,-35.33010869,3800.0
8.1566680468,-48.148118264,-66.171507979,-13.840232395,3810.0
15.013450634,14.872306186,-52.233579239,53.116214839,3820.0
13.599151403,159.85979071,-55.107526233,-101.76467844,3830.0
7.6484135957,-143.9649608,-67.424409619,-10.626757731,3840.0
5.830716856,-106.46294414,-75.232277198,34.265226427,3850.0
5.9516556099,-71.056505167,-84.610316073,31.608748478,3860.0
8.226863731,-27.699206259,-73.907383443,-70.884190492,3870.0
13.688784915,54.113533749,-61.925796791,-19.950531324,3880.0
10.279294853,167.10956334,-64.66882982,86.954069494,3890.0
6.3924458898,-138.04156071,-69.373690745,138.82858206,3900.0
5.2820547107,-99.185368253,-70.289931673,-163.4022926,3910.0
6.0008369991,-61.047075951,-66.81876152,-80.870122283,3920.0
9.2168030802,-9.7076415645,-65.8586738,-8.4548440277,3930.0
13.408998927,95.086497989,-63.457488762,108.22893136,3940.0
8.1627999301,-173.57301795,-69.364367274,-150.20395914,3950.0
5.316411092,-126.56877039,-72.267120109,-96.07206603,3960.0
4.5782947395,-89.892828492,-69.636920703,-71.082160842,3970.0
5.3580476312,-51.730779927,-65.122616347,-54.533569376,3980.0
8.3395905297,2.3269623357,-59.234487172,-1.3705871095,3990.0
11.567502333,103.45591303,-55.35831932,96.798614783,4000.0
7.437942724,-168.88089336,-60.322950892,174.66995582,4010.0
5.135309456,-121.06347388,-62.941153309,-125.5613548,4020.0
4.781569867,-82.905779272,-66.783046335,-53.945848922,4030.0
6.0043327952,-41.688950793,-69.514373146,-7.0379362448,4040.0
9.5889477465,20.07391295,-66.639468162,46.244371591,4050.0
10.813599427,129.26352987,-66.031417478,154.16610597,4060.0
6.539148631,-157.17235213,-72.164196527,-135.85939003,4070.0
4.720647657,-113.30133427,-77.121542659,-116.51396976,4080.0
4.6617435078,-76.00220236,-74.839891052,-79.721963311,4090.0
6.2287539924,-33.640581413,-69.970887604,-35.883245088,4100.0
10.709462244,33.032904532,-62.657625836,40.329736485,4110.0
11.037167091,151.43353141,-59.040679703,161.15281827,4120.0
6.6548851186,-141.1499431,-63.797199668,-106.21085488,4130.0
5.2057978721,-98.340720628,-70.798223284,-53.05235862,4140.0
5.5749645464,-58.602357666,-72.445531723,-34.544371804,4150.0
7.9516898758,-8.6157894906,-70.676332894,-1.6458310531,4160.0
12.000841961,81.060705032,-64.19632803,86.641795225,4170.0
8.5314499596,179.62097322,-63.169480838,171.83045267,4180.0
5.6749809347,-127.44950658,-62.231585599,-172.45456715,4190.0
5.0246021783,-87.548891214,-54.992093489,-168.00055422,4200.0
6.0121618219,-47.280906462,-52.330426803,9.555056745,4210.0
9.5993087256,8.123554189,-57.748675783,44.332571941,4220.0
12.949188499,119.15891431,-57.713710946,129.53609098,4230.0
7.806725726,-156.96386276,-66.975367693,-160.30639445,4240.0
5.49277092,-110.96696978,-73.234321395,-133.77961008,4250.0
5.1805974836,-72.537942928,-77.237945511,-111.49920134,4260.0
6.5625275904,-30.283966154,-75.255002769,-71.078682821,4270.0
10.524911066,34.044171583,-66.344834632,25.624825819,4280.0
11.102941841,144.15865576,-57.815293081,140.19989111,4290.0
6.9883143213,-146.72525107,-52.790410653,-146.53780537,4300.0
5.3714827803,-103.17383022,-59.301535623,-25.403301057,4310.0
5.5038724074,-65.215509444,-66.46830037,1.3643824422,4320.0
7.5416008442,-21.25410273,-66.58437009,22.041837111,4330.0
12.57747364,52.290709888,-62.18456583,75.352097559,4340.0
10.91988141,166.21506815,-65.025298804,174.04081832,4350.0
6.8615050173,-134.28007622,-71.001321639,-132.61501983,4360.0
5.5114013729,-93.80613994,-75.119035706,-92.013560776,4370.0
5.9166511162,-56.387884296,-72.929644503,-30.845393573,4380.0
8.5145871529,-11.302983708,-62.19046224,26.250527684,4390.0
14.153140342,70.785219688,-51.937807849,118.68041061,4400.0
11.038512513,-178.54680719,-55.990877819,-110.02482518,4410.0
7.3019077644,-124.77663443,-65.160094869,-34.05558754,4420.0
6.3623361784,-86.18715783,-71.553163936,7.0066155108,4430.0
7.3876808954,-48.945741596,-71.386025119,38.530357257,4440.0
11.583817422,-1.9288161063,-64.931051559,70.748084074,4450.0
18.473325251,115.11571483,-56.676388768,-175.36130569,4460.0
10.645961995,-151.42095933,-68.078622051,-86.294131562,4470.0
7.485242909,-107.97973351,-79.531572747,-35.899579414,4480.0
7.1391966663,-72.050295709,-70.740215509,80.545705854,4490.0
9.2860963393,-33.909043822,-58.283560681,127.46338073,4500.0
16.575588437,22.736667701,-48.869921065,-177.55654151,4510.0
16.161069341,179.33819427,-50.4716874,-28.105793975,4520.0
9.3911155437,-127.00276773,-61.320437931,30.104198627,4530.0
7.5286165488,-89.950514329,-68.137056301,58.10221341,4540.0
8.0769957341,-54.862305886,-69.961847173,71.826642827,4550.0
11.74599506,-12.354896437,-67.403404582,111.46885542,4560.0
20.883108898,91.845527777,-54.409543513,-138.20298888,4570.0
11.85870294,-156.36340776,-62.316583561,-15.448882562,4580.0
7.8039104092,-112.93375598,-67.128767214,16.205860578,4590.0
6.9234138644,-77.584621565,-67.012390017,41.311003066,4600.0
8.0985494289,-41.038923134,-67.89944449,129.84110234,4610.0
12.582782263,7.2207718496,-69.056424097,-174.46951661,4620.0
18.104880841,128.55938786,-67.23888679,-83.278342629,4630.0
10.37884131,-148.22192589,-84.199718593,-44.152556265,4640.0
7.3197031694,-106.29278872,-89.654144354,157.5873525,4650.0
6.8058496209,-70.86171544,-82.460491221,141.91509755,4660.0
8.3247470517,-32.308687799,-77.143673771,163.08130506,4670.0
13.172538654,23.56512835,-66.988783144,172.23527676,4680.0
15.356805106,146.21837395,-57.596057455,-98.030191399,4690.0
9.0851294438,-143.86403307,-52.839297215,-66.80962994,4700.0
6.7066431594,-102.81478325,-53.053877102,-47.243604023,4710.0
6.4570312357,-67.505745054,-60.784999284,-17.896269307,4720.0
8.1582115256,-29.440409088,-62.464902357,3.2545517116,4730.0
13.245143413,26.118215977,-55.787119485,36.081366533,4740.0
15.486935144,151.22421684,-50.974878878,135.55195413,4750.0
9.13627974,-139.16617153,-56.025375461,-174.34367724,4760.0
6.8148403408,-97.995719229,-56.955620372,-166.87614368,4770.0
6.6946149885,-60.925817029,-56.097615184,149.6483965,4780.0
8.6612423791,-18.844040961,-56.280077858,113.54744582,4790.0
14.046404053,51.039423089,-53.006755818,151.68416746,4800.0
12.399000155,168.39659138,-49.044572495,-91.484743205,4810.0
7.712057191,-131.52539378,-50.112657702,-55.070536898,4820.0
6.0929010771,-90.694822137,-54.631994452,-45.825514413,4830.0
6.4621373903,-51.741997175,-56.249948669,-38.431892111,4840.0
9.2839664731,-2.6581450537,-52.618524096,-24.007524824,4850.0
14.449571229,97.273929371,-44.001609354,46.108168605,4860.0
8.7785949008,-159.25381986,-47.275887093,130.62344878,4870.0
5.3438176202,-105.60132662,-49.956736658,110.9032314,4880.0
4.1923224375,-59.772076613,-57.066740421,46.659424142,4890.0
4.0306406128,-4.1914578727,-60.110574059,48.208668783,4900.0
2.6326769525,78.113499648,-59.44801687,91.021190149,4910.0
-0.87148904001,163.78142144,-59.290703253,129.33886566,4920.0
-2.8236415454,-135.23826437,-64.654695913,157.59422174,4930.0
-3.7957098225,-91.71711054,-71.624447962,-163.20785532,4940.0
-5.3004017879,-49.734922624,-72.575405248,139.35600762,4950.0
-10.027664105,9.8979482257,-61.632302006,144.48504667,4960.0
-13.477174026,169.85868244,-36.479741365,-131.2931906,4970.0
-6.0703871228,-103.50051032,-49.950688881,26.588420013,4980.0
-3.833455003,-39.78458016,-51.557601068,91.610801847,4990.0
-1.8575599357,45.58322627,-55.890351207,-179.75922901,5000.0
1.4887699042,153.85880486,-61.432082461,-102.66181863,5010.0
2.3058069219,-127.81060242,-65.840837411,-42.912579998,5020.0
2.6016585346,-75.333949621,-62.681341495,-29.004851341,5030.0
3.7207734978,-24.634725547,-57.505843284,-24.96254881,5040.0
6.2657679956,44.360126019,-51.753844857,9.9292016516,5050.0
7.2320300823,139.87833616,-49.195452022,87.668501223,5060.0
5.3263091902,-148.31542736,-46.748991335,-169.00446978,5070.0
4.5872537737,-101.42215452,-55.776198147,-71.568926711,5080.0
5.2424851386,-61.865014663,-59.881846463,-35.190321863,5090.0
7.9435347169,-18.603041486,-57.024477281,0.71462315587,5100.0
15.181415757,53.880734122,-49.805694787,67.035742288,5110.0
12.669168082,-172.6773273,-56.072334924,-160.58690589,5120.0
7.7871076065,-118.15790399,-63.526575016,-115.11248866,5130.0
6.4249809471,-79.814489438,-60.90913521,-96.026622744,5140.0
7.1506422311,-42.551279747,-52.537748001,-44.982824676,5150.0
10.533470518,3.5105311816,-50.581150156,32.231174688,5160.0
16.821309845,98.333420238,-44.287032865,116.31353242,5170.0
11.320446068,-160.66422474,-49.997268495,-132.43830645,5180.0
7.8389896307,-114.49645009,-57.347975598,-84.159363493,5190.0
6.9864047907,-79.402631172,-61.55270313,-60.268507336,5200.0
8.1310406536,-45.581676717,-60.781684785,-45.336728366,5210.0
12.585864606,-4.8898988304,-54.493968182,-17.241131204,5220.0
23.507465184,116.02471116,-41.544872247,101.33290734,5230.0
12.036163038,-144.54185653,-51.908817386,-178.33083936,5240.0
8.2550419828,-106.37279321,-49.257905107,-134.67712125,5250.0
7.3995819867,-74.976985833,-53.066552193,-40.872461353,5260.0
8.5282106356,-44.858940467,-55.419178211,-17.183257523,5270.0
