S11m,S11p,S21m,S21p,Frequency
9.8451466981,154.94443391,-69.859983786,-41.948206554,2000.0
8.2063784204,-177.27182637,-74.39359893,-32.849982184,2010.0
8.9636113032,-149.41849702,-79.463747043,4.7370641212,2020.0
13.359142412,-121.57141666,-87.04521391,60.875448537,2030.0
28.479622072,166.54188307,-67.80954485,172.53002686,2040.0
12.500448475,144.03848717,-67.20796056,160.65661795,2050.0
8.8554057708,172.20395827,-65.035780325,160.42428867,2060.0
8.4154034852,-159.63205383,-63.699059644,169.69292717,2070.0
10.701572142,-131.60712725,-61.052780983,-169.28146763,2080.0
19.417610962,-109.41273028,-52.783869699,-161.87913961,2090.0
17.913383065,131.40099415,-57.785066354,41.659307677,2100.0
10.351064265,155.46440895,-70.416725565,7.3792785062,2110.0
8.2036732315,-177.40212518,-75.195814695,-31.8192078,2120.0
8.5805991738,-150.60780652,-80.745247453,-93.137554977,2130.0
12.062257298,-124.99368037,-64.604027859,164.61715558,2140.0
23.79710979,-146.94694223,-45.363826866,86.977409759,2150.0
13.587920389,153.08005649,-53.933576151,-20.623641211,2160.0
9.2583801983,176.80956026,-62.250841794,-29.327475776,2170.0
8.5082441875,-156.9260706,-70.458894997,121.71793226,2180.0
10.453028799,-130.27486926,-55.868049447,137.40507709,2190.0
17.955596507,-109.10673887,-46.826652559,130.92405403,2200.0
18.628936367,141.68615919,-48.56330352,-6.1861563517,2210.0
10.356067609,161.38685181,-60.130223351,-0.71986268036,2220.0
8.0549464896,-171.41717597,-61.620815175,29.041087473,2230.0
8.3899807475,-143.51366934,-56.444627532,36.441449746,2240.0
12.082431728,-114.10098012,-48.966876717,29.568928699,2250.0
31.341374084,-139.43790767,-27.32985189,-31.891355366,2260.0
12.394019839,147.70606556,-45.131940911,-131.35069541,2270.0
7.9521625044,176.97175634,-50.291826196,-117.17312419,2280.0
6.9557175475,-154.32247042,-53.450692738,-98.562490977,2290.0
8.1363353005,-123.48161553,-55.24332167,-84.028183069,2300.0
13.339706832,-84.732375116,-54.80269497,-67.964974862,2310.0
22.223956234,87.969678738,-52.231425916,78.051762777,2320.0
9.9789507174,149.343529,-68.390843929,140.29820815,2330.0
6.9225281689,-176.12696563,-65.971371987,160.86731839,2340.0
6.5786928492,-144.77558376,-60.298785079,155.35592877,2350.0
8.6158777031,-110.29211549,-53.726816484,138.52586267,2360.0
16.78584184,-58.399186932,-43.311416583,134.94658806,2370.0
14.751518452,116.66161808,-44.763288242,-109.28312419,2380.0
7.9144797632,162.4834168,-51.930595309,-110.88487925,2390.0
5.9964172277,-164.23612483,-54.193740118,-108.49474819,2400.0
6.1593968863,-132.76921737,-55.316080047,-95.359676602,2410.0
8.7965180248,-96.003958161,-55.87235736,-78.043835568,2420.0
18.578144407,-26.896691681,-52.912098383,-29.967484461,2430.0
12.545128213,128.59785081,-70.11312438,-176.57681884,2440.0
7.4182684461,173.40387665,-64.864608847,-113.31889589,2450.0
6.1585927894,-152.90491248,-63.013423872,-115.44138152,2460.0
7.0717928491,-119.62499122,-61.790910547,-126.12083734,2470.0
11.75789271,-77.238741884,-58.018028137,-141.00319525,2480.0
20.681036353,74.665175178,-52.681925969,-33.592569094,2490.0
9.4770078933,152.45563942,-71.564895194,70.325295775,2500.0
6.4221878217,-170.48313799,-70.390051994,143.08737879,2510.0
6.0570634437,-138.57075344,-69.145973548,168.42247694,2520.0
8.0779543463,-104.03081127,-70.941640709,-168.20825657,2530.0
16.561542956,-52.889134106,-68.3844229,-17.078785484,2540.0
14.453096726,130.13664218,-56.768369884,164.63057887,2550.0
7.7196143967,175.73275518,-58.386271874,177.73248442,2560.0
5.9694051713,-150.6426246,-58.213831292,173.96140705,2570.0
6.5040300115,-117.60533895,-56.882279906,171.07808363,2580.0
10.269845161,-75.238285454,-53.98861355,178.28381895,2590.0
20.134027419,45.431335721,-46.791702472,-102.88395271,2600.0
9.6895521581,150.08667894,-60.516219461,-42.998155535,2610.0
6.1954969092,-169.61885611,-67.283286711,-40.552568533,2620.0
5.5757499792,-136.57705326,-73.454966208,-33.560628555,2630.0
7.0860223182,-101.15091711,-84.148048886,-66.403438682,2640.0
13.142448073,-48.601512603,-66.996934267,-147.51874307,2650.0
15.281531449,108.99220769,-61.047984906,-21.424061008,2660.0
7.6504749767,169.46158986,-67.38572469,25.383489655,2670.0
5.4895185871,-154.17087269,-67.585695348,61.776203926,2680.0
5.562803818,-121.02786222,-66.295077327,93.574537809,2690.0
7.9912745679,-81.21742727,-65.387456014,121.08902763,2700.0
16.209812075,-4.4068120531,-63.502598522,173.26637696,2710.0
11.148591703,136.68313814,-80.345329396,35.8080093,2720.0
6.4650058148,-174.90811121,-80.25945794,134.93994127,2730.0
5.3365341437,-139.92029422,-85.373049653,154.81280741,2740.0
6.2183908112,-104.87625605,-91.455843105,-15.019504334,2750.0
10.386642179,-57.069335641,-70.463932763,-5.1140602778,2760.0
16.492647975,77.203515998,-70.265769351,67.560988049,2770.0
7.9006547234,161.82720965,-66.183485776,-70.199197258,2780.0
5.1584066866,-157.39158508,-62.439639851,-61.31720305,2790.0
4.8156421511,-122.5766683,-59.531429279,-36.700208779,2800.0
6.4470639575,-82.536812813,-56.84007259,7.4591779742,2810.0
12.302237665,-13.025333425,-55.679338577,72.637012971,2820.0
10.695910405,123.46812649,-61.164024249,-163.55916411,2830.0
5.783996182,-177.45545932,-70.084668548,-129.10553019,2840.0
4.3647218636,-138.62646514,-75.186321596,-113.00597597,2850.0
4.5888824417,-100.23171785,-76.396787964,-58.567164308,2860.0
6.6906051874,-44.600468815,-66.455463392,1.6986605913,2870.0
8.214330235,63.672862036,-58.221755385,71.162715622,2880.0
4.03154486,152.56159875,-60.043107554,124.2474379,2890.0
2.163005713,-158.64045584,-61.01705419,169.96434286,2900.0
1.5421259687,-120.26901465,-62.253565542,-149.9413405,2910.0
1.4942095704,-76.314110813,-62.15199567,-133.5915828,2920.0
1.816839249,-4.388153851,-61.607771336,-108.23359546,2930.0
1.0743081735,100.94184923,-62.165367977,-60.505928632,2940.0
-0.095057898307,175.82181615,-64.914199611,-19.90819622,2950.0
-1.1467622156,-136.51295506,-66.124033113,24.684611499,2960.0
-3.5602090367,-92.472722175,-62.663607716,88.933149478,2970.0
-13.418596832,-35.097946025,-56.595968521,142.81029971,2980.0
-11.959780465,-177.0248697,-53.019037502,-170.67203659,2990.0
-7.72840073,-130.23956503,-52.800357032,-125.53153219,3000.0
-9.905154858,-85.842260729,-54.222564174,-79.069788226,3010.0
-21.432684929,29.44814144,-56.148510443,-34.820407129,3020.0
-8.0161991195,152.70608936,-59.170998153,13.485586227,3030.0
-3.3594106608,-162.59837244,-64.310187245,52.442694758,3040.0
-1.5547038134,-124.3184329,-69.958783383,90.336952152,3050.0
-0.51263875719,-81.115550031,-70.637184992,121.51934365,3060.0
1.2930337719,-15.019633835,-67.735035474,165.57080691,3070.0
3.8240079137,88.387012322,-62.634179998,-133.26254204,3080.0
3.1799303279,170.60740426,-63.388374363,-101.11904652,3090.0
2.5928856861,-141.17099584,-64.737185238,-99.379633176,3100.0
2.8202593498,-101.1082272,-66.164250574,-89.054585041,3110.0
4.3824960763,-52.516221991,-63.964807444,-51.985782895,3120.0
8.0465233279,30.974215204,-59.140189023,25.141720813,3130.0
6.8707438826,137.35842222,-62.456813946,113.44177541,3140.0
4.5730151936,-164.17438212,-67.756600236,159.85673218,3150.0
4.05620755,-124.88925071,-70.912546465,-166.49003691,3160.0
5.0093599453,-87.897057498,-69.487103229,-111.67790039,3170.0
8.7695861212,-39.561773518,-62.357431346,-64.641515594,3180.0
15.819221534,77.102910382,-53.949019185,28.942730971,3190.0
8.6740680302,175.23945337,-62.198081206,88.696774761,3200.0
5.9261058552,-141.08694918,-63.843496609,82.974233589,3210.0
5.7091465605,-106.34368286,-62.811731965,83.191149765,3220.0
7.7643367165,-69.406361201,-61.033544238,88.318017461,3230.0
15.21400647,-13.239446645,-53.739972902,105.7855636,3240.0
14.854327318,147.53198843,-55.523481366,-129.46907756,3250.0
8.3380539452,-159.94648154,-64.118534074,-93.161743402,3260.0
6.6721707879,-125.49932475,-68.664052196,-36.712359601,3270.0
7.3683977802,-94.309286769,-66.777147421,24.929095732,3280.0
11.413126387,-61.019613052,-58.253165384,43.733311841,3290.0
42.16044294,-22.661985445,-23.536202249,52.268372247,3300.0
12.210233939,-167.47867452,-52.693601574,-115.62043296,3310.0
8.1938073513,-135.62202806,-57.704562727,-98.335382114,3320.0
7.588836539,-106.75368485,-60.115451177,-87.700538532,3330.0
9.5042700915,-77.955326569,-59.088144425,-73.268602714,3340.0
16.639685915,-49.190274809,-52.181705147,-49.8435881,3350.0
20.194796034,-176.50389808,-50.186265763,-177.03624938,3360.0
10.759350203,-151.47840895,-63.413880933,-152.52936252,3370.0
8.4048640568,-123.52548352,-67.741157505,-127.22253664,3380.0
8.8259028494,-97.080901875,-67.719195791,-97.259410095,3390.0
12.346243416,-72.85921162,-62.898013164,-64.283248517,3400.0
22.503789806,-92.827215097,-52.084361051,-79.768511434,3410.0
14.257748884,-151.43927303,-61.323492903,-140.21329882,3420.0
9.8445355391,-131.74465948,-64.092207475,-125.16871119,3430.0
8.928458474,-108.55886715,-64.577315893,-100.09733418,3440.0
10.371583562,-86.023590994,-65.068243546,-75.008849359,3450.0
15.160147298,-72.257231473,-64.564151064,-73.182493622,3460.0
19.827181058,-125.27750507,-66.832712924,-128.84574898,3470.0
12.75850246,-137.64860734,-72.540447,-88.599633419,3480.0
10.126303188,-118.92190122,-67.878278742,-66.69631223,3490.0
10.34357256,-98.023354427,-64.764174304,-67.144892523,3500.0
13.066698057,-82.842420065,-62.460053093,-67.601652671,3510.0
17.689745483,-99.516586979,-58.032277479,-94.803069674,3520.0
14.563471947,-129.48694296,-62.351556136,-127.92474382,3530.0
11.301311681,-120.77155868,-70.557600452,-118.1512684,3540.0
10.581416025,-103.74151585,-73.091592658,-103.42569845,3550.0
12.009677771,-87.251021057,-70.643908251,-91.213656343,3560.0
15.969335762,-86.076235418,-64.510324258,-91.252842955,3570.0
16.547435644,-121.01912548,-59.8635998,-134.54910139,3580.0
12.372130582,-124.28193883,-61.576006263,-149.02539814,3590.0
10.770011875,-108.3102759,-63.025095331,-143.08701685,3600.0
11.539561359,-90.474172666,-60.845464074,-125.33539736,3610.0
14.79684482,-83.022690285,-61.760292551,-91.33280677,3620.0
17.240465679,-111.2850995,-66.492998172,-98.901646949,3630.0
13.349345459,-124.60294535,-77.652762513,-129.44490718,3640.0
10.978757084,-112.46220158,-84.738543031,-132.8190758,3650.0
10.832004151,-94.267892753,-80.937525603,-111.73145416,3660.0
13.025019005,-78.186014614,-71.235116962,-99.437885824,3670.0
18.157641398,-86.357418939,-59.950014721,-133.74509977,3680.0
15.820791031,-128.21810732,-58.444644465,155.66713782,3690.0
11.594781649,-120.62526343,-58.518111409,139.9018538,3700.0
10.500630379,-99.64461158,-55.113764165,179.75612709,3710.0
12.081889062,-78.688852008,-58.249668799,-132.21008092,3720.0
17.814254662,-74.173814293,-56.644119671,-142.65241095,3730.0
17.767087327,-134.19974681,-58.530189117,138.51044018,3740.0
11.615664543,-130.14916103,-65.97981273,129.90478646,3750.0
9.4393696375,-108.3130407,-69.953948877,140.80217207,3760.0
9.6775135505,-83.558117654,-71.792843494,149.91376512,3770.0
12.885035678,-58.635578891,-67.084112152,143.92804997,3780.0
25.197650162,-69.485465932,-52.317057861,100.37774068,3790.0
14.6738708,-149.31403998,-60.584470338,11.334391945,3800.0
9.7256964867,-123.22624706,-65.730212055,43.623727053,3810.0
8.6016529773,-94.4605538,-70.708497503,69.54048525,3820.0
10.194801465,-64.140943918,-72.02700014,94.475646526,3830.0
17.108450364,-28.901332497,-67.0124869,135.3454975,3840.0
20.204489321,176.51062636,-66.231226922,-14.20933766,3850.0
10.446424421,-145.89430371,-76.547668796,-44.739259233,3860.0
7.7566626038,-113.52904142,-72.961293941,-89.183440425,3870.0
7.581116075,-82.232200827,-68.301275227,-98.233632751,3880.0
10.046938358,-47.094311248,-61.447816651,-72.858181052,3890.0
19.711676632,12.462899379,-51.097091767,-9.217202408,3900.0
14.61462738,-179.31418054,-59.422208666,159.55076302,3910.0
8.571986146,-133.82159994,-67.445637189,-162.74449974,3920.0
7.0142657103,-98.449562336,-70.734707853,-126.64138403,3930.0
7.8640612424,-62.688465261,-71.613513615,-83.364800811,3940.0
12.046435347,-15.570258006,-68.232186474,-31.58700895,3950.0
17.936861568,107.55278318,-61.514702303,75.306005867,3960.0
9.8304273382,-165.87438782,-65.027135726,134.39816183,3970.0
6.6578837482,-123.53496802,-63.761687309,156.81630434,3980.0
6.0960422485,-88.012333705,-62.414188195,-167.11742517,3990.0
7.692290154,-49.367936106,-60.911873273,-131.41789362,4000.0
13.206871229,9.9543778096,-55.476299082,-82.611705593,4010.0
14.277929638,147.99811427,-55.870152935,52.767488525,4020.0
7.9616803262,-146.70194958,-65.751087238,119.76208693,4030.0
5.9861600417,-106.56428256,-72.055104973,151.32821312,4040.0
6.1350189891,-69.600014385,-73.877367944,175.55825856,4050.0
8.5702267349,-24.354289183,-71.153937692,-150.37008755,4060.0
14.039875971,59.995855784,-62.678231482,-78.057448614,4070.0
10.264655657,172.11715493,-63.818196973,21.771395772,4080.0
6.4872704106,-134.4338561,-67.977342234,58.692203132,4090.0
5.5153977162,-95.477047567,-67.441236102,74.062001733,4100.0
6.4838433903,-56.36592234,-64.290462162,115.3402262,4110.0
10.453142697,-3.2217033465,-61.012127742,178.09551257,4120.0
14.936759306,118.04605875,-59.277112333,-80.816338298,4130.0
8.3866175321,-156.8747699,-67.793384949,-22.717675622,4140.0
5.8516963876,-112.57829618,-70.289567754,3.7658291942,4150.0
5.6128344754,-74.892833335,-71.424521805,28.771682932,4160.0
7.3241516512,-32.040781644,-69.205189352,78.249149286,4170.0
12.242598978,37.050924913,-60.79422329,126.19972708,4180.0
11.488292246,156.54740596,-57.76169589,-159.7292386,4190.0
7.0480150976,-140.7760411,-58.079782422,-131.4824676,4200.0
5.7196652332,-99.589331386,-55.870655973,-66.583435605,4210.0
6.322106522,-61.09120275,-60.585103247,-14.425777621,4220.0
9.6143434117,-12.977380904,-60.274990541,9.195467641,4230.0
15.947353778,91.066708294,-55.24903808,96.058459602,4240.0
9.6436759696,-166.3835838,-65.160307382,-178.95107297,4250.0
6.418604949,-119.45619043,-72.73256075,-151.27741592,4260.0
5.8034335082,-82.237438092,-77.237870605,-126.07305611,4270.0
7.1519154345,-43.432467618,-73.674220459,-83.339610502,4280.0
12.019913202,11.923843451,-59.897761569,-49.860904598,4290.0
15.041100677,141.18753805,-48.876799162,63.741745036,4300.0
8.7293895287,-145.82760067,-54.596369474,160.57734859,4310.0
6.5835431166,-104.49182586,-61.016236604,-143.68158922,4320.0
6.7711424761,-68.682398164,-64.562800264,-96.146679807,4330.0
9.4751992516,-28.666958072,-67.029855934,-56.301076931,4340.0
18.204035217,43.099290723,-60.759224708,-3.3705482757,4350.0
13.45811081,-173.50031977,-67.633620864,108.92930047,4360.0
8.3547178143,-124.94537656,-74.871740041,137.36246698,4370.0
7.065620183,-89.487023106,-74.513613152,179.24814169,4380.0
8.086056719,-55.944668572,-67.739101517,-149.13095456,4390.0
12.590975993,-17.398602793,-58.013440339,-122.88858229,4400.0
28.28702764,109.88730097,-36.263938901,-3.8730397203,4410.0
12.813842128,-143.8565344,-46.300660752,163.70511805,4420.0
9.1392672342,-108.43236134,-61.061670881,-147.37841651,4430.0
8.7967711119,-78.060457961,-65.43752365,-139.90897479,4440.0
11.167234883,-49.8240732,-64.538235922,-144.99207313,4450.0
19.52921727,-31.945023736,-57.183302335,-164.11561781,4460.0
18.705132984,-132.6085037,-60.088985703,73.041151818,4470.0
11.609056604,-113.98933412,-74.63536201,94.77365868,4480.0
9.8879250141,-88.417940062,-71.791438221,-168.59697216,4490.0
11.029625778,-64.201922828,-61.676866831,-172.69995016,4500.0
15.525585075,-49.112501622,-49.961433905,168.00492143,4510.0
20.425259067,-95.711670305,-39.676529559,149.70903257,4520.0
13.828415585,-112.06342947,-53.987504904,147.77464517,4530.0
11.059947235,-93.977438349,-61.043744978,140.91490862,4540.0
11.117431683,-72.923927837,-63.459111634,143.04382212,4550.0
14.029468101,-56.483084986,-62.432496646,155.87449162,4560.0
19.575260948,-74.549660298,-58.928493919,127.32391165,4570.0
15.38089802,-112.37170777,-65.707564672,74.831925726,4580.0
11.406223869,-100.85048893,-71.062700014,60.453671649,4590.0
10.395908551,-80.961296482,-71.10853889,64.355347215,4600.0
11.563085054,-61.073814934,-66.694565826,66.459010147,4610.0
15.419650883,-50.689379308,-59.048588387,66.986891646,4620.0
19.564759589,-84.370921434,-57.345700634,28.950093614,4630.0
14.672524956,-105.80096778,-64.757223811,-0.6850467142,4640.0
11.753789281,-93.200096302,-74.048822169,15.118860341,4650.0
11.391265367,-75.291443884,-79.676590828,0.77556344495,4660.0
13.163235032,-60.277557263,-88.82086323,-44.778946735,4670.0
16.943069065,-63.430598403,-80.513943533,-151.1545837,4680.0
16.849643148,-93.453222537,-72.418263856,161.13228638,4690.0
13.56603463,-96.481556802,-67.497216429,149.48699275,4700.0
12.213728486,-84.70071277,-59.566461544,151.00426417,4710.0
12.521520516,-73.096811846,-56.135245431,153.19456824,4720.0
14.00515875,-68.758131484,-53.725521709,149.98164873,4730.0
14.974018826,-75.481606148,-52.37434558,150.19562457,4740.0
14.222219571,-80.441502898,-56.234107733,140.84239471,4750.0
13.640474824,-75.506701257,-59.709884361,120.23163053,4760.0
14.557178399,-68.192722974,-59.560461438,87.463398222,4770.0
16.786583886,-74.383422244,-55.886698676,40.285337521,4780.0
15.716190911,-96.78185563,-55.497325297,-3.3995169585,4790.0
12.380123922,-95.846663853,-59.384456472,14.011740253,4800.0
10.851735964,-79.16556913,-59.132839854,55.709890689,4810.0
11.407202996,-58.452374643,-53.955374953,59.01488735,4820.0
15.214018392,-39.714967445,-47.435219671,54.952497408,4830.0
24.186760455,-83.840813386,-39.044282102,3.3674495537,4840.0
14.028094716,-121.06789593,-53.363854385,-52.365635098,4850.0
9.5727182502,-98.117135437,-60.413529512,-63.251656085,4860.0
8.381638128,-68.90842323,-62.758545497,-65.246542428,4870.0
9.547443907,-34.562591582,-61.056534786,-53.343758934,4880.0
14.764679287,18.084634915,-56.929105688,-23.636424696,4890.0
15.652216274,155.90061447,-56.375840007,81.540448309,4900.0
8.186047742,-139.80445626,-61.787823827,124.79858354,4910.0
5.3541561538,-99.524760059,-60.078261922,137.02532054,4920.0
4.6038763804,-63.127853062,-56.615699248,151.24893819,4930.0
5.3029959474,-21.032246958,-57.551268034,-175.67970304,4940.0
7.6591918944,44.116097322,-54.477248378,-142.93473881,4950.0
7.3910627618,147.32815449,-53.148975114,-74.836287085,4960.0
3.7962319531,-137.57952838,-55.937718679,-19.918408763,4970.0
1.8048526417,-85.887470394,-58.538325823,9.753589695,4980.0
0.10053007757,-35.503672183,-59.344482,35.281408061,4990.0
-4.645932104,35.85383237,-58.465880775,74.707364682,5000.0
-13.752399954,-170.9366133,-58.276741716,128.63037941,5010.0
-8.7686736833,-63.36941564,-54.105253717,-162.87416131,5020.0
-8.554962513,23.818684222,-47.917624767,-77.223455356,5030.0
-5.6151139829,139.44273304,-48.987381216,-10.038106692,5040.0
-2.4384323329,-143.01223735,-51.501191549,43.97422271,5050.0
-1.5442759877,-96.114397348,-56.038517092,83.68791169,5060.0
-0.95012530911,-59.798007183,-58.335491171,116.89114848,5070.0
0.5224197116,-20.531406751,-58.646479338,144.49458685,5080.0
4.0038727809,35.409068208,-56.489450618,172.73408207,5090.0
8.8508088438,127.10575796,-50.67878202,-125.96702445,5100.0
7.7528543331,-143.68639161,-51.334812918,-62.562662607,5110.0
6.486957258,-92.881661941,-53.550405562,-1.0491842765,5120.0
7.2753706775,-53.669212666,-54.448635667,45.501295044,5130.0
11.137943227,-13.09736143,-47.985154906,90.498065165,5140.0
26.245832847,76.175690306,-35.126821319,-162.2768632,5150.0
13.218592543,-137.70477554,-51.64390435,-37.719822524,5160.0
8.9933124927,-100.50614922,-57.550037693,-28.977872025,5170.0
8.3619664809,-69.805244515,-59.164064464,-20.727043888,5180.0
10.223017106,-42.354174445,-56.646498837,-10.61594495,5190.0
16.262368213,-23.294671851,-50.04820597,-1.0607090723,5200.0
21.499025133,-98.862064126,-44.961303195,-89.571140435,5210.0
12.927139231,-99.208102677,-54.09934528,-115.03896163,5220.0
10.589530538,-74.267496508,-53.774537559,-114.91192059,5230.0
11.517996958,-47.065698221,-46.675032163,-72.03547014,5240.0
16.850861519,-22.467647482,-47.052031073,-20.463488162,5250.0
26.244982733,-125.84232279,-40.137132681,-143.2946439,5260.0
