S11m,S11p,S21m,S21p,Frequency
9.223734149,162.04235129,-49.650407832,-137.61395748,2000.0
8.287166539,-168.89340184,-51.252027782,-139.09200148,2010.0
9.7635867204,-139.14349091,-50.219554648,-141.43757571,2020.0
16.04869355,-107.35191508,-43.834922085,-145.04449844,2030.0
22.327219453,116.38383562,-38.392973941,35.587348362,2040.0
11.252384057,146.45553586,-51.977050196,23.213432192,2050.0
8.587136624,177.52325613,-59.072693577,8.4979174207,2060.0
8.7236847016,-152.54833075,-62.428402093,-26.394709973,2070.0
11.928686531,-121.91724532,-54.440206612,-56.875486522,2080.0
25.901285935,-94.494414064,-35.90663869,-64.942129057,2090.0
15.398999966,128.79312119,-44.084102805,128.21047662,2100.0
9.7564144587,159.27168292,-49.207549885,125.90705512,2110.0
8.2597908316,-172.05914101,-51.349987767,118.09730592,2120.0
9.2342503155,-143.80638829,-51.143150648,109.91223113,2130.0
14.050085147,-116.95699736,-46.770983418,103.92539033,2140.0
25.620327911,162.44086432,-34.674916743,-9.2373982537,2150.0
12.396041499,153.55420854,-47.372075835,-55.684763145,2160.0
9.0891296096,-179.03802475,-51.214538523,-67.465605419,2170.0
8.949699843,-151.19894574,-52.916200578,-82.970287315,2180.0
11.832696923,-122.7648355,-51.007540745,-108.77530685,2190.0
23.7769601,-105.89337613,-37.614247759,-137.63315964,2200.0
15.588982742,137.87835564,-44.191766229,75.044711199,2210.0
9.6079072246,165.43552904,-48.382093234,67.312249178,2220.0
8.0494002395,-165.86703721,-48.799010126,53.414783657,2230.0
9.0199185696,-136.31264816,-47.799944509,36.297951284,2240.0
14.181169143,-104.14249982,-43.051452772,26.750668967,2250.0
25.700618645,122.55129152,-31.383027586,-140.50138628,2260.0
11.006454614,150.76295464,-46.15027225,-136.23909064,2270.0
7.6595371117,-178.11427304,-49.8463817,-112.84316146,2280.0
7.1760349571,-147.96040275,-52.097012691,-84.646586641,2290.0
8.9891501409,-114.39981082,-53.402644228,-57.528714563,2300.0
15.953782761,-66.409089791,-51.894915796,-16.626155673,2310.0
17.000723094,102.89794974,-64.238039599,136.02158974,2320.0
9.0538967888,154.26394515,-66.461889116,-19.782164406,2330.0
6.8148588613,-171.06215411,-62.022198223,-14.343083295,2340.0
6.9561260013,-138.48409383,-59.065111051,-10.989367661,2350.0
9.780695735,-101.0230687,-52.759605947,0.60381205165,2360.0
20.441019881,-28.398903902,-38.194576297,44.773204578,2370.0
12.661724351,125.57360616,-44.087289568,166.67803036,2380.0
7.5964053385,168.04676483,-49.234983337,-178.60890772,2390.0
6.2349870451,-158.6753977,-51.613004839,-166.3101812,2400.0
6.9244414528,-125.78528625,-52.688792125,-147.65353263,2410.0
10.741871971,-85.103812918,-52.141937587,-122.95397502,2420.0
22.11727129,30.357900208,-46.427105041,-35.483285706,2430.0
10.85332094,141.21073423,-67.291118247,9.9406542368,2440.0
7.2097431038,-178.58075815,-66.88378604,-56.200982003,2450.0
6.610888888,-145.0000972,-62.517570515,-64.563082439,2460.0
8.4190684008,-109.51508203,-57.712084838,-63.076569995,2470.0
15.938055034,-57.33878086,-48.734583897,-48.795161891,2480.0
15.356703538,114.02758847,-48.243158816,88.540364463,2490.0
8.2652910482,164.54169074,-53.879068906,122.88915909,2500.0
6.3145614151,-160.55578461,-55.408880037,147.71660754,2510.0
6.6618621158,-127.46804134,-55.312392746,164.34820344,2520.0
10.026203106,-87.790627584,-53.575271213,179.1299105,2530.0
22.016442308,13.540077014,-44.623283408,-111.13421948,2540.0
10.929959263,142.69046941,-62.810039797,-22.658702919,2550.0
6.843255155,-175.92663296,-79.886395399,-116.50706061,2560.0
5.9527952831,-142.03837016,-72.105891098,-142.21402538,2570.0
7.2650489726,-105.76344037,-65.319282342,-110.02091658,2580.0
12.686476197,-51.358229874,-54.687137323,-64.66606025,2590.0
15.13412436,92.733129419,-50.394705782,67.148711448,2600.0
7.9541494473,159.11371497,-58.646968628,108.15804923,2610.0
5.7186363052,-162.80389122,-62.64326177,123.22710957,2620.0
5.6907947547,-128.92473093,-62.343733908,140.05690878,2630.0
7.9611724488,-89.476822752,-58.372850709,160.10919534,2640.0
15.569000169,-17.877990451,-49.530464003,-154.45890305,2650.0
12.026808095,124.30041935,-52.653859283,-41.084927598,2660.0
6.8612906604,175.59244898,-57.871585745,-14.605707257,2670.0
5.4492865814,-148.64366538,-60.397212688,5.2349592242,2680.0
6.0752677545,-113.61997732,-63.968203265,41.986136137,2690.0
9.584688001,-68.016590206,-64.433195341,132.81440688,2700.0
17.402887852,44.900712055,-53.242152244,-93.345400287,2710.0
9.2890815788,148.66055814,-59.764691753,16.990098867,2720.0
6.0524700095,-168.29568848,-62.83799761,54.651103894,2730.0
5.5357391067,-133.56991194,-63.714848688,76.619285517,2740.0
7.1538659845,-95.938120724,-60.703002905,94.409515522,2750.0
13.245890402,-37.046157669,-51.194309782,128.52812531,2760.0
13.379569602,112.8588594,-47.139566038,-117.33453094,2770.0
6.8884597548,172.82429623,-51.216732987,-90.789658408,2780.0
5.0544674587,-149.25613489,-51.596781483,-80.243195487,2790.0
5.2580991486,-113.30899825,-50.142980731,-63.472700879,2800.0
7.8569379143,-67.522645087,-46.667012283,-22.968971106,2810.0
14.234977902,30.609088249,-43.172532193,63.538676026,2820.0
8.5181601957,143.07707776,-55.970826326,138.71335415,2830.0
5.1734324326,-167.91877807,-69.866360853,106.71617688,2840.0
4.3647264748,-130.24575768,-67.169492514,37.103521023,2850.0
5.106851867,-88.758838163,-59.887785558,40.904769905,2860.0
7.8906562184,-21.151107313,-51.031987472,74.557965977,2870.0
7.1662033674,92.80640302,-47.155893331,147.63251433,2880.0
3.4273137167,164.95784874,-48.139608513,-175.68802003,2890.0
2.025602686,-151.03304182,-46.68824437,-148.32627436,2900.0
1.5706954686,-112.61203449,-45.641315276,-111.19877378,2910.0
1.6509662436,-64.208785455,-45.79037953,-75.861084912,2920.0
1.9345161718,17.131269014,-46.469979186,-32.792854414,2930.0
0.89538769682,117.62890132,-50.912632452,16.391366757,2940.0
-0.21548940034,-176.96785582,-56.597317834,38.563470807,2950.0
-1.4548073463,-132.21017472,-60.097935109,44.003161212,2960.0
-4.678983796,-89.341056362,-59.996273209,46.244764225,2970.0
-18.908095479,-62.627246115,-57.298086565,54.443291643,2980.0
-10.89777209,-150.62142534,-53.79518896,65.18937915,2990.0
-9.0475858212,-109.85957851,-48.991825589,86.237882992,3000.0
-14.896212263,-48.346432805,-45.565126281,117.74539256,3010.0
-11.978345533,116.92224552,-44.506798015,155.79995907,3020.0
-4.8861337607,173.46133053,-45.718839926,-164.81456678,3030.0
-2.4167678349,-147.42362493,-48.386244434,-126.77160613,3040.0
-1.2973525563,-109.8861293,-51.15789718,-97.334626987,3050.0
-0.33200916207,-61.191657948,-52.566670172,-74.386414335,3060.0
1.9012934375,19.082768179,-52.797142373,-39.613526823,3070.0
3.4173253391,120.64936568,-56.406798106,24.144321166,3080.0
2.7500766114,-173.86147763,-63.528494941,108.26028206,3090.0
2.5195084484,-130.74762578,-58.26891024,-154.63173573,3100.0
3.100696944,-89.344857334,-52.264884409,-122.87920135,3110.0
5.3703340025,-31.923811869,-47.122756564,-91.554079183,3120.0
8.2150456265,69.405327023,-44.497452936,-20.196743116,3130.0
5.6103420809,158.19044843,-50.462066083,41.28301595,3140.0
4.1171316602,-152.92573227,-55.389680457,67.7281562,3150.0
4.1176183047,-115.44271265,-57.179660542,82.066469819,3160.0
5.8088085601,-75.600273012,-56.145287447,97.384325911,3170.0
11.429575403,-14.287614155,-52.526423303,138.75609776,3180.0
12.855265042,124.71377401,-54.131477765,-100.07538094,3190.0
7.2143772112,-170.10266958,-64.157135334,-51.888137694,3200.0
5.657275413,-131.07260698,-68.664931794,11.49271937,3210.0
6.2641235508,-95.921237628,-62.287016513,67.615464605,3220.0
9.8982490011,-53.866023147,-54.682330922,97.511341263,3230.0
20.677043198,53.646246441,-42.23338082,174.46848011,3240.0
10.798357895,170.84079162,-51.731451068,-99.588951357,3250.0
7.1266090708,-147.91655061,-55.245451748,-76.313764617,3260.0
6.5691187086,-115.31809533,-57.042864137,-49.894749439,3270.0
8.3882622568,-82.797979054,-57.066759212,-34.463200495,3280.0
15.655332558,-43.928104224,-51.447448495,-27.72780027,3290.0
18.388559443,160.15745109,-50.100583454,143.93870762,3300.0
9.4168696428,-159.17151673,-64.133643392,170.74532532,3310.0
7.2602907776,-127.66556682,-69.614746976,-63.97288493,3320.0
7.6331176817,-98.238266567,-61.887932171,-32.416816432,3330.0
10.943472046,-66.84174194,-55.130946617,-21.385411769,3340.0
25.666019171,-29.52095464,-38.742870335,-2.1939729928,3350.0
14.174906844,-178.26998217,-50.650488162,-166.81453137,3360.0
8.914150959,-146.24278394,-58.069669928,-155.69662653,3370.0
7.7186008957,-117.78417706,-60.283030294,-152.75299284,3380.0
9.0056803422,-90.635888959,-59.128070832,-152.52284632,3390.0
14.182041045,-66.449954184,-54.745160074,-145.0077082,3400.0
23.151258099,-144.03779244,-51.373869959,118.18402348,3410.0
12.088060315,-152.56027321,-72.386348241,3.1074906929,3420.0
8.9892456165,-128.70972575,-66.824562699,-66.41858158,3430.0
8.7855916002,-104.73534419,-63.768951219,-62.93028769,3440.0
11.051623171,-81.86957679,-60.99184239,-52.070952298,3450.0
17.743205378,-74.978584437,-55.017812163,-67.452927084,3460.0
17.768592672,-145.56785195,-55.330106869,-167.85815461,3470.0
11.462596273,-138.8065342,-62.117297808,169.8607488,3480.0
9.6984148333,-118.07242494,-63.167881413,169.61222775,3490.0
10.5087398,-97.692100277,-62.122773597,169.28785797,3500.0
13.871055046,-86.884883253,-61.613984212,128.59170146,3510.0
17.165196505,-113.99254624,-57.533500965,27.142510131,3520.0
13.213928326,-131.45617254,-58.504782155,-53.048374529,3530.0
10.725067548,-119.67212681,-60.737893091,-79.151434167,3540.0
10.520497496,-102.81113629,-61.186341222,-96.729726572,3550.0
12.391759497,-88.653572692,-59.575139099,-117.06647196,3560.0
16.241330678,-94.198447096,-54.689702912,-151.63770456,3570.0
15.33149321,-124.58819463,-54.876049701,159.3156191,3580.0
11.924227153,-122.75359573,-58.652442548,146.500978,3590.0
10.957210504,-107.41111615,-59.917756533,141.49474994,3600.0
12.124626317,-93.043999922,-57.284814457,128.37576934,3610.0
15.146921137,-93.498853823,-50.783797783,106.5598181,3620.0
15.552512868,-117.30413015,-55.217162475,74.058776316,3630.0
12.651283009,-121.34543557,-62.982829772,8.629998518,3640.0
11.248104082,-110.44789535,-68.415919774,-47.298369818,3650.0
11.645144753,-96.490562733,-67.84939556,-96.586060221,3660.0
13.894617287,-89.856953521,-63.036695847,-144.542199,3670.0
15.869388591,-106.93461823,-58.987100083,159.4516788,3680.0
13.206095662,-119.99915523,-60.647106095,110.09890715,3690.0
11.255979574,-109.05396933,-60.495832861,89.700920954,3700.0
11.579063103,-91.568210711,-55.251168812,90.583446586,3710.0
14.769172893,-81.14700792,-50.805072364,141.93103276,3720.0
18.314427233,-114.556433,-54.669849517,90.514364235,3730.0
12.961891991,-132.25038924,-66.472907264,14.902295344,3740.0
9.9201865622,-116.49397977,-74.83290222,-59.5792333,3750.0
9.3540674888,-94.244075345,-77.264671532,-73.884685395,3760.0
11.140689943,-70.372723781,-76.512268393,-74.774702667,3770.0
17.937991704,-53.74095691,-81.585357486,-122.20109366,3780.0
19.108435355,-151.32282952,-76.321543957,-38.212483082,3790.0
10.873617593,-136.99366628,-72.594227111,-16.30855121,3800.0
8.4643171767,-108.93131175,-70.611007209,16.021140901,3810.0
8.7001596531,-79.599690534,-74.772057386,46.464466652,3820.0
12.241080911,-46.415412594,-73.975382218,43.018726453,3830.0
30.564752108,29.826797948,-52.908727799,66.383413348,3840.0
12.998950159,-167.23433683,-67.667333963,176.38421481,3850.0
8.2334954794,-132.02264902,-71.058241298,177.63717175,3860.0
6.9599467805,-100.58217697,-71.229945396,-170.03364293,3870.0
7.8033571447,-68.495349617,-67.669641035,-155.46086446,3880.0
12.11143123,-28.553813584,-59.317337692,-118.08121868,3890.0
22.856817822,107.62819823,-48.318522909,38.232531506,3900.0
10.749215154,-159.73190453,-65.310407323,140.21127301,3910.0
7.2530625671,-120.42548829,-72.98166049,176.81410462,3920.0
6.7372040117,-86.28588285,-78.003075485,-125.38578691,3930.0
8.59947851,-48.636542071,-74.379835987,-22.583019297,3940.0
15.207445085,11.288573205,-60.293999942,30.265099217,3950.0
14.334082001,156.0258453,-56.938332976,125.78168129,3960.0
8.061267636,-146.53405016,-60.675560343,132.42543477,3970.0
6.1200312616,-108.8604738,-58.762683996,148.6952458,3980.0
6.3605822342,-73.75167755,-57.3210114,-168.47276443,3990.0
9.2483259778,-30.86502644,-55.345140458,-128.21969915,4000.0
17.171181277,58.847590963,-47.948599086,-54.633386057,4010.0
10.888053533,-176.35275017,-55.468183016,63.240911968,4020.0
6.7620257447,-127.715951,-63.856249295,111.0728277,4030.0
5.8353813509,-90.476869116,-69.048737979,136.91769555,4040.0
6.9390313234,-51.722310291,-69.724444281,158.20308135,4050.0
11.073384904,4.6974651036,-63.708067509,-162.64837342,4060.0
13.713618373,124.22148608,-56.893018208,-63.091616416,4070.0
7.8913428131,-158.62898288,-62.832970117,-2.6385646998,4080.0
5.6475748221,-115.41088212,-66.280938346,24.166604728,4090.0
5.572906966,-78.390066467,-65.733095608,47.640263431,4100.0
7.580558959,-35.997090226,-60.938127614,95.327587798,4110.0
13.58834379,36.398391301,-55.646820905,179.78110923,4120.0
11.566045226,166.31913975,-62.971275079,-65.888722514,4130.0
6.8182901241,-135.42299753,-71.269002717,-27.179006753,4140.0
5.4798158482,-95.910161574,-72.659137431,9.9951192281,4150.0
6.0823003867,-57.519836278,-68.06958595,44.928570046,4160.0
9.1234189797,-7.3934433368,-61.657173479,72.217901971,4170.0
14.007125419,94.144442953,-55.969433192,133.29954723,4180.0
8.8447897642,-168.80988528,-60.102766701,-173.77906261,4190.0
6.0020375924,-120.40388854,-59.575087439,-153.24713791,4200.0
5.5755680484,-82.078839652,-52.159926717,-86.652876047,4210.0
7.0962257752,-41.613511226,-59.203548441,-11.762765083,4220.0
12.124249111,18.897775896,-58.773123199,30.121924764,4230.0
13.515690116,148.25228444,-59.091176334,146.80039656,4240.0
7.7851682043,-143.49778803,-71.701750606,-128.77063692,4250.0
5.9270706844,-102.06887501,-74.495479468,-52.787603229,4260.0
6.1425344934,-64.620060022,-67.634763164,-37.628900518,4270.0
8.6927483023,-20.419938535,-59.212955681,-46.165033851,4280.0
15.270227469,62.82372219,-47.869460119,-17.52279031,4290.0
11.188301836,-178.18200498,-44.628719279,62.123041434,4300.0
7.2445160031,-125.82298393,-42.410533604,178.28233444,4310.0
6.3226506504,-87.683282224,-50.385119906,-122.35924373,4320.0
7.567200664,-50.094220342,-54.513080056,-79.684507793,4330.0
12.384461498,-0.94157085329,-55.864733879,-45.890410103,4340.0
18.040001285,134.29142859,-55.423355258,61.395843763,4350.0
9.7915503614,-147.50540318,-68.575423322,122.47645661,4360.0
7.092142807,-106.89636277,-69.31659648,170.96887721,4370.0
6.9338953102,-72.183167848,-62.955511596,-174.21953834,4380.0
9.1831232127,-35.258706314,-55.329847817,-169.56245799,4390.0
16.772028799,20.408091447,-44.524566034,-146.72634572,4400.0
16.439142594,178.4695985,-41.048059549,-20.652854443,4410.0
9.6802469318,-129.83757775,-33.435558798,176.7836478,4420.0
7.9237919009,-95.114738703,-57.239275914,177.45042631,4430.0
8.60799498,-63.381242521,-62.877924143,175.67889098,4440.0
12.499481474,-31.314591982,-62.899546492,169.66626781,4450.0
31.875928171,0.03019340474,-46.984011177,160.8989601,4460.0
14.674350267,-140.55855891,-74.875582347,28.335635351,4470.0
10.01724908,-109.31781747,-69.109689253,139.85101572,4480.0
9.2250776396,-80.993052999,-64.133420332,136.21128635,4490.0
11.091826563,-54.59985494,-59.086529898,121.17201214,4500.0
17.180903357,-38.038950386,-48.153326123,94.250137039,4510.0
21.217368418,-113.94376585,-25.623284311,38.811780632,4520.0
13.305949959,-114.41097051,-54.288153603,103.03245196,4530.0
10.915976311,-92.712156797,-63.189936323,99.63810258,4540.0
11.294107375,-71.201926027,-65.798537636,96.798359995,4550.0
14.39757652,-56.029194625,-67.343023237,99.528641708,4560.0
19.276222563,-75.783180684,-66.079752018,75.792078599,4570.0
15.676088645,-106.45193056,-78.187549065,19.438232886,4580.0
12.40541536,-96.718662478,-90.758889067,152.71790883,4590.0
11.850642491,-79.5453178,-81.422059433,126.81095444,4600.0
13.402100124,-65.530042873,-72.679302409,111.00666034,4610.0
16.608403269,-68.356039407,-65.332001169,104.54785326,4620.0
16.791066488,-92.777895942,-76.95721392,51.315331669,4630.0
13.897154312,-96.122776103,-80.406207872,111.46292798,4640.0
12.613646424,-85.113456299,-87.410556288,-12.5020186,4650.0
13.276506395,-72.895156208,-81.080404923,-116.43063254,4660.0
15.343460888,-71.008724888,-72.548726471,-148.43084829,4670.0
16.136882942,-86.220749241,-67.064609816,157.67797715,4680.0
14.063575445,-92.386577127,-64.878489358,120.36607188,4690.0
12.865382047,-83.420959929,-60.231260453,105.78496534,4700.0
13.345521319,-72.175046364,-55.552082528,110.25450921,4710.0
15.251586011,-69.874605001,-52.497770909,109.58654385,4720.0
16.291024876,-83.287509812,-51.656889975,91.662540825,4730.0
14.456743311,-91.173939942,-53.1922027,96.906084214,4740.0
12.932634856,-83.910737819,-58.336306752,116.71267937,4750.0
13.178916515,-70.614014609,-60.947429743,109.27821111,4760.0
15.72667609,-62.511547082,-59.016519759,88.142379859,4770.0
18.81311194,-86.799225753,-53.031770952,32.318683148,4780.0
14.624646212,-108.7225439,-54.063747223,-12.739615435,4790.0
11.300522179,-96.159443255,-55.668752447,3.0194365559,4800.0
10.411875033,-74.845194403,-56.706153284,15.100586636,4810.0
11.88613715,-52.07583398,-54.549022004,23.252588322,4820.0
17.616233862,-35.281113852,-46.795771759,29.921480093,4830.0
21.820285177,-119.74902347,-42.744893484,-45.566235491,4840.0
12.439368577,-116.65319899,-56.056909835,-50.063399381,4850.0
9.4212581244,-90.041189058,-61.493909293,-51.182500583,4860.0
9.2046856357,-59.043993143,-61.885506045,-50.141047483,4870.0
12.068949518,-20.652552567,-58.239916502,-52.796745084,4880.0
21.48318879,73.569149077,-49.342922268,10.317046812,4890.0
11.695394267,-164.19448727,-58.765022273,86.755407782,4900.0
6.7896030465,-119.15690454,-62.706929267,92.133178293,4910.0
5.0708728659,-82.612136673,-61.894301458,92.88697679,4920.0
5.0210353166,-44.964056409,-56.247149772,113.34328786,4930.0
6.5607072251,4.7035124993,-54.356631223,164.06614614,4940.0
8.8238391362,89.938942286,-51.925010012,-135.19124897,4950.0
5.8811864971,-174.50679427,-53.58800683,-64.301570077,4960.0
3.0973918323,-114.26794083,-55.279764498,-17.138064564,4970.0
1.6119519224,-65.836074173,-56.060389592,13.374155651,4980.0
-0.24225870153,-9.7568621352,-55.675267684,42.856382418,4990.0
-6.4744447808,75.914699821,-53.893703277,82.708932345,5000.0
-12.615986979,-137.20409588,-52.254078884,117.11951482,5010.0
-11.049153435,-32.743745986,-45.55624211,152.29460826,5020.0
-8.9230196322,90.608300027,-39.923108482,-73.797157574,5030.0
-3.2293951307,-172.51387341,-46.38661187,-6.088821271,5040.0
-1.3580488436,-113.76315495,-48.962145022,39.546607181,5050.0
-0.98231606516,-71.273559168,-52.498681541,80.183961555,5060.0
-0.58770160025,-31.225468086,-55.590646038,113.69425584,5070.0
1.2202940859,18.477482718,-55.355381406,148.06502053,5080.0
5.2829467453,92.491934813,-52.446868117,-165.25666038,5090.0
6.9530440685,-176.77539927,-50.531069842,-101.48096672,5100.0
6.0231543206,-115.38191978,-49.009748303,-51.253772824,5110.0
6.2380265266,-72.232414236,-47.720714485,1.1240630393,5120.0
8.7296450067,-30.514107624,-46.133774717,32.090245571,5130.0
16.798239025,29.851585747,-30.960656351,122.58500398,5140.0
15.381894381,-171.17056988,-40.119649498,-35.611007549,5150.0
9.1174594364,-120.70810353,-49.856252861,-22.621760793,5160.0
7.4836776981,-85.919144658,-52.92376083,-29.260949162,5170.0
8.2173184211,-54.711915637,-52.744070198,-31.64166407,5180.0
11.934681036,-23.398049179,-48.630418123,-25.508551953,5190.0
26.845079484,3.2710485705,-34.18176335,-19.953249284,5200.0
15.909922762,-131.41796483,-46.509209021,-172.69645122,5210.0
10.713917984,-101.54264341,-52.002202914,-168.9648019,5220.0
9.8703238329,-72.899068194,-48.538069717,179.62825236,5230.0
12.042572908,-45.21135545,-36.097244925,70.740471646,5240.0
20.248091982,-29.286201108,-37.250430168,-6.6531482619,5250.0
19.22705634,-133.11572655,-40.493020787,-162.02820833,5260.0
