S11m,S11p,S21m,S21p,Frequency
7.5540430419,-143.79893565,-67.513939809,-169.70483157,2000.0
11.16443995,-104.04933964,-65.346260533,-147.11238977,2010.0
22.870601614,-5.7593638661,-54.951148114,-23.739116074,2020.0
12.408693155,121.718834,-61.613731665,119.35750503,2030.0
8.2930945139,163.28143795,-65.896520595,159.14004014,2040.0
7.6334640139,-162.33629881,-69.859847884,-164.6701057,2050.0
9.7079190047,-127.28186854,-72.473379158,-85.475507949,2060.0
18.425951919,-81.824048994,-59.028080281,-20.307300722,2070.0
16.800737015,110.87823885,-58.938102654,143.88402912,2080.0
9.5020143517,152.52874034,-65.388044022,156.385479,2090.0
7.5124808779,-174.76670353,-67.639922587,161.97169143,2100.0
7.9619610667,-143.04917446,-68.078670202,178.38824351,2110.0
11.65344329,-106.10618355,-65.655672519,-144.83875043,2120.0
27.614752273,-6.7589502939,-46.701156201,-12.381538508,2130.0
12.440097949,131.33419982,-56.032359375,126.67328271,2140.0
8.1638790857,169.34379262,-57.789234234,147.28597246,2150.0
7.3651314722,-157.89375899,-58.113074055,160.85546972,2160.0
9.1611144016,-123.73140345,-56.388309367,163.74201253,2170.0
16.343256425,-77.572574917,-49.977842114,159.26258076,2180.0
17.771880381,100.55586987,-48.997063087,-81.013017715,2190.0
9.3853786874,149.43493112,-58.306625331,-70.402212962,2200.0
6.970799949,-176.99364635,-62.76418197,-49.217933174,2210.0
6.9353925711,-145.51467819,-65.794416984,-24.331659327,2220.0
9.3672446965,-110.08823036,-65.004940148,-11.312845748,2230.0
18.391378266,-54.483310025,-54.402006556,12.339885585,2240.0
15.23205866,116.69937586,-54.658255851,163.67343755,2250.0
8.8786289929,161.2468153,-59.130492522,-167.07070341,2260.0
7.2700284599,-165.96211616,-59.259871208,-142.84806216,2270.0
7.9854128389,-134.40164391,-57.676060318,-114.71420788,2280.0
11.917713434,-98.793251257,-54.581440049,-85.831380336,2290.0
30.765397609,-0.28612953614,-39.020055775,-0.81036630924,2300.0
12.636609506,139.78704336,-63.062858002,138.62212679,2310.0
8.4098955761,174.66666558,-72.510302868,-150.61116051,2320.0
7.6413861748,-155.08352096,-76.201761867,-129.19924549,2330.0
9.3720868808,-125.64837472,-70.649520956,171.70573386,2340.0
16.059835186,-100.79017164,-56.843396352,151.69904205,2350.0
19.912849215,156.20372136,-49.964219932,6.2803194197,2360.0
10.971078118,171.81807991,-58.222086931,-25.084976025,2370.0
8.8264419734,-160.76152552,-58.588647182,-42.677485077,2380.0
9.5413622487,-133.18710502,-55.007332788,-43.899335339,2390.0
14.187806755,-107.92137704,-48.600500279,-38.080256936,2400.0
24.847547591,172.73657919,-39.01143741,-137.93765293,2410.0
12.016326944,163.61886438,-54.462853215,-167.68214595,2420.0
8.6369049763,-169.14362589,-63.645303279,-151.78740513,2430.0
8.3785129085,-140.78395138,-82.920803346,-18.403211951,2440.0
11.164438259,-111.21917286,-64.013008002,54.997443344,2450.0
24.152089466,-92.76582528,-50.324502465,59.834082783,2460.0
14.162210584,149.09870126,-59.64154998,-67.627295999,2470.0
8.6074479356,179.18431234,-66.594751991,-49.65851219,2480.0
7.142027677,-151.37898517,-66.205278309,-46.67907555,2490.0
7.994961764,-121.13944855,-62.723284582,-42.842817686,2500.0
12.475016766,-84.915391696,-56.630716976,-21.852651491,2510.0
27.934898686,69.701682015,-43.350177037,115.34109473,2520.0
11.266580331,153.46256818,-66.050605798,179.00601376,2530.0
7.613748686,-172.00188573,-78.563430297,-38.848427798,2540.0
7.0166931349,-141.50260027,-65.341618325,19.487032666,2550.0
8.8441724188,-110.0457836,-59.449701447,34.006383095,2560.0
16.247458959,-71.389346608,-52.498801557,46.185879085,2570.0
18.328533729,131.6735069,-53.961933331,-127.20495136,2580.0
9.4499164152,171.52326357,-68.934047424,-85.549306687,2590.0
7.2203104732,-157.38901968,-76.380575987,-67.088688461,2600.0
7.5230269241,-128.2228573,-78.613547655,-56.549639157,2610.0
10.82376021,-97.152117304,-72.404214398,-45.859267752,2620.0
26.045731564,-76.883452493,-57.629509199,-38.050413817,2630.0
13.553819877,161.88888321,-72.333719617,-114.91701166,2640.0
8.6445938743,-167.86384452,-68.327177705,-66.145958952,2650.0
7.7322784932,-139.1761207,-64.982965537,-51.593854684,2660.0
9.5739084829,-109.62108362,-63.553480502,-31.841332159,2670.0
17.542418008,-80.407479709,-56.604591384,7.6223980018,2680.0
17.008182777,154.39065108,-57.048967582,-105.47794725,2690.0
9.1802488626,-176.67702012,-67.035099893,-66.098819719,2700.0
7.2282492713,-147.03207121,-70.039138182,-34.996696758,2710.0
7.9065451248,-116.63856723,-71.280912458,-22.173485231,2720.0
12.335581259,-81.387880513,-69.421270003,0.90663016943,2730.0
28.195535728,112.29597864,-53.767494529,169.93600839,2740.0
10.328502128,167.61444497,-67.877310167,-161.27362337,2750.0
6.8179287619,-158.62688,-68.016482129,-136.44190963,2760.0
6.2268443977,-127.15655671,-64.608135916,-111.82773508,2770.0
7.8775658171,-90.404126333,-61.242412207,-84.149039495,2780.0
14.479151534,-29.130247008,-55.263622886,-31.37499538,2790.0
13.080822006,121.06329343,-58.182258987,129.78424952,2800.0
6.9419185783,176.69742045,-63.955508007,-158.9939321,2810.0
5.1947027641,-146.36658695,-66.898555988,-134.78758872,2820.0
5.4386487792,-110.59238149,-72.565718301,-127.31314346,2830.0
8.1478763836,-63.677856713,-79.659250178,46.970388288,2840.0
13.784585361,40.992445574,-62.671216685,154.98516192,2850.0
7.501192236,145.65493376,-66.728804677,-124.457544,2860.0
4.1668134305,-166.33095711,-70.011711408,-107.27145045,2870.0
3.0300751376,-128.59311151,-69.95763795,-103.25188495,2880.0
2.9268668488,-86.510990106,-70.486769545,-66.886873457,2890.0
3.7176066764,-22.042721742,-67.94265255,-4.8710819405,2900.0
3.4955362024,77.785627383,-70.319784851,79.467716469,2910.0
1.747172645,156.73425796,-80.682788298,163.86164201,2920.0
0.81520633384,-154.30950634,-83.509263052,23.611872552,2930.0
0.053166463765,-113.28646915,-78.513814044,116.61008318,2940.0
-1.6347654645,-62.565856412,-65.666779908,-122.71536499,2950.0
-7.0182586434,22.902768906,-57.079484683,-34.370474385,2960.0
-9.5330315151,145.05376851,-55.905756595,33.93655911,2970.0
-9.1894290827,-152.38190967,-55.649603738,76.090145929,2980.0
-13.891124013,-134.48916022,-55.279132446,120.5979474,2990.0
-10.299080132,-173.98683159,-56.445543292,172.92722929,3000.0
-5.328801815,-147.4071246,-59.687448627,-133.21734041,3010.0
-4.0948019526,-112.12826004,-61.280819574,-66.858676252,3020.0
-4.4678416888,-67.859677637,-60.388686736,13.847757769,3030.0
-4.6840287604,5.957996964,-62.574539741,111.67311854,3040.0
-1.0277018664,102.70339202,-64.500285091,-170.65504472,3050.0
1.5311205279,173.09805895,-65.476979245,-124.38412344,3060.0
2.4801438248,-140.20143507,-68.577790169,-103.02198695,3070.0
3.7235520558,-100.00599507,-68.039753278,-119.09569824,3080.0
7.0953546327,-50.089629324,-59.650276832,-172.24716473,3090.0
14.212981447,60.477979449,-48.091596449,-139.16012139,3100.0
8.1076603276,167.62370851,-54.063453223,-78.523973276,3110.0
5.4708762845,-146.58972532,-58.433677205,-61.077284278,3120.0
5.3053951242,-110.9686856,-59.533521886,-39.216122066,3130.0
7.3635811603,-72.945737713,-58.865874595,2.6610636194,3140.0
15.000760098,-13.5485513,-59.599091264,64.505934946,3150.0
13.90328002,146.52960257,-66.307234078,137.18595402,3160.0
7.8568696716,-161.77389827,-70.820796569,131.07424701,3170.0
6.3891966303,-126.96432598,-73.047783837,130.2155537,3180.0
7.2001234906,-94.236604906,-72.780049272,53.958703253,3190.0
11.579482827,-55.490051696,-63.764079207,16.255054353,3200.0
24.976621774,95.578766842,-48.497895745,145.40065861,3210.0
10.408140824,-178.70473974,-60.530119891,-138.51157569,3220.0
7.0336418544,-142.90951256,-62.782057025,-110.19429064,3230.0
6.5145998291,-112.44452381,-61.494700532,-83.119318102,3240.0
8.2309351762,-81.622379198,-57.779859005,-42.736777898,3250.0
14.764418423,-45.455056734,-53.857651848,20.52369675,3260.0
20.784419947,158.96505523,-54.552779906,-117.87940086,3270.0
10.224849673,-160.88198295,-63.630094367,-46.413235869,3280.0
7.7622625505,-130.00360222,-60.819290958,-24.215289169,3290.0
8.0436146977,-101.63164263,-57.620645882,-19.397365406,3300.0
11.472515735,-74.31157392,-52.808736215,-20.289210113,3310.0
24.310376259,-83.435378238,-38.978667548,-54.450163063,3320.0
13.986029705,-162.31439427,-49.743916131,-147.06256117,3330.0
9.3360344542,-137.97810476,-56.459145224,-126.08026733,3340.0
8.4997130226,-112.85857883,-59.458035499,-99.301070776,3350.0
10.248782515,-89.410091152,-58.797792186,-60.065194731,3360.0
16.305896469,-79.69357026,-54.169840993,-18.603560754,3370.0
17.037174824,-143.66698744,-57.024561951,-69.803634917,3380.0
10.781645369,-137.20636019,-65.689234839,-55.345621655,3390.0
9.0104559403,-113.99520415,-67.001431485,-19.118416711,3400.0
10.141446188,-89.377703326,-65.134061722,9.0264975601,3410.0
15.789532916,-70.584855126,-59.539815599,21.982328229,3420.0
20.083603974,-152.49052814,-54.208804849,-66.10046923,3430.0
11.054541901,-148.19416713,-63.345250229,-67.913858754,3440.0
8.3472367051,-123.28755633,-67.856584898,-27.585121097,3450.0
8.289608136,-97.2443491,-71.05584962,8.2251222866,3460.0
11.105104752,-69.502026763,-69.647741682,66.866783199,3470.0
22.883445621,-52.652673427,-54.285185221,140.2891797,3480.0
14.83236951,-167.20902705,-60.210617025,19.100840487,3490.0
8.9512013789,-139.44695678,-67.169918701,18.69338843,3500.0
7.4650901533,-111.2200628,-71.115838627,30.018744494,3510.0
8.4264043079,-82.103135678,-73.045501134,48.303610752,3520.0
13.03470336,-49.83861911,-70.208063362,62.843894204,3530.0
32.946332449,159.17563383,-53.834416653,-94.220767198,3540.0
11.720601377,-161.52361526,-73.956867256,-25.228551337,3550.0
7.893518922,-130.4529819,-73.651380423,32.836543209,3560.0
7.2272369721,-101.6296495,-71.916838531,90.578439997,3570.0
8.8420086576,-71.472185704,-68.825060678,137.22689215,3580.0
15.190502897,-38.054253354,-63.145906683,-175.24307254,3590.0
21.331015683,179.13010371,-58.272580081,42.90572835,3600.0
10.46383935,-147.80920487,-70.813362695,72.050605869,3610.0
7.956642789,-117.09024536,-73.554815983,95.784478695,3620.0
8.1543497582,-88.106202394,-73.382776341,123.84625017,3630.0
11.196223484,-58.053810137,-72.554146642,142.86858787,3640.0
24.366350163,-30.2161542,-62.045456956,160.16429254,3650.0
14.808435153,-165.683994,-73.164306976,23.111391976,3660.0
9.1754422769,-135.1841532,-78.145384472,102.40505816,3670.0
7.8735176468,-105.79339719,-71.751897059,142.61809125,3680.0
9.070990527,-77.309287848,-67.932677627,169.56890493,3690.0
14.479911909,-51.256944163,-60.625546032,-174.756241,3700.0
22.947073462,-146.86714372,-52.265648685,75.163568654,3710.0
11.584338631,-141.06461307,-64.024989553,70.56621581,3720.0
8.7368375232,-114.07378178,-66.167756349,85.113032288,3730.0
8.8051211135,-87.543563711,-65.593499581,112.36117753,3740.0
11.853189866,-61.464147833,-63.251244216,145.81749983,3750.0
23.214435047,-61.983768173,-54.466486111,141.19539893,3760.0
14.847935032,-151.06770803,-65.29369367,58.393386502,3770.0
9.5784935886,-126.59974334,-71.541584729,91.245219516,3780.0
8.3769746759,-99.717534086,-74.192964172,105.91877198,3790.0
9.8082585964,-73.587661937,-73.345223882,127.84352231,3800.0
15.665918807,-56.554209004,-68.790365282,143.27377702,3810.0
19.47276592,-129.9045297,-65.489389591,78.3944016,3820.0
11.562041512,-127.23227539,-73.278087792,84.536741724,3830.0
9.2897882719,-103.5076294,-75.202635677,112.02828725,3840.0
9.8038380711,-78.790015637,-75.159202653,131.8719989,3850.0
13.675577239,-56.977972374,-79.874781624,111.84881989,3860.0
23.78559405,-100.57087945,-55.67349573,-42.617314531,3870.0
13.383192185,-136.66634861,-60.366614517,-83.742622892,3880.0
9.5371046064,-112.73782044,-65.472261148,-43.03801551,3890.0
9.1610590332,-86.441092823,-67.930948201,-13.145548722,3900.0
12.018906472,-61.734114338,-67.440653122,20.359284759,3910.0
21.659792122,-71.768622458,-58.345894821,10.638686653,3920.0
14.410843275,-135.2735188,-67.179449672,-52.519599819,3930.0
9.6226261263,-113.5482017,-72.679731488,-38.402504902,3940.0
8.6037736847,-86.650111153,-72.746980438,-15.466145815,3950.0
10.252704411,-57.870577156,-66.547835616,5.661097864,3960.0
17.330420314,-25.641705088,-52.94290091,34.718945824,3970.0
20.191739705,-170.65085293,-46.801101589,-96.125226291,3980.0
10.446211501,-135.61995688,-58.053370431,-45.930777202,3990.0
7.934538872,-103.89308252,-63.980557257,-4.6663884539,4000.0
8.238667172,-72.911802441,-67.068402326,14.874617109,4010.0
11.910694114,-38.460807065,-65.408290709,36.405899417,4020.0
32.661721587,39.556137024,-47.270243892,103.9114436,4030.0
12.67813204,-152.04068253,-67.827989968,-90.971764473,4040.0
8.1838648713,-116.954005,-74.319496972,-62.664664298,4050.0
7.2213073369,-85.622569742,-74.861126449,-42.12984697,4060.0
8.6171374174,-52.753929291,-72.521265612,-33.026015218,4070.0
14.246458652,-9.8669317147,-63.330658393,-11.190570403,4080.0
20.861933757,158.20974004,-61.456996805,163.15721903,4090.0
10.261298838,-140.35038166,-75.331825681,-100.08455959,4100.0
7.596183574,-104.22297338,-78.070850961,-37.455469556,4110.0
7.8107435987,-70.868075306,-74.295613457,-18.129901831,4120.0
11.175602592,-33.943649228,-70.110659976,6.9618556333,4130.0
26.693466189,44.019496691,-54.809010207,61.770272488,4140.0
12.742867729,-153.26611075,-68.459173907,-146.05868611,4150.0
8.092207557,-115.05872742,-74.550676113,-123.552493,4160.0
7.2085249751,-82.11796744,-71.518751744,-97.331952596,4170.0
8.7531071324,-47.611987551,-62.43782879,-66.417107945,4180.0
15.063073873,-3.4436187108,-52.00555178,-17.806538482,4190.0
19.250126486,173.51443683,-48.62892112,158.73889096,4200.0
9.9233848145,-132.07959702,-60.388803425,-145.93050637,4210.0
7.6585927463,-95.787552968,-66.210070727,-111.7780582,4220.0
8.2001525455,-61.197008101,-69.113108959,-91.038492517,4230.0
12.309820506,-20.032067128,-66.452833621,-69.4052468,4240.0
24.152991696,114.75521717,-55.314548804,44.406333506,4250.0
10.996732017,-148.68513182,-69.362688366,128.88363352,4260.0
7.4163322626,-109.46641524,-74.793059508,166.54160701,4270.0
6.8632574872,-74.938041776,-72.32703876,-120.40219681,4280.0
8.7072859751,-37.593881568,-61.082151637,-65.08923646,4290.0
15.613295892,19.54545855,-51.002272369,12.51435513,4300.0
15.142358126,173.18582701,-54.917911224,160.40303508,4310.0
8.4955135743,-130.67220847,-65.149594964,-157.24378688,4320.0
6.5931754055,-93.084036693,-70.798061173,-128.25018797,4330.0
7.0102430847,-57.450988987,-73.908335063,-108.64043117,4340.0
10.125901315,-14.121121144,-75.045740674,-77.121471616,4350.0
17.995505388,80.951986153,-67.73741924,22.491174726,4360.0
11.074992313,-163.93604344,-74.537186081,159.78724811,4370.0
7.1348252692,-117.10042522,-73.585036122,-140.20801584,4380.0
6.206515713,-80.994517968,-70.133499103,-90.678201671,4390.0
7.3284076777,-44.858347018,-65.954745978,-44.337566054,4400.0
11.772565737,2.7799405334,-63.830144277,25.148984263,4410.0
18.427619297,126.99010901,-60.46476741,150.49383257,4420.0
10.197560942,-145.92381595,-70.552263342,-127.97670379,4430.0
7.2633901072,-104.5044161,-73.61340426,-74.855473547,4440.0
6.9850232818,-69.574955355,-73.621236681,-45.317836178,4450.0
9.0754596865,-32.87260728,-72.343537289,-9.7119074729,4460.0
16.325186942,21.934912743,-66.042429701,37.665879237,4470.0
16.526986329,-179.35156196,-70.036850068,-127.56887123,4480.0
9.4934986972,-125.54359138,-67.319569004,-7.9676216698,4490.0
7.6447050399,-89.760169672,-63.30929785,19.542176077,4500.0
8.3773316098,-56.814619931,-59.562300287,39.386988339,4510.0
12.338987694,-21.882303984,-54.901739622,72.279199132,4520.0
33.715925352,48.346970161,-35.049348163,140.30608903,4530.0
13.796403841,-136.95121089,-56.141862582,-52.915136006,4540.0
9.4440197687,-102.62840791,-62.01304046,-15.408906586,4550.0
8.8320070879,-71.689987718,-64.710768963,28.335334869,4560.0
11.098421719,-40.433326087,-63.775977485,51.510040525,4570.0
19.793795883,-10.689038483,-55.923039556,69.074071229,4580.0
18.597993801,-144.58740582,-57.896268408,-71.629437038,4590.0
10.838540683,-114.92510662,-64.94857223,-24.589546762,4600.0
8.9147419369,-85.219890693,-64.092094529,12.183300751,4610.0
9.5538113543,-56.320082493,-60.306740828,41.168144457,4620.0
13.481777371,-27.712739931,-57.360681954,80.270902905,4630.0
31.213094067,-40.67509151,-43.557411568,61.453615733,4640.0
14.810539411,-128.71323969,-62.333943378,-45.953339404,4650.0
10.179287946,-100.90149501,-69.139944031,-36.333491785,4660.0
9.327021228,-72.570979837,-72.908274186,-20.621671289,4670.0
10.998835142,-44.38972413,-77.730181554,-3.7148962154,4680.0
17.41631007,-19.823970681,-78.595046992,-81.109892585,4690.0
23.191518804,-130.73036651,-59.116333737,81.47471918,4700.0
12.802680412,-117.58309256,-60.298046881,80.240096803,4710.0
9.9734314715,-91.011056388,-60.305360156,121.33982917,4720.0
9.9289984264,-65.186633076,-63.821294564,147.52375345,4730.0
12.449944631,-41.024642539,-65.077788743,178.82960308,4740.0
20.012570693,-34.273242653,-61.818796963,172.20163434,4750.0
18.968467733,-113.11808498,-66.115679219,76.721194259,4760.0
12.754731927,-102.00418359,-70.459554087,64.607600006,4770.0
11.114413981,-78.910829507,-68.188912961,50.757176027,4780.0
12.321931135,-57.451696423,-63.321606356,51.614301353,4790.0
16.654224169,-49.316480154,-56.303391855,59.016461377,4800.0
19.107434086,-90.192105102,-46.206806086,44.51479258,4810.0
13.950744378,-97.767618901,-47.275044709,110.8694827,4820.0
11.936033063,-80.198825535,-56.585454257,132.79254425,4830.0
12.755950817,-60.06147609,-58.418652533,141.55908002,4840.0
17.048237315,-52.494256363,-56.498277268,133.74236493,4850.0
18.181776314,-98.265216247,-57.27282303,74.291269251,4860.0
12.461207997,-98.245736411,-65.913312142,45.852058512,4870.0
10.289607477,-73.047747605,-67.76929156,14.297170838,4880.0
11.155140784,-40.77610479,-57.65570032,-9.4881143441,4890.0
17.106953563,8.4668335732,-40.191957936,55.942625362,4900.0
17.164632634,164.26095257,-40.230347151,-118.64156474,4910.0
8.7304792567,-137.77799283,-49.804553892,-72.072996589,4920.0
5.7679989655,-98.221339951,-58.43326693,-45.042962475,4930.0
5.0542633542,-60.005870299,-68.970475584,-37.090605227,4940.0
6.0304720135,-12.912777872,-66.739864444,-46.413006271,4950.0
8.5490018816,66.827430546,-59.815817254,16.106575123,4960.0
5.8104112636,173.63843333,-57.49793203,106.26324382,4970.0
2.1543604933,-117.46757973,-59.418332517,154.58111366,4980.0
-0.26236656894,-63.114184298,-59.502647328,-170.80440747,4990.0
-4.9523363929,2.1924534083,-56.46334111,-109.00856773,5000.0
-14.716897145,178.9268056,-51.299349304,-26.709152231,5010.0
-5.8141660127,-81.770341493,-49.583795046,74.027909584,5020.0
-3.9676554263,-17.93679942,-48.791269899,156.48896289,5030.0
-3.1585761692,66.119860727,-52.201782265,-125.14095235,5040.0
-1.6288657408,160.58406028,-57.50526119,-82.76762863,5050.0
-0.82994472061,-134.68237988,-60.527070006,-54.515625183,5060.0
-0.22638278183,-91.438178096,-60.879548198,-22.361255789,5070.0
0.86441865517,-52.792334078,-59.353495651,17.575332997,5080.0
3.068988316,-6.539747419,-57.372234909,57.31712672,5090.0
7.4745295717,63.130424195,-52.734069981,101.29025909,5100.0
9.2875273291,167.31425344,-49.442000087,156.93713493,5110.0
6.81084938,-122.97148703,-45.854852916,168.37263859,5120.0
6.0927956192,-78.502194807,-50.023977586,46.533222036,5130.0
7.4490017966,-37.980632759,-55.804771768,55.675757179,5140.0
12.230728695,11.744436804,-53.710607768,85.552185757,5150.0
18.735938685,137.41953936,-48.176918804,-166.18375085,5160.0
10.869916551,-139.62492566,-55.85105852,-108.63884173,5170.0
8.1291655493,-99.77327535,-58.229289654,-88.817658467,5180.0
8.111364915,-67.799429997,-56.947171978,-66.073926739,5190.0
10.600008958,-38.284071547,-53.274558174,-36.448184985,5200.0
18.372925538,-17.755761785,-44.795205219,-20.273391508,5210.0
20.00104235,-115.4897323,-40.030711832,-121.11764936,5220.0
12.379622332,-100.09258779,-47.226061181,-61.139185208,5230.0
10.848341071,-74.083937745,-55.225678909,-44.176684327,5240.0
12.439327362,-49.344439329,-54.372218334,-38.67214775,5250.0
18.552914758,-36.633795332,-46.132828966,-32.525407599,5260.0
