S11m,S11p,S21m,S21p,Frequency
5.3477439393,-57.512038592,-51.214589358,92.670831176,2000.0
5.6352661754,-34.53933001,-51.89952047,79.309216659,2010.0
5.7989681612,-10.027986209,-51.670563041,70.595493699,2020.0
5.7911523693,15.534795319,-51.71624111,60.534275857,2030.0
5.6199428853,41.515070183,-51.540042822,49.596937482,2040.0
5.3144724485,67.179531422,-50.463145396,33.740273058,2050.0
4.9649974334,92.1137179,-47.475553168,7.8979940871,2060.0
4.6568742561,115.80072046,-44.938407313,-58.113123018,2070.0
4.4797824533,138.1819098,-55.789868805,-123.00653776,2080.0
4.4863636384,159.70667526,-63.437555409,-43.012472208,2090.0
4.6611719703,-178.67728255,-57.168700713,-49.285865784,2100.0
4.8911954029,-156.24414843,-56.816606173,-64.783869962,2110.0
5.0602471419,-132.89167601,-56.530218713,-63.86780064,2120.0
5.129247062,-108.93435064,-54.871611836,-73.957279344,2130.0
5.0897792583,-84.605500784,-55.160526073,-95.92142499,2140.0
4.9545069998,-60.117426149,-62.436419603,-39.25745652,2150.0
4.777694714,-35.828286092,-48.104689562,-128.71854464,2160.0
4.6108010729,-11.966139636,-51.914480124,-150.84477268,2170.0
4.4998546748,11.425190228,-53.838081906,-162.1808597,2180.0
4.4704401006,34.2877028,-54.892158629,-167.89037085,2190.0
4.5630997035,56.986756598,-56.296006947,-175.39205895,2200.0
4.7037974568,80.213698286,-59.466942296,-178.44762836,2210.0
4.7962918705,103.85211097,-62.141217643,-149.92894182,2220.0
4.8457541667,127.71493719,-57.337761117,-120.95211175,2230.0
4.8328053066,151.83336882,-48.769476414,-112.93034664,2240.0
4.7609745483,175.85452798,-39.359206292,42.793417027,2250.0
4.6506038103,-160.472217,-51.295754878,51.180224274,2260.0
4.5523308825,-137.22403891,-54.824519686,46.106192264,2270.0
4.4850626974,-114.39254894,-56.232250521,38.445519594,2280.0
4.468362346,-91.878110808,-57.307580518,27.007957089,2290.0
4.525662758,-69.369139941,-58.222291146,19.307950051,2300.0
4.6267338023,-46.450241961,-59.310620696,18.874344426,2310.0
4.7181966569,-22.969132252,-58.79156625,34.3814068,2320.0
4.7617864683,0.80284371246,-54.180654238,51.812378911,2330.0
4.7674493005,24.774620268,-42.720526472,84.120005566,2340.0
4.7192499353,48.846811502,-48.280137501,-148.3359685,2350.0
4.6419311685,72.470623267,-55.570118307,-136.5417178,2360.0
4.5962008594,95.766180996,-58.812278537,-132.41741144,2370.0
4.5963041638,118.84320831,-60.570745099,-131.83025703,2380.0
4.6485579225,141.8255285,-61.28941133,-133.15059984,2390.0
4.7394578706,164.84413189,-61.49093045,-141.61309062,2400.0
4.8625002146,-171.92590219,-61.692543999,-154.3250234,2410.0
4.9695589368,-148.35146157,-62.726785452,-159.65539822,2420.0
5.0334857103,-124.57565839,-61.110257288,-138.42987254,2430.0
5.0668022593,-100.68880198,-48.232893057,-114.49028957,2440.0
5.0662796329,-76.611164167,-50.644197814,57.20805821,2450.0
5.0034901853,-52.534301409,-57.360094408,50.244601916,2460.0
4.9168849275,-28.962508167,-61.22759753,38.435680568,2470.0
4.8709766711,-5.8697524645,-65.156806163,30.293748088,2480.0
4.8884696917,17.069798994,-67.893316939,28.1159759,2490.0
4.9489954696,39.85512802,-68.23417933,26.125670327,2500.0
5.0772414111,62.77412304,-67.120119186,23.2041861,2510.0
5.2207870714,86.087974538,-64.64814149,21.071564491,2520.0
5.3355803356,109.76086705,-59.844400637,19.9826655,2530.0
5.4165595943,133.50541872,-50.356206755,17.114639617,2540.0
5.4850884957,157.40774363,-46.920545128,-164.08311864,2550.0
5.5204900292,-178.62631098,-57.403438491,-166.48602589,2560.0
5.5374506844,-154.89057338,-61.981300322,-166.84920529,2570.0
5.5854882898,-131.42759513,-64.392061784,-168.89049357,2580.0
5.6877388767,-107.99285663,-65.955108263,-172.45905444,2590.0
5.8373187295,-84.416989553,-66.241273047,-173.64612044,2600.0
6.0169293254,-60.635094711,-64.180813904,-176.44824411,2610.0
6.186510543,-36.536976941,-60.174995047,178.30917083,2620.0
6.3245271905,-12.114174532,-55.72001407,168.75609898,2630.0
6.4053794003,12.198812587,-49.111293658,157.79738088,2640.0
6.4531182837,36.500896022,-41.933346704,34.642958364,2650.0
6.4574043052,60.608335318,-53.290447884,17.93483981,2660.0
6.4375030554,84.169928196,-57.713325748,13.170545623,2670.0
6.485303341,107.0523625,-61.459771215,6.360753994,2680.0
6.6175370584,129.55804704,-64.677152851,-0.08573315201,2690.0
6.8627750713,152.02477572,-66.242635964,-11.327439127,2700.0
7.2318642857,174.73962557,-67.361749644,-17.577208735,2710.0
7.6909513675,-161.73324734,-66.629656348,-13.243110922,2720.0
8.1631553855,-137.27952891,-63.388252516,-3.9648748734,2730.0
8.5752645933,-112.2169552,-56.996138576,4.9789655073,2740.0
8.8967052207,-86.713121709,-49.238915857,-41.210992337,2750.0
9.1067019463,-61.088585067,-53.104660035,-74.686559668,2760.0
9.2095751135,-36.280813615,-55.345513453,-74.374555554,2770.0
9.3730431455,-12.774539794,-57.068693728,-76.069432114,2780.0
9.6760198428,10.208199912,-59.825773936,-76.255211088,2790.0
10.090104462,33.103701092,-60.327044159,-77.846465558,2800.0
10.629529689,55.980519701,-59.795393971,-121.5622077,2810.0
11.336275409,79.535372824,-56.639111937,-178.98432161,2820.0
12.151414054,103.72839396,-50.668236734,138.20571687,2830.0
13.004046662,128.4653475,-45.994718458,107.37702942,2840.0
13.827180667,153.66493702,-42.740416299,80.523390954,2850.0
14.546940183,179.00606854,-42.00328193,56.373616434,2860.0
15.130549986,-157.41987172,-42.440700991,41.085907731,2870.0
15.845640603,-136.95108128,-42.523536536,22.229999152,2880.0
16.972203106,-119.05786804,-42.793509309,-3.1904761762,2890.0
18.533766305,-103.09541702,-43.033785374,-28.176036803,2900.0
20.539862769,-89.594410955,-41.617482374,-52.957613213,2910.0
23.135626611,-80.449162783,-39.328701636,-80.760086535,2920.0
26.071984336,-77.638159229,-36.503302443,-104.66113992,2930.0
28.711411074,-84.164056093,-32.727542514,-137.11752219,2940.0
29.391552665,-92.960849524,-29.76235299,-170.86385191,2950.0
29.109517711,-90.263988059,-26.447740538,163.43785292,2960.0
28.740269701,-67.015246879,-23.506027165,150.00305514,2970.0
26.24202997,-26.850180449,-23.374964073,139.33193527,2980.0
22.14509877,5.3242144864,-28.230030008,102.62118468,2990.0
18.568013754,31.802373845,-37.067645304,77.009349034,3000.0
16.460955245,51.136834716,-44.683401774,65.498464192,3010.0
14.644278381,71.175457132,-49.445962263,62.721187703,3020.0
13.352026656,90.457174976,-51.707361344,54.692472599,3030.0
12.420629097,109.79244177,-52.810323195,48.258706367,3040.0
11.747354025,129.50298746,-53.549277858,44.490796446,3050.0
11.369936157,149.7808063,-53.636074127,42.936548113,3060.0
11.205265378,171.39768509,-52.9633295,45.367941479,3070.0
11.117952434,-164.95173656,-48.854901699,44.896412702,3080.0
10.925258792,-139.92338218,-44.525719412,-12.293684581,3090.0
10.626746037,-114.43119972,-49.630535332,-64.069374898,3100.0
10.26027441,-89.370765111,-54.106237797,-85.998676048,3110.0
9.7976172267,-64.712429509,-56.743701074,-99.621304088,3120.0
9.3692580902,-41.113231689,-58.06202994,-114.13728755,3130.0
9.0270324932,-17.739673213,-59.041374622,-121.02242286,3140.0
8.7969082007,5.8530099313,-59.026606919,-128.62095768,3150.0
8.68652627,30.056751852,-58.524126445,-130.60969634,3160.0
8.6188238125,55.41864465,-57.803644337,-122.22186845,3170.0
8.4109293358,81.652265801,-55.3787305,-116.40118586,3180.0
8.0267082268,107.5568097,-49.638558699,-133.27623649,3190.0
7.6016452955,132.29507205,-55.006820098,157.4412243,3200.0
7.2122048808,155.84787969,-60.069229402,155.52827542,3210.0
6.8687595515,178.4807796,-61.635999236,153.58089804,3220.0
6.5625510159,-159.91305937,-62.116464312,151.5049397,3230.0
6.3598817878,-139.06067766,-61.672671624,150.01709369,3240.0
6.2752971852,-118.10176152,-60.253692718,150.52585597,3250.0
6.2839511679,-96.409148389,-58.493257459,149.0681084,3260.0
6.4574714851,-73.724063823,-57.022249322,147.38973117,3270.0
6.6558723272,-49.292489096,-53.722252082,144.94132787,3280.0
6.7788035658,-23.333624078,-47.877634298,134.01570174,3290.0
6.7537978799,3.1835745616,-44.529372972,8.5945500241,3300.0
6.6222537287,29.429104129,-59.254047939,9.0132587003,3310.0
6.3926297696,54.909902958,-63.337010647,31.26231238,3320.0
6.087678886,79.188780101,-64.677890997,37.532285296,3330.0
5.7642571629,102.02060056,-65.563259843,42.242994379,3340.0
5.4923759479,123.68777827,-65.392601194,44.691127012,3350.0
5.3368075665,144.96678672,-64.907735945,46.569111515,3360.0
5.2960424314,166.65851186,-65.396438541,50.593889357,3370.0
5.3933822605,-170.65075058,-65.220491279,58.605281589,3380.0
5.5010277086,-146.88015559,-62.582311036,65.223542494,3390.0
5.5063149645,-123.17776143,-51.578647511,30.561203297,3400.0
5.5386150165,-99.552291493,-68.888858519,-125.42240665,3410.0
5.5268955687,-76.134291897,-81.17483392,148.10194815,3420.0
5.5197107228,-52.831837368,-79.373705985,102.14166966,3430.0
5.4699407876,-29.715068274,-79.03244238,106.8766239,3440.0
5.3846055233,-6.7786584828,-79.406507017,102.526101,3450.0
5.2985624648,15.83967213,-82.484676967,103.36863825,3460.0
5.3185222085,38.77347991,-88.54967208,150.65019432,3470.0
5.4817870766,62.895746472,-86.361708913,-64.931064988,3480.0
5.6357204065,88.331305459,-71.798308268,-33.071600634,3490.0
5.6504562296,114.18800003,-59.393902305,-36.389415823,3500.0
5.5561348782,139.36547223,-54.373549277,119.87068733,3510.0
5.3674519193,163.49248727,-65.494691409,110.30612483,3520.0
5.1015619025,-173.77805057,-69.992709826,96.618505828,3530.0
4.8145347424,-152.59421322,-71.21296967,89.697301054,3540.0
4.6114150653,-132.42578189,-70.689489295,85.536207517,3550.0
4.5169010704,-112.52515656,-69.573822742,93.750748577,3560.0
4.5954732586,-92.254834744,-67.432701193,106.0062707,3570.0
4.8581043735,-70.791572459,-64.498372841,115.60352601,3580.0
5.2383402974,-47.181617013,-60.146381831,124.88313471,3590.0
5.5797775988,-21.917250831,-52.976142065,134.74719848,3600.0
5.8214356152,4.1672034604,-47.659029155,-56.0708487,3610.0
5.9563615412,30.519649994,-63.095954187,-23.524667454,3620.0
5.9027544084,56.560798632,-65.47277711,14.069830341,3630.0
5.6254338512,81.369274493,-64.869469068,22.921778327,3640.0
5.2433394677,104.22067776,-63.578460054,23.391207269,3650.0
4.9567496799,125.56964315,-61.488209398,22.775801646,3660.0
4.8754408274,146.60518783,-58.986898094,25.541175256,3670.0
4.9831265977,168.42143599,-55.345864116,36.937795116,3680.0
5.1595735383,-168.31543756,-49.191409796,51.226432406,3690.0
5.2997452985,-144.23544318,-39.372522596,104.46024805,3700.0
5.4182169651,-119.96618506,-48.043571791,-171.14544758,3710.0
5.4916778862,-95.795233837,-57.006745872,-167.92491279,3720.0
5.4897295382,-72.101096089,-65.3197099,-137.65171229,3730.0
5.4123681131,-49.109995526,-64.249965829,-107.27645874,3740.0
5.2315663637,-27.311258524,-63.023909712,-106.27198481,3750.0
5.1011000475,-6.6395445922,-60.284782485,-114.49702234,3760.0
5.1617963407,13.898444491,-56.420246357,-162.47177046,3770.0
5.4135651693,35.605391921,-60.260328535,128.32696582,3780.0
5.7638475701,59.256661466,-63.934323893,103.11758637,3790.0
6.0982816164,84.826741868,-65.569874617,98.408891976,3800.0
6.3364715395,111.6554114,-64.196907807,99.875226769,3810.0
6.4515372459,138.86742898,-61.933369029,95.494028731,3820.0
6.3852330743,165.57104361,-61.506738297,78.124656416,3830.0
6.1455662668,-169.43057717,-64.774233897,93.419980218,3840.0
5.8368643011,-146.49691891,-59.196220429,99.710323017,3850.0
5.4798557517,-125.54426236,-59.770688155,37.771863869,3860.0
5.2859849616,-106.07118764,-66.641246121,11.295045332,3870.0
5.3161951778,-86.550872991,-70.395908758,-17.210670549,3880.0
5.534308412,-66.099517144,-72.256578578,-37.920825829,3890.0
5.8713508422,-44.136746768,-73.936234171,-50.705514217,3900.0
6.2805406237,-20.877200864,-73.868245316,-44.813436438,3910.0
6.7739265734,3.7525591463,-71.613531961,-37.706084627,3920.0
7.2848658223,29.658218902,-69.542118663,-30.391069928,3930.0
7.6587183842,56.159627214,-63.464777896,-28.423711572,3940.0
7.7907447014,82.405625166,-60.979440212,-60.867148218,3950.0
7.6645991445,107.70281135,-64.850539335,-95.117457459,3960.0
7.3679907764,131.25651781,-70.038306187,-104.77563805,3970.0
7.1107561312,153.41505682,-74.063838861,-106.21832921,3980.0
6.9948093179,175.51358261,-75.83125108,-103.67532122,3990.0
7.0392293271,-161.99769182,-73.676515548,-115.1132796,4000.0
7.2561801467,-138.94101422,-71.305056256,-124.56425365,4010.0
7.5636443801,-115.01861381,-70.761283873,-131.55410746,4020.0
7.9022928206,-90.842184828,-68.362031449,-112.24326151,4030.0
8.2476602839,-67.160637748,-61.014610698,-105.76811536,4040.0
8.5750868838,-44.14427318,-55.13380496,-151.01316937,4050.0
8.796887003,-21.452449332,-58.151399021,161.30529477,4060.0
8.7992441109,0.39760664726,-65.284800314,157.61049847,4070.0
8.7646670188,21.130666741,-70.415834888,174.41834636,4080.0
8.9107068174,41.625302682,-73.678797345,-162.15985698,4090.0
9.3186822792,63.0195797,-73.829057456,-146.18265305,4100.0
10.009101963,85.403670119,-74.104572732,-162.16468023,4110.0
10.9974266,108.91094136,-75.057750463,173.8234863,4120.0
12.307094521,133.69449611,-76.323677412,129.96212661,4130.0
13.771992947,159.94659327,-77.592151241,-156.10250561,4140.0
15.188249261,-172.2997047,-55.249224494,173.85532223,4150.0
15.996922542,-143.02614036,-52.191844997,88.360520349,4160.0
15.728101158,-113.34014339,-58.095875083,51.826506294,4170.0
14.425806319,-89.419877244,-67.544314637,71.93956085,4180.0
13.24549589,-70.917218733,-75.215187923,115.32020281,4190.0
12.557179441,-55.301856173,-72.807348319,-179.3376356,4200.0
12.424198659,-41.255091578,-70.272007035,-168.44367127,4210.0
12.808765226,-28.311215131,-67.517425104,-173.33776745,4220.0
13.527597434,-17.08341697,-65.119349695,-174.63502119,4230.0
14.254241754,-8.152675578,-61.482551918,170.66464387,4240.0
14.688326063,-0.88197418395,-54.882892285,129.48572491,4250.0
14.852966695,6.9628834885,-54.408919437,20.789107668,4260.0
15.198960806,17.17097335,-61.284011254,-54.501161479,4270.0
16.017588443,32.00071838,-61.963522909,-110.04158151,4280.0
17.434376569,53.928377392,-60.374610307,-144.04500176,4290.0
18.436013602,84.210631294,-60.304763303,-161.41656852,4300.0
18.390981842,118.07741617,-63.266976182,-174.87179712,4310.0
17.135489447,147.35368857,-66.629177021,151.5285246,4320.0
15.612713896,170.93606853,-63.458968474,102.57602195,4330.0
14.096422645,-167.56866662,-58.144791303,71.397027843,4340.0
12.670931679,-146.95463514,-52.676423279,39.205405207,4350.0
11.516844313,-126.68953568,-51.976388663,-35.517351984,4360.0
10.655530542,-106.66253839,-58.251856375,-63.649198238,4370.0
10.149838051,-86.664210813,-61.738211785,-70.519360834,4380.0
10.011559358,-65.712328899,-64.851393752,-82.854496715,4390.0
9.9374569288,-42.495605602,-68.527528695,-90.683863507,4400.0
9.6594059132,-19.605306022,-68.374742783,-121.54757678,4410.0
9.326604383,2.5423577068,-65.914598555,-162.90542066,4420.0
9.0335469843,24.267092748,-64.049846123,164.10101501,4430.0
8.8030565808,46.360677829,-63.528849781,132.33819356,4440.0
8.5575955584,68.728467385,-66.353444674,99.655834019,4450.0
8.4065376904,91.402141771,-71.867837835,147.59414056,4460.0
8.3270703239,114.7997747,-63.725373755,149.93926274,4470.0
8.3276039272,138.4560012,-60.741393246,137.96434463,4480.0
8.4554284562,162.89987041,-59.552858958,134.3571149,4490.0
8.596234603,-171.01812269,-57.997019864,130.72858999,4500.0
8.5091617703,-144.25221437,-57.38407556,117.16628017,4510.0
8.1949859143,-118.16874,-56.831395063,96.211743376,4520.0
7.7664754329,-93.000406241,-58.210602055,60.965444518,4530.0
7.2829330332,-68.926774082,-62.556991341,35.099484804,4540.0
6.8031818378,-46.029609901,-66.920567847,22.01970477,4550.0
6.4090734859,-24.212477167,-73.234312252,30.144542224,4560.0
6.1339904622,-3.0047570666,-72.421693025,74.811716942,4570.0
5.9953729633,17.727074172,-66.932627093,85.056296142,4580.0
5.9846244887,38.509138504,-62.48102871,80.109137241,4590.0
6.1061172101,59.701486546,-57.788549532,73.170875778,4600.0
6.3403028785,81.787008593,-50.401850631,41.421031935,4610.0
6.5599592578,105.1998884,-52.325879836,-46.294064318,4620.0
6.7287586758,129.34336819,-58.210017849,-71.070223781,4630.0
6.8629106315,154.51682604,-62.057574984,-76.077736215,4640.0
6.8732606286,-179.67991351,-64.554470391,-74.899304907,4650.0
6.7624224503,-153.88324951,-66.322928181,-63.028012031,4660.0
6.5685029688,-128.43793392,-68.081871271,-49.273659689,4670.0
6.3271715042,-103.73285413,-67.401089113,-35.127501266,4680.0
6.0744648687,-79.831129889,-65.124236724,-24.995624546,4690.0
5.8610127664,-56.706211916,-61.211533643,-18.984005722,4700.0
5.7169356202,-34.160898401,-50.550148791,-29.55834412,4710.0
5.6093220973,-11.919115889,-58.685025374,177.99443309,4720.0
5.5229565322,10.053459673,-68.576068478,174.00760398,4730.0
5.4688656864,32.061587432,-73.228582375,169.85186311,4740.0
5.4093467803,53.664710104,-75.556615333,157.2833379,4750.0
5.4170958573,75.400812686,-78.015748282,142.68946009,4760.0
5.4534942668,97.282735883,-78.783213285,136.02042796,4770.0
5.5267072624,119.49116485,-81.20536311,131.58611671,4780.0
5.6491173046,142.19697477,-91.453727347,140.73933282,4790.0
5.8299228749,165.43819754,-81.737987236,-54.210885577,4800.0
6.0312124865,-170.48037519,-63.920389827,-37.863945308,4810.0
6.1874446195,-145.50735003,-62.614787306,120.62828199,4820.0
6.2614847206,-120.02037554,-70.178552638,121.17151292,4830.0
6.2159523022,-94.358464148,-74.179922244,113.18593448,4840.0
6.0438776074,-68.965557383,-76.802483629,95.307136677,4850.0
5.798980452,-44.483379103,-79.043003928,70.534568723,4860.0
5.5113157012,-21.098569104,-78.701668648,58.512068693,4870.0
5.2152124245,1.2364184264,-75.760925503,58.545335853,4880.0
5.0051016409,22.394088906,-71.995423801,59.268147365,4890.0
4.9832298945,43.006771104,-69.524192268,62.448750098,4900.0
5.1414487659,64.136016735,-63.95787633,75.218075092,4910.0
5.3101412664,86.03305979,-60.570919314,-123.95515363,4920.0
5.5152458446,108.38581608,-73.038592241,-83.978087194,4930.0
5.6803820748,131.34474753,-76.508989998,-69.146360193,4940.0
5.8188267372,155.07311818,-78.017310942,-60.590261851,4950.0
5.8781198447,179.50022553,-76.077653828,-56.619942642,4960.0
5.7990147669,-155.62839171,-73.614798735,-59.990130327,4970.0
5.6208889811,-131.30573916,-71.04946868,-53.710871041,4980.0
5.4842589958,-108.02841497,-67.441244306,-45.441316903,4990.0
5.5024904141,-84.902226664,-64.093218603,-39.611162912,5000.0
5.6256529059,-61.134217193,-58.081700836,-25.879145253,5010.0
5.7402321387,-36.905104444,-43.032591162,111.94822913,5020.0
5.7671902607,-12.660241255,-62.583606447,163.1101772,5030.0
5.7108112417,11.385826804,-68.911409892,-166.32930346,5040.0
5.5202122613,34.547950716,-69.540409996,-138.08886121,5050.0
5.3452864589,57.502959052,-68.888679834,-131.16119068,5060.0
5.0459919034,79.586983134,-67.613052421,-129.78582281,5070.0
4.7732379126,100.4273954,-65.707616338,-131.21675691,5080.0
4.7223678143,120.51128198,-64.26041765,-133.06873081,5090.0
4.9776015085,140.88506062,-61.814261206,-137.82309675,5100.0
5.416244913,162.82864193,-57.025917583,-150.58612813,5110.0
5.8760818873,-173.65479453,-46.994184329,156.90584108,5120.0
6.2682294626,-148.96800929,-56.781422101,54.719949418,5130.0
6.5190382247,-123.31438932,-65.897126991,55.540331973,5140.0
6.496628161,-96.93118144,-68.517983875,101.61725061,5150.0
6.1137697212,-70.803378068,-65.122093021,131.13321028,5160.0
5.42078138,-46.559351123,-62.837449979,142.98060227,5170.0
4.7847884096,-25.582598588,-62.232554534,152.97927068,5180.0
4.6379591969,-5.8513383399,-61.144123873,168.95516413,5190.0
4.8973233561,15.902467689,-59.105005099,168.02694135,5200.0
5.3930149459,38.983495382,-57.939401572,151.75203867,5210.0
5.8373596929,63.083438929,-56.68856331,127.39583173,5220.0
6.2501282888,87.291311702,-55.592089971,92.791158015,5230.0
6.5438051922,111.88622842,-58.4029691,57.734582491,5240.0
6.5793400693,136.97853171,-60.47223891,55.582041859,5250.0
6.2159834969,162.07551378,-58.481145691,53.629440659,5260.0
5.3431928386,-175.01991636,-56.971579404,50.709741928,5270.0
4.5173990928,-156.97377466,-58.265663402,47.868248747,5280.0
