S11m,S11p,S21m,S21p,Frequency
9.3126510216,162.32391576,-50.765294474,126.95669637,2000.0
8.2786940747,-168.57255967,-52.626133639,127.46991237,2010.0
9.6464773097,-138.88047187,-51.52286446,126.62819551,2020.0
15.589860818,-107.20345365,-45.163356167,125.82206923,2030.0
23.464939574,117.76828738,-38.052784334,-49.077306068,2040.0
11.459887161,146.82582406,-53.024874298,-62.759721999,2050.0
8.6384712376,177.89520028,-60.720117303,-78.928086747,2060.0
8.661266462,-152.20092077,-64.078430283,-115.66926193,2070.0
11.674111889,-121.60829662,-56.486025508,-146.92147817,2080.0
24.260430419,-92.647676632,-40.020621793,-156.11420749,2090.0
15.925722177,128.94397065,-46.443791149,30.244228414,2100.0
9.9214183519,159.56141334,-51.805956725,22.394465708,2110.0
8.3102824435,-171.66660454,-53.110570327,14.039347175,2120.0
9.1824571355,-143.39629091,-52.099370433,9.182453071,2130.0
13.765155836,-116.28795427,-47.714903119,8.6907486749,2140.0
26.531338998,170.99708158,-34.285660187,-92.813434211,2150.0
12.648813904,154.01864014,-47.98768901,-144.05447102,2160.0
9.1558019267,-178.69557633,-52.91825838,-152.89410627,2170.0
8.9191194887,-150.8498896,-56.572393247,-172.12048043,2180.0
11.65420304,-122.31604543,-55.855145711,147.44137017,2190.0
22.773104777,-102.95186752,-42.608805041,107.02176439,2200.0
16.013284484,138.42005922,-45.857321814,-48.372844458,2210.0
9.7329628848,165.76907268,-49.155194913,-51.011885658,2220.0
8.0682745428,-165.54879385,-49.333117593,-56.17259622,2230.0
8.9455624054,-136.00181331,-48.228415605,-67.299728192,2240.0
13.849615886,-103.74879238,-43.68545668,-71.027117839,2250.0
27.422165921,123.3840866,-30.338230857,128.1830754,2260.0
11.204354653,150.76873419,-48.097425239,133.64756262,2270.0
7.7053314608,-178.01538201,-53.692463683,147.87269083,2280.0
7.1444874606,-147.84676644,-55.951664788,160.72768332,2290.0
8.834622697,-114.45913819,-56.295132082,177.84825681,2300.0
15.417164396,-67.876096686,-53.663057694,-144.5324184,2310.0
17.590379094,100.77740603,-63.789359723,21.041078797,2320.0
9.2020326684,154.00083201,-66.732931061,-136.20641501,2330.0
6.8506728485,-171.1034627,-62.436301913,-122.13925546,2340.0
6.9036167188,-138.56956573,-59.389714689,-113.43683139,2350.0
9.5656233617,-101.58997761,-54.578665401,-97.964679367,2360.0
19.772887635,-33.901602091,-41.751885496,-62.951669856,2370.0
13.005379914,124.94460501,-46.83235095,53.4674301,2380.0
7.6871926901,168.037231,-51.31171959,60.96445754,2390.0
6.2316504615,-158.56814533,-52.864018147,72.627415992,2400.0
6.8180743624,-125.87647844,-53.88889731,93.404436507,2410.0
10.41964796,-86.070627295,-53.296335736,115.75529413,2420.0
22.150594202,19.662487438,-46.779705713,-168.32969986,2430.0
11.164779994,140.63772637,-67.460088255,-110.74825385,2440.0
7.3028861955,-178.56233675,-67.889769638,-167.02006842,2450.0
6.5976824505,-144.89345563,-63.709992801,-174.72614037,2460.0
8.2722096127,-109.71201469,-59.617187917,-178.45282897,2470.0
15.393874447,-59.121610585,-50.23379176,-166.76051721,2480.0
15.858895959,112.21600634,-48.34525289,-24.294898805,2490.0
8.3974431114,164.40942492,-55.091827781,11.84482689,2500.0
6.32874218,-160.43981043,-57.519823348,31.758951516,2510.0
6.5854988287,-127.46495919,-57.168261482,40.303031977,2520.0
9.7676259689,-88.392091165,-54.406501896,53.116303351,2530.0
21.571845064,4.5507709241,-45.255690273,117.76249008,2540.0
11.221389387,141.95530937,-62.522807535,-137.20649325,2550.0
6.914305649,-175.9325661,-81.72785274,136.21306747,2560.0
5.9210632685,-141.99574396,-71.486654793,102.46612795,2570.0
7.1242238898,-106.06051811,-66.182580469,148.33570136,2580.0
12.275534649,-53.187017937,-58.65126447,-166.44490919,2590.0
15.577888369,88.977660806,-54.133746943,-55.085788491,2600.0
8.1112296548,158.67320686,-62.241823223,-23.649638491,2610.0
5.7452913725,-162.80966172,-64.964416074,-12.524907065,2620.0
5.6360971588,-129.0324305,-62.983671471,2.6764380915,2630.0
7.7724210035,-90.154200018,-58.229294295,29.545520231,2640.0
15.073851576,-21.896720335,-49.355659391,75.992715716,2650.0
12.400239946,122.57166797,-51.512148812,-164.07396455,2660.0
6.9498531524,175.39999765,-57.520634409,-125.64805904,2670.0
5.4335989277,-148.64620703,-62.282504482,-101.60142878,2680.0
5.9730544862,-113.87398721,-67.70704688,-76.559564359,2690.0
9.2822726071,-69.253288712,-68.395544925,2.8331559193,2700.0
17.487362271,37.683253864,-56.583999504,120.74747095,2710.0
9.5507975219,148.00664798,-60.73868435,-124.36979367,2720.0
6.1125922395,-168.19171922,-63.234725268,-84.972617922,2730.0
5.5067468304,-133.41828244,-63.362332702,-61.423272868,2740.0
7.0019053581,-96.133633627,-60.075271642,-41.900635259,2750.0
12.763703754,-39.09413454,-50.017004429,-3.1061273357,2760.0
13.753829831,110.10039652,-45.585834265,121.95982537,2770.0
6.9873253349,172.54811998,-51.719850433,154.04863994,2780.0
5.0558800212,-149.13913967,-53.831026686,160.2495599,2790.0
5.191261706,-113.32437172,-53.424777038,169.02045324,2800.0
7.6648898032,-68.297497466,-50.420202867,-166.96685964,2810.0
14.137832027,26.289025961,-45.080789811,-95.100388556,2820.0
8.6965496563,142.42467207,-55.463136919,-16.780786359,2830.0
5.1996915191,-167.72521596,-67.791976405,-46.044171748,2840.0
4.3232186099,-129.99368043,-63.765906253,-106.62184574,2850.0
4.9812865022,-88.901178517,-56.704675764,-88.370943184,2860.0
7.6464456283,-22.813483012,-49.728065647,-45.108178197,2870.0
7.2208029282,90.867369748,-47.003594264,25.188549689,2880.0
3.4706667335,164.81553078,-48.965185686,58.885830658,2890.0
2.0460573364,-150.69118118,-48.523222963,79.172443886,2900.0
1.5802400044,-112.2532321,-47.430088571,104.18087373,2910.0
1.6445519964,-64.175975595,-46.42259745,130.74487372,2920.0
1.9063409324,16.942426927,-45.464449648,168.92844545,2930.0
0.84979015868,118.42447324,-48.068951547,-138.18835488,2940.0
-0.25682531636,-175.61679164,-52.62583491,-103.26219525,2950.0
-1.4761083949,-130.75185139,-56.980454905,-89.17797363,2960.0
-4.6720370073,-87.418980651,-57.602047158,-80.685546996,2970.0
-19.889941617,-53.534558066,-55.478338308,-69.552428657,2980.0
-10.45433033,-154.44512341,-53.083765597,-55.507688439,2990.0
-8.3007332983,-112.99244647,-49.828106334,-42.63113351,3000.0
-12.83103143,-57.529502938,-46.874327325,-24.787843281,3010.0
-13.491065493,103.7031819,-44.772256427,-2.0932860832,3020.0
-5.189704033,168.91149729,-43.735944884,27.948602742,3030.0
-2.3835781379,-149.92905227,-42.768868207,71.014387345,3040.0
-1.1824593839,-112.02875792,-44.324847923,127.1743682,3050.0
-0.22665336027,-64.68223948,-47.310080899,165.93717908,3060.0
1.926476431,12.719451313,-49.095265543,-151.08171646,3070.0
3.5956040034,116.1323229,-54.320237338,-79.350769673,3080.0
2.8412684692,-175.37866441,-64.069494987,4.8384339523,3090.0
2.5292596188,-131.59454773,-60.420636202,84.753275963,3100.0
3.0222638881,-90.747280993,-53.996499985,100.03914883,3110.0
5.1287119539,-35.549226301,-47.063474361,117.07054913,3120.0
8.2812296686,62.648517277,-40.716927925,-175.08502526,3130.0
5.8310140371,155.6207423,-44.989327247,-91.489046715,3140.0
4.1927747469,-153.83137912,-51.515093784,-48.632225488,3150.0
4.0904345787,-116.14918671,-55.385222615,-27.082691665,3160.0
5.6400208393,-76.974666176,-57.225692727,-11.57391126,3170.0
10.948064576,-18.651265044,-55.629741832,20.564609897,3180.0
13.490416297,120.27319139,-56.424968417,130.7229946,3190.0
7.4024638773,-170.86201344,-66.729640231,175.14680566,3200.0
5.6667016663,-131.4406645,-70.755364948,-131.72797851,3210.0
6.1313118741,-96.545019366,-63.874282927,-80.617983988,3220.0
9.4887744874,-55.753157705,-54.3877996,-51.711047697,3230.0
20.567293086,40.189967772,-40.570612412,20.581356397,3240.0
11.223210601,170.05625813,-49.816194529,123.24318761,3250.0
7.2152735794,-147.93499749,-54.822871309,148.31393917,3260.0
6.506821928,-115.40566884,-57.109410559,172.0199439,3270.0
8.1464588784,-83.351453382,-57.421422601,-172.11322923,3280.0
14.771642242,-45.90163805,-52.354417357,-162.36787269,3290.0
19.725182344,160.37434147,-49.738700623,11.978154792,3300.0
9.6390717741,-158.9381295,-66.197772984,32.882911404,3310.0
7.2650855305,-127.4889628,-71.025287157,147.62705269,3320.0
7.4813861189,-98.371419865,-62.277405941,172.33102416,3330.0
10.519364346,-67.639456356,-54.857636378,-179.32199308,3340.0
23.114701737,-34.189618994,-39.314836738,-167.16789393,3350.0
14.808846173,-176.90832984,-46.357141042,41.726163082,3360.0
9.0395438761,-145.5327173,-53.764899073,68.033111396,3370.0
7.6704271208,-117.33574738,-57.960359834,85.550491009,3380.0
8.7857885426,-90.466819758,-59.644737086,94.956223512,3390.0
13.488211276,-66.086743977,-58.212823783,93.849793625,3400.0
23.711160448,-129.89646496,-53.964048329,-5.3756290251,3410.0
12.40239789,-150.92389275,-74.608838325,-143.80613,3420.0
9.041152502,-127.86372032,-68.271353796,144.23018232,3430.0
8.671184461,-104.09254633,-64.081665695,135.00808209,3440.0
10.710751076,-81.362378911,-58.808597089,137.08767474,3450.0
16.798178059,-72.385246577,-50.720585859,138.628846,3460.0
18.234240355,-139.13431355,-49.471833412,65.811340939,3470.0
11.658998387,-136.7853658,-58.946398029,62.532524492,3480.0
9.7076573734,-116.72234326,-65.234617102,70.805776706,3490.0
10.354941635,-96.27781516,-68.175285249,52.822074783,3500.0
13.493868065,-84.459571758,-67.783399714,5.8917638878,3510.0
17.106469957,-108.92799637,-64.166845247,-106.40364009,3520.0
13.389156615,-129.22480147,-63.301852537,154.03664788,3530.0
10.758731475,-118.33485512,-61.568780107,109.23951726,3540.0
10.40392162,-101.70606391,-59.138502405,95.05697963,3550.0
12.100602407,-87.35886522,-55.547740565,92.008919291,3560.0
15.805738692,-90.63264669,-52.850033328,77.659980113,3570.0
15.371372609,-120.51210207,-55.253390384,34.294019784,3580.0
11.954736815,-120.58635173,-61.012555672,16.590894525,3590.0
10.877694879,-105.68131666,-63.987102641,11.261840111,3600.0
11.888711701,-91.103722946,-64.142137438,-3.2004689738,3610.0
14.799913763,-90.087204836,-61.887895723,-39.378077078,3620.0
15.58652383,-113.2308807,-61.642949352,-113.43772237,3630.0
12.734023144,-119.06791821,-64.213709939,-174.37362065,3640.0
11.202143171,-108.74720189,-66.303626532,143.25391,3650.0
11.464649973,-94.924643773,-65.960316165,99.850976889,3660.0
13.55002483,-87.634638691,-61.344204119,55.529519269,3670.0
15.645923408,-102.78288862,-57.26086145,6.0952229779,3680.0
13.215423528,-116.88998409,-59.239685389,-29.378874229,3690.0
11.166137561,-107.04335553,-61.536489394,-36.017977052,3700.0
11.31492159,-89.52390229,-63.167430332,-31.699027934,3710.0
14.243374401,-77.784808966,-61.929572909,-39.976972006,3720.0
18.366849557,-107.0004176,-60.272385248,-96.876287161,3730.0
13.284834192,-129.72729108,-68.702711562,-171.60786468,3740.0
9.997022641,-115.04076227,-75.680077586,115.046389,3750.0
9.2351133576,-93.087850598,-75.134051424,89.287094713,3760.0
10.784123975,-69.535053041,-72.675095789,107.10099625,3770.0
16.842601036,-51.334310192,-73.703265387,84.215874968,3780.0
20.247674951,-144.80442534,-77.939963783,-115.69701338,3790.0
11.164279936,-135.48484201,-77.78771249,-142.53634381,3800.0
8.4769105249,-107.81981748,-79.339737965,-134.14795462,3810.0
8.4988467374,-78.802264564,-81.348681059,-137.61403247,3820.0
11.613458974,-46.258344852,-81.388679748,-158.24557909,3830.0
26.009731835,10.236057164,-65.089008319,-163.93857915,3840.0
13.830372511,-167.93659001,-68.692852602,-32.602668601,3850.0
8.479993543,-131.8218769,-65.836627101,-9.1002739385,3860.0
6.984357464,-100.32674909,-62.995558795,30.336831624,3870.0
7.6319344591,-68.60724012,-63.61968111,85.744576759,3880.0
11.518556744,-30.140757149,-62.609204623,124.75891893,3890.0
23.921620895,88.200084073,-53.513610666,-137.00665413,3900.0
11.282134258,-159.92081815,-70.203612807,-39.752836378,3910.0
7.3699399546,-119.93558872,-78.384632504,-16.672470566,3920.0
6.6627106859,-85.925621966,-82.378251276,39.999329932,3930.0
8.2725617222,-49.172201023,-76.702246038,129.00982112,3940.0
14.260199529,5.9422046637,-61.03818035,177.83139466,3950.0
15.374583504,150.78806221,-53.348935334,-70.428773874,3960.0
8.4052969785,-146.91236659,-55.107108326,-30.244708039,3970.0
6.1898603582,-108.69274638,-56.551507731,20.174475655,3980.0
6.2620154654,-73.792026593,-60.087464652,49.066982748,3990.0
8.8416339134,-32.307314094,-59.449726675,69.628062058,4000.0
16.621684243,47.590876027,-52.507213364,124.67066627,4010.0
11.574571601,-178.17833891,-59.108942986,-125.43088847,4020.0
6.966390425,-127.48650706,-66.843520859,-88.140349557,4030.0
5.8201495331,-89.978602996,-70.450124501,-64.850483455,4040.0
6.7178375899,-51.933593662,-70.116334697,-39.501775346,4050.0
10.439835073,1.3140057857,-64.357222917,0.60060286642,4060.0
14.246930917,114.83747752,-54.346407617,101.95028364,4070.0
8.319221747,-160.35342455,-58.211400959,-162.30209494,4080.0
5.7869667648,-115.65683714,-64.248801579,-118.17002802,4090.0
5.5381663661,-78.376944971,-67.442172635,-91.873961498,4100.0
7.2995568692,-37.007729732,-66.401584404,-57.269655904,4110.0
12.912103772,29.647081251,-62.234581821,-9.7961329056,4120.0
12.321052512,161.83546249,-65.902354627,95.169469349,4130.0
7.0985859792,-135.9176897,-73.872952523,131.01809987,4140.0
5.5273575403,-95.659133758,-75.061296595,166.8770173,4150.0
5.9497290589,-57.606321326,-70.836068537,-162.35899808,4160.0
8.649805673,-9.5833679918,-61.789718427,-131.66661035,4170.0
13.949923989,83.521773556,-51.299645914,-53.094437419,4180.0
9.3977980342,-171.87330561,-53.905437791,49.858938098,4190.0
6.2290180377,-120.98367738,-60.344970916,106.85155061,4200.0
5.6090926778,-82.057203977,-65.65619642,137.32832726,4210.0
6.9122549602,-42.115482776,-68.633379463,153.43104849,4220.0
11.516165511,14.94005579,-66.984187852,-172.32531157,4230.0
14.215765202,141.0947402,-65.783083996,-78.49944816,4240.0
8.1517520633,-144.70662311,-75.570109279,-13.888158711,4250.0
6.0355455205,-102.18001625,-76.389339397,69.377185632,4260.0
6.0809491068,-64.71239789,-67.344268082,102.78004062,4270.0
8.3488364412,-21.84148628,-57.511222485,119.8623441,4280.0
14.722401103,53.724269426,-44.583008221,-176.3854806,4290.0
11.916025748,178.18569391,-48.765807422,-31.643496201,4300.0
7.5371894788,-126.27985618,-58.75369526,6.7385242343,4310.0
6.3834463325,-87.407252073,-63.136358751,22.488413309,4320.0
7.4060498165,-50.021145048,-63.619760354,35.300447395,4330.0
11.703144011,-2.8026788078,-60.185902294,61.413916627,4340.0
18.79261923,121.14914442,-55.324028043,164.57343656,4350.0
10.345238103,-149.28398117,-67.166661496,-114.31880585,4360.0
7.2959508292,-107.07491717,-68.446927473,-50.16966986,4370.0
6.9354104591,-71.971648468,-61.999699237,-25.03705879,4380.0
8.9106497743,-35.493123704,-53.840677199,-4.2629846871,4390.0
15.620896011,16.304502665,-44.687794165,46.637126598,4400.0
17.787375873,172.34367217,-44.620101385,-160.29109434,4410.0
10.165012143,-130.4636554,-55.416602534,-108.12550834,4420.0
8.0919606199,-94.856790773,-61.371821828,-81.189299344,4430.0
8.5638215049,-62.796383337,-64.857648541,-64.282516838,4440.0
12.032137688,-30.616612191,-64.463543078,-59.420215971,4450.0
26.514711531,4.3691353789,-54.020984424,-58.740606546,4460.0
15.746665062,-140.72190398,-76.317772203,138.65878196,4470.0
10.414334659,-108.97157259,-69.06553523,-93.290027043,4480.0
9.3624134562,-80.192111611,-61.784455143,-87.186798882,4490.0
10.977313183,-53.354070933,-56.267099363,-71.471516327,4500.0
16.522900016,-34.576374185,-49.758437497,-51.677901178,4510.0
22.576430844,-104.44718715,-46.670336543,-126.6708233,4520.0
13.929234452,-112.80121727,-60.302178379,-148.06369216,4530.0
11.21347593,-91.36474007,-66.625786767,-151.08715995,4540.0
11.40679293,-69.513071936,-68.817463137,-156.8309136,4550.0
14.29108265,-53.038492532,-68.242880626,-157.13857715,4560.0
19.409131785,-68.61964574,-63.616287476,178.29875419,4570.0
16.304609079,-103.51549744,-70.686516616,134.63621585,4580.0
12.756659413,-95.07063456,-81.027000603,-104.02031414,4590.0
12.03758536,-77.863345715,-75.631553278,-62.619594178,4600.0
13.449536723,-63.032143975,-75.536775543,-74.338232056,4610.0
16.694404435,-64.028360431,-73.161786537,-109.32462562,4620.0
17.24125899,-88.93901585,-78.31502189,-134.26406209,4630.0
14.267339517,-93.884363337,-84.719292656,148.49724396,4640.0
12.850374397,-83.146654417,-85.968479003,160.94064015,4650.0
13.40645683,-70.341770066,-77.564815998,15.738708518,4660.0
15.471484017,-67.163888003,-68.161580568,-18.938183945,4670.0
16.566558647,-82.482183493,-63.923635943,-58.247878992,4680.0
14.509546838,-90.176381901,-61.693201344,-93.782426889,4690.0
13.11513157,-81.708067134,-58.970642445,-105.49939584,4700.0
13.467843795,-70.006904445,-53.864339263,-106.06860084,4710.0
15.359256931,-66.532963173,-50.723414713,-94.96962344,4720.0
16.619616342,-79.532083736,-51.823296814,-101.71760041,4730.0
14.847997854,-88.84682754,-56.224894201,-111.52671949,4740.0
13.180669179,-81.985430369,-60.321994831,-115.56978627,4750.0
13.304892061,-68.323342498,-61.573933309,-119.9428104,4760.0
15.780604463,-58.694163998,-59.305803318,-138.59432723,4770.0
19.441220638,-81.227716482,-53.699809095,164.56153909,4780.0
15.271051016,-107.69639323,-54.634649424,98.360066537,4790.0
11.646652634,-95.754310545,-51.977497518,89.732557141,4800.0
10.579783931,-73.993895187,-44.174707223,144.14342045,4810.0
11.891165367,-50.599179944,-48.19631433,-150.81566872,4820.0
17.319522897,-31.466221381,-47.38242556,-139.43953129,4830.0
23.400965958,-116.79142528,-44.455902939,116.02891767,4840.0
12.898463749,-117.12178366,-58.379786095,87.240246439,4850.0
9.6122188771,-90.077922035,-64.480130838,81.157623866,4860.0
9.2127457662,-58.510872495,-65.740411588,57.891997002,4870.0
11.780507863,-19.880995453,-60.135337441,34.624724472,4880.0
20.203573017,64.412989721,-45.065435459,65.195057886,4890.0
12.248149934,-168.47980521,-40.766515329,171.90212778,4900.0
7.074037089,-120.88110316,-48.617358627,-60.759535843,4910.0
5.2126860221,-83.411224678,-57.772809884,-36.56964921,4920.0
5.0796438662,-45.380503703,-61.811102535,-39.467902906,4930.0
6.5025676663,3.7504567592,-61.848886018,-40.082153861,4940.0
8.790851635,86.542071415,-57.294475302,-0.6651345535,4950.0
6.08805494,-177.13529449,-57.396145988,51.144071464,4960.0
3.2227789919,-115.49138396,-56.749097868,84.568863915,4970.0
1.6903248053,-66.375864969,-53.667061259,112.87981401,4980.0
-0.044766822759,-10.48764118,-49.308496917,154.19512692,4990.0
-5.6537812812,74.135664103,-45.524640337,-139.51588439,5000.0
-11.907586229,-144.91179941,-43.229379532,-56.152644745,5010.0
-10.443454164,-40.064819433,-47.939076638,34.436878103,5020.0
-9.1109164561,76.839261574,-52.142703447,82.429363201,5030.0
-3.6734797702,179.02465056,-53.687829586,123.82360479,5040.0
-1.5643028672,-118.56338511,-54.594716548,154.98157256,5050.0
-1.1093224561,-74.576300257,-54.973712346,-178.97689827,5060.0
-0.69450583706,-34.454605448,-55.072330002,-140.09201818,5070.0
1.0479700177,13.939773001,-54.198792514,-94.437661377,5080.0
5.0647673814,85.183537667,-51.553229895,-44.234263955,5090.0
7.1719356424,176.49309323,-49.828793207,19.989851586,5100.0
6.2277326294,-118.83974493,-47.873362273,59.512356654,5110.0
6.2898093536,-74.332524917,-38.37554676,128.18530886,5120.0
8.5486899655,-32.357135679,-44.754147434,-124.59477978,5130.0
15.815992751,25.300266011,-42.833663012,-71.576309107,5140.0
16.293176114,-177.68393065,-44.189221923,74.122977169,5150.0
9.4653267826,-123.32220704,-51.351098725,94.454232959,5160.0
7.5966991514,-87.649584964,-53.910677139,88.825687517,5170.0
8.1423341148,-56.038342509,-54.12915717,86.032868083,5180.0
11.520866518,-24.583931453,-50.539814552,83.634783275,5190.0
24.037851196,5.4044301564,-36.738770174,81.299622206,5200.0
16.960436157,-133.1599199,-40.584202503,-76.86681131,5210.0
11.099608568,-102.6001093,-38.67384593,-28.866633943,5220.0
10.022433206,-73.607320314,-45.173284932,81.806262241,5230.0
11.971426641,-45.428204812,-49.988193635,103.67738717,5240.0
19.624118179,-26.208777216,-44.368721228,94.402990109,5250.0
20.335023355,-134.36572042,-43.561370176,-57.856829141,5260.0
