S11m,S11p,S21m,S21p,Frequency
6.34389107,-137.29504886,-69.054524471,-43.601329535,2000.0
8.1197965743,-107.05981168,-69.049683553,-97.463442876,2010.0
12.081623089,-64.523867959,-71.657901505,-138.69890985,2020.0
16.669430661,23.765959734,-74.329565912,-165.50378448,2030.0
11.692604411,105.67999692,-76.210536265,170.82622184,2040.0
8.1530789994,146.01257364,-77.234213779,161.69616878,2050.0
6.6329584308,176.01632531,-74.577386682,116.35132968,2060.0
6.3069411159,-157.04589045,-73.498259544,59.390356229,2070.0
7.0206316516,-129.58626019,-74.324406283,-0.20682432665,2080.0
9.0990289628,-97.226908141,-79.08137694,-56.997686128,2090.0
13.308846302,-49.667352089,-79.601389848,50.146381161,2100.0
15.940507314,41.39161218,-68.548178999,-11.251285307,2110.0
11.14533653,110.60443844,-65.532153421,-69.820675524,2120.0
8.0080522132,148.73246961,-64.844183563,-119.73623367,2130.0
6.6055499319,178.03878459,-65.973400265,-163.90575727,2140.0
6.3622363221,-155.33090939,-66.490999187,164.55315483,2150.0
7.2372199749,-127.65492401,-65.370050225,127.37166056,2160.0
9.6810096544,-94.484047447,-63.846279211,75.426163202,2170.0
14.773493311,-42.55483409,-63.150998569,12.927780943,2180.0
16.086689594,60.767346382,-63.609331115,-51.536108273,2190.0
10.533553966,120.73185057,-65.226413193,-116.64182707,2200.0
7.5915936455,154.53910373,-68.082473789,168.03406932,2210.0
6.314746775,-178.479912,-69.717395564,52.734822729,2220.0
6.1251642657,-153.08872882,-65.46150832,-53.268576877,2230.0
6.9842445109,-126.1077707,-63.128401864,-130.96142478,2240.0
9.3782494001,-93.418062845,-63.226539512,164.3780535,2250.0
14.619078543,-42.049945154,-64.763018325,103.49864756,2260.0
16.066851925,66.732650546,-67.056498382,39.926346219,2270.0
10.091813248,126.642558,-69.415100255,-29.595672449,2280.0
7.102307184,159.81116483,-71.301278617,-99.206823192,2290.0
5.8174108585,-173.86593862,-72.16316954,-157.17071847,2300.0
5.5227705412,-149.20537082,-72.879328485,145.39923376,2310.0
6.1305595255,-123.1716152,-73.414552703,79.27905642,2320.0
8.0312886647,-91.871846295,-71.380464605,-0.73744838988,2330.0
12.25924151,-45.865163811,-67.216577036,-76.192994094,2340.0
15.759207532,49.303760674,-64.422363978,-146.19718344,2350.0
10.485728838,122.02511397,-63.453158722,153.39586524,2360.0
7.2726318832,159.43625308,-63.479618278,95.068446397,2370.0
5.8727795403,-171.98377379,-64.602993292,34.227319012,2380.0
5.4915064163,-146.01724426,-66.389285687,-28.473697124,2390.0
5.9857853233,-119.32886421,-68.461715379,-91.699820599,2400.0
7.7010244537,-87.734271155,-70.274519274,-154.99489063,2410.0
11.460413513,-41.996804022,-71.675794515,143.07430444,2420.0
14.787613279,45.988500291,-74.923414497,71.275323799,2430.0
10.393662565,120.35566604,-80.376605135,-33.265376471,2440.0
7.3490301575,160.25356865,-77.919317093,-136.92376619,2450.0
5.9924517995,-169.72877803,-75.042199759,168.43859897,2460.0
5.6653449548,-142.54070604,-73.271300594,133.58853758,2470.0
6.3247351855,-114.25127339,-70.9540944,101.18176997,2480.0
8.3993577956,-79.591991476,-68.299685553,60.271672738,2490.0
12.554330608,-25.43687492,-66.210496301,6.2342637979,2500.0
13.504275282,68.082011141,-65.030562378,-59.158365762,2510.0
9.1040936545,129.99527098,-64.656979417,-134.33100488,2520.0
6.5326469092,166.9427849,-65.358643795,149.40879808,2530.0
5.3979898467,-164.1557263,-66.537495468,76.63766968,2540.0
5.1939117222,-137.52158132,-67.918150109,7.677675165,2550.0
5.8900714982,-109.22010372,-68.736731284,-60.842435008,2560.0
7.8644898117,-73.613154038,-68.091373652,-128.70692433,2570.0
11.4464563,-17.365171968,-66.157359593,166.30983718,2580.0
11.938195409,69.410178193,-64.353665984,103.895821,2590.0
8.2575381606,129.75853605,-63.440271263,44.214100981,2600.0
5.9459235024,166.78521625,-63.780431805,-13.150585518,2610.0
4.8928086646,-164.65789501,-64.791373981,-70.767185337,2620.0
4.7113209643,-138.64724558,-67.064873696,-135.16777475,2630.0
5.3579256348,-111.14310203,-69.373798061,145.5848779,2640.0
7.201184152,-77.389171393,-69.325856825,51.911934634,2650.0
10.831605468,-26.33558458,-67.107757317,-30.143775458,2660.0
12.630500651,61.208069028,-65.119309371,-101.82724588,2670.0
8.6858992171,128.87561501,-64.05436569,-167.48501727,2680.0
6.0376040506,167.91935506,-63.330609804,131.08817668,2690.0
4.8475212649,-162.90576709,-62.911775149,72.81653988,2700.0
4.6032473794,-136.64820374,-62.981227117,16.750880717,2710.0
5.2017377249,-108.66656964,-63.657833949,-36.121372426,2720.0
6.9547027959,-73.990027256,-65.32386485,-87.656657201,2730.0
10.55723551,-21.095803047,-69.142284455,-140.02150078,2740.0
11.984088518,68.225393385,-81.926698848,-177.10177768,2750.0
8.0184398993,133.68416722,-73.351051586,-76.619906659,2760.0
5.4394920795,171.77672162,-66.485441338,-126.59821256,2770.0
4.2180164411,-159.13668461,-63.93734519,-178.63759225,2780.0
3.8773120012,-132.54329653,-63.145317141,130.72120263,2790.0
4.2453506152,-104.12959951,-63.017378245,84.205695218,2800.0
5.5712206714,-68.577113612,-62.989913398,37.887855782,2810.0
8.3108351938,-14.920810892,-62.945255442,-8.7511033148,2820.0
9.3839858334,68.300217272,-62.929668954,-57.26905934,2830.0
6.4186401125,134.8662052,-63.65162215,-105.67314737,2840.0
4.2719521726,175.87087527,-65.335378647,-150.82932975,2850.0
3.1429584306,-153.07389354,-67.348775035,175.63562256,2860.0
2.4972521706,-124.24855056,-67.842602408,147.08540365,2870.0
2.0610910462,-91.665258138,-68.557511103,120.7224999,2880.0
1.6679192223,-48.46368719,-67.34301,97.431526522,2890.0
1.0734270986,11.713410042,-64.958460599,57.956102444,2900.0
0.26956029739,81.430760392,-63.527001347,8.4907859112,2910.0
-0.17363240392,138.58890833,-63.338762008,-40.335008801,2920.0
-0.41012432873,179.58626981,-63.598621526,-87.409845438,2930.0
-0.80135775909,-147.97903454,-64.336912433,-130.53345545,2940.0
-1.6738160814,-117.90854267,-65.176452207,-169.53654015,2950.0
-3.7550398561,-85.218628284,-66.367057333,150.74851337,2960.0
-9.4824596617,-47.105147403,-69.58418368,118.92949259,2970.0
-32.550092572,150.41470183,-70.736865537,113.52798996,2980.0
-12.521004202,-158.22109701,-68.294939485,92.767323218,2990.0
-11.209489649,-128.71665401,-66.161884345,53.0324554,3000.0
-14.866822071,-104.61359029,-65.465546169,3.5618520292,3010.0
-28.472306458,-167.20276029,-66.214314574,-46.49261901,3020.0
-12.720349851,149.30044789,-67.338242077,-93.295975117,3030.0
-6.779946108,169.47747894,-68.047467612,-140.26669675,3040.0
-3.4802536797,-165.80645677,-69.222715357,170.3045174,3050.0
-1.5926360388,-138.85965804,-71.203195812,125.1668876,3060.0
-0.46290681047,-109.71796192,-73.457675103,87.923960554,3070.0
0.49427508338,-75.351078892,-76.069398202,56.420024298,3080.0
1.7613817919,-28.228442175,-78.644314169,33.791886963,3090.0
3.3880396459,40.400093248,-80.699994151,14.617449743,3100.0
3.5343073135,114.84226888,-82.118933593,-9.4482928986,3110.0
2.760773349,166.61566155,-82.486502187,-26.402080453,3120.0
2.3192054081,-158.54865306,-79.551750677,-54.720420125,3130.0
2.2636992155,-130.80420507,-75.469556925,-111.92556926,3140.0
2.600445479,-104.32882863,-74.180321096,-169.83046525,3150.0
3.5768405705,-74.360042727,-73.643871086,141.39348336,3160.0
5.7800087391,-34.095349412,-72.928016331,101.65888862,3170.0
9.4282734798,30.911070873,-72.536645178,60.477148516,3180.0
9.1080597649,117.80075964,-74.092791217,24.24734785,3190.0
6.2413429167,172.35844247,-75.508026888,-0.049970655572,3200.0
4.7408392609,-152.72525026,-74.495731849,-17.813525526,3210.0
4.2286495532,-125.07065465,-72.32662782,-54.27289926,3220.0
4.4805310372,-99.119648732,-71.669970595,-104.25159775,3230.0
5.7209317492,-70.875709591,-72.420253281,-159.80099107,3240.0
8.8059306578,-34.35204265,-75.144986649,146.4683723,3250.0
14.934656351,32.377815582,-80.650344894,100.98991418,3260.0
13.031802312,139.3274096,-84.452172866,78.495582383,3270.0
8.5108020898,-171.92501839,-92.494213522,36.673976503,3280.0
6.5875053139,-140.69021133,-86.866274971,141.71526053,3290.0
6.0544571237,-114.32971427,-81.706966185,82.855966704,3300.0
6.6741705296,-88.303607649,-81.817362482,40.728150915,3310.0
8.9185834457,-58.541447802,-84.824415374,18.697449773,3320.0
14.436712589,-15.326475565,-84.977418338,15.427311263,3330.0
19.149990073,104.76689216,-84.135190897,2.7779328076,3340.0
11.343783633,172.77545672,-82.228373303,-20.706631445,3350.0
7.9179079663,-154.47866041,-81.330126915,-35.427245496,3360.0
6.5695944075,-128.31306236,-79.165049395,-61.660867448,3370.0
6.3925444719,-104.20305297,-77.414876024,-98.570648913,3380.0
7.410322078,-78.934169051,-77.39105838,-134.4763481,3390.0
10.322236791,-48.120804372,-77.414132407,-171.85782101,3400.0
17.563268173,4.3171134728,-79.451491032,158.9351106,3410.0
16.719790138,138.809375,-80.229412551,149.35359502,3420.0
9.9727106052,-173.40239491,-76.954059214,136.06503157,3430.0
7.2132442157,-144.32351368,-74.306171167,101.12688459,3440.0
6.1631966025,-119.73365061,-73.581277418,57.768597583,3450.0
6.1456945865,-96.411299011,-74.817585028,19.283627051,3460.0
7.2274844776,-70.991611437,-76.322911674,-14.640396615,3470.0
10.05281176,-39.029757566,-78.905342737,-46.660991627,3480.0
16.349454587,16.406495845,-81.480837021,-71.088148753,3490.0
15.782116056,135.22141379,-83.557224221,-77.406520634,3500.0
9.670128537,-173.2804842,-82.004498667,-94.581634754,3510.0
6.9900731837,-142.77602207,-79.015719849,-127.553364,3520.0
5.9729438174,-117.60513533,-77.419637188,-174.80414384,3530.0
5.9066034639,-93.99372746,-77.15307369,143.97224803,3540.0
6.8034242231,-68.944227897,-77.338156969,111.77311512,3550.0
9.1253991771,-38.990702047,-77.020810313,74.679980674,3560.0
14.24802696,6.6305428168,-78.016229551,43.094065438,3570.0
17.832763936,115.50019231,-78.699397585,15.49555353,3580.0
11.203428208,-177.07591814,-79.276950631,-4.1879677236,3590.0
8.0363812543,-143.20975125,-78.929187295,-31.254824747,3600.0
6.9020368753,-115.96689941,-79.670356795,-64.975014293,3610.0
6.9132022718,-90.326700566,-81.749523185,-100.10111199,3620.0
8.1387589058,-63.6700995,-84.63672894,-150.77154628,3630.0
11.330063311,-31.356927815,-90.140509,132.22325562,3640.0
18.46620625,28.625185598,-94.2673273,-7.3241025084,3650.0
16.015110592,149.40996054,-89.447993782,-126.69094859,3660.0
10.02319983,-164.26854861,-83.415162824,155.90751068,3670.0
7.508159671,-133.99249547,-80.460702927,98.231285354,3680.0
6.6474453889,-107.1113119,-78.231516762,56.263578445,3690.0
6.8741600861,-80.487785048,-76.857515811,18.997348846,3700.0
8.4119353234,-50.9583731,-76.134501899,-18.428674103,3710.0
12.383000843,-10.398593719,-76.327479243,-49.086662047,3720.0
17.643141189,80.226110182,-77.147893181,-88.325556597,3730.0
11.863832912,165.87567735,-79.601446404,-129.02729331,3740.0
7.8701458309,-154.74894969,-84.713813623,-170.9677284,3750.0
6.0703286418,-125.65543939,-92.427147209,175.34938518,3760.0
5.43200252,-99.549148872,-103.63207898,-177.7510101,3770.0
5.6331006277,-72.996909216,-97.142520558,-172.65842099,3780.0
6.8410461574,-42.394557042,-103.94253925,-146.19725137,3790.0
9.7148132615,-0.16341827502,-96.920033498,170.67461227,3800.0
13.04194923,73.836632095,-89.315275034,120.54711093,3810.0
10.510245078,153.94899749,-83.753106193,76.19422271,3820.0
7.3122101068,-158.92112287,-79.815420953,30.654659678,3830.0
5.6557644249,-126.24022243,-76.701200342,-8.9304102797,3840.0
5.051993957,-98.343196868,-75.983532848,-54.214571701,3850.0
5.1648027221,-70.72002379,-77.048593258,-93.790852508,3860.0
6.1243741733,-39.555583253,-79.337779509,-127.8456556,3870.0
8.4024249783,2.3853910119,-83.656561691,-150.36879798,3880.0
11.18518691,69.215372274,-86.037392943,-157.03010709,3890.0
9.9939522705,147.38645213,-86.303172105,-177.03827567,3900.0
7.2403648816,-160.28678961,-89.287812509,148.2834469,3910.0
5.7174393119,-124.09666658,-92.654149988,88.983073675,3920.0
5.302960699,-93.506995721,-94.928511154,38.042769604,3930.0
5.7324849774,-62.343082147,-91.767351185,-36.814292624,3940.0
7.1248480372,-25.394756118,-88.027381621,-56.261092049,3950.0
9.4487889407,27.22970458,-85.097000789,-91.797679104,3960.0
10.147906973,100.86532356,-84.742592556,-131.68554178,3970.0
7.8349254393,164.49720294,-86.136957073,-175.11954924,3980.0
5.804490425,-151.74246274,-90.664149227,133.29834394,3990.0
4.8081305555,-118.114342,-91.045487253,14.920748983,4000.0
4.6805061682,-87.836735643,-88.214035676,-54.467600319,4010.0
5.3461588351,-55.425904007,-85.697708184,-101.42806247,4020.0
6.9392031686,-15.17941744,-85.140109651,-139.19101058,4030.0
9.2258360291,42.998988785,-89.355886826,162.38598346,4040.0
9.0969407583,117.91725422,-87.167276834,40.642422293,4050.0
6.6437452846,175.37148961,-79.153224004,-45.372302412,4060.0
4.8822894528,-145.32944256,-75.380502126,-105.06738773,4070.0
4.0944535788,-114.48848642,-75.108226957,-154.27239452,4080.0
4.0830201349,-85.876869565,-75.475777461,165.99855723,4090.0
4.7510667548,-54.617257041,-76.01587184,127.73611922,4100.0
6.3205079706,-15.704672679,-77.090653002,85.837179654,4110.0
8.8788002749,41.121768071,-79.161041042,41.687091916,4120.0
9.29469503,118.90214461,-80.369827451,3.460185374,4130.0
6.8382844952,179.58630164,-80.823110643,-32.521774659,4140.0
5.0490915614,-139.94132625,-83.303331266,-67.025220937,4150.0
4.2644282712,-108.4318419,-83.578216668,-70.348256615,4160.0
4.2307123539,-79.229660084,-77.849635163,-83.266365265,4170.0
4.8690981631,-47.657915245,-73.98389075,-129.92655605,4180.0
6.5226119781,-8.4192202992,-72.603679585,-173.42476984,4190.0
9.2281077918,49.587340547,-72.382145808,142.54449835,4200.0
9.4832661231,127.92396131,-72.70900332,102.26329108,4210.0
7.0205182549,-173.27501027,-73.172839454,60.398693192,4220.0
5.3890363974,-133.71159316,-74.217924928,20.743721225,4230.0
4.7570459236,-102.11330938,-75.162552743,-19.385000776,4240.0
4.9114256431,-72.060708782,-75.681966715,-55.546613952,4250.0
5.8375334094,-38.917000909,-76.878579347,-87.595048371,4260.0
7.8919747634,3.8095550946,-77.062438909,-112.2929931,4270.0
10.488037188,68.507372359,-75.477596208,-140.82377347,4280.0
9.4615408475,144.47615076,-74.455561309,-178.30368232,4290.0
6.9939010331,-163.66954586,-74.980628363,143.75184058,4300.0
5.6194113559,-126.9864057,-75.091778606,106.49364632,4310.0
5.1747618632,-96.552733879,-76.881091895,68.345346893,4320.0
5.5964241896,-67.047926711,-78.677841989,31.443190084,4330.0
7.028442897,-33.365479834,-80.488762998,-3.5026851038,4340.0
10.008077362,12.577673771,-82.856315044,-54.22171553,4350.0
12.776358698,90.280544942,-87.648813135,-75.725444168,4360.0
9.8252385531,165.34745135,-98.29279894,-132.48690353,4370.0
7.0331778096,-149.80370489,-94.072095309,-49.382253793,4380.0
5.704303606,-116.70276216,-89.433284133,-96.616500093,4390.0
5.3864066697,-88.113362746,-101.37573066,-179.61702849,4400.0
6.0079452291,-59.479618979,-95.663395764,-47.700193648,4410.0
7.8305478456,-25.710151604,-85.860596116,-80.787913317,4420.0
11.383205136,22.726277268,-84.452656198,-114.14084593,4430.0
13.707657692,107.11956861,-81.625301276,-164.04069954,4440.0
9.9505846571,176.85075278,-82.430262757,158.10307278,4450.0
7.1990491516,-142.16399056,-84.076144845,147.88136555,4460.0
5.9059701022,-111.1120106,-82.563796491,145.55186175,4470.0
5.6108752527,-83.641006101,-77.432755285,120.2965711,4480.0
6.2888287067,-56.007389476,-74.626133471,77.805649438,4490.0
8.2489799519,-23.377237519,-73.680448074,33.78874148,4500.0
12.146793685,22.603923104,-73.095481515,-5.3755522551,4510.0
15.667471232,108.94607565,-73.472665777,-43.486279953,4520.0
11.468769231,-176.78314252,-73.261567442,-75.915602402,4530.0
8.4653291907,-136.64442667,-73.156293831,-108.41018474,4540.0
7.1939961166,-106.31080165,-73.295245639,-141.91585898,4550.0
7.1451011067,-79.17836732,-74.01884958,-176.32761937,4560.0
8.4130315256,-51.211939686,-74.616394894,150.48427519,4570.0
11.647202782,-16.877258516,-76.29132082,116.12555,4580.0
18.740155662,44.791079674,-79.829234297,91.003312889,4590.0
16.180147385,165.5339864,-80.663003174,80.990102225,4600.0
10.38925099,-148.33660786,-79.140101768,57.620654596,4610.0
8.0108426806,-117.72477281,-79.370861827,20.263024665,4620.0
7.2210266582,-91.085909463,-80.190137305,-14.177328141,4630.0
7.5786701308,-64.981917072,-80.050426209,-40.971030977,4640.0
9.383787065,-35.516311641,-78.841740985,-75.129966723,4650.0
13.444096736,6.1635618649,-79.110451396,-111.81893441,4660.0
18.211950673,97.241570478,-79.025645439,-137.43872815,4670.0
12.237306221,179.77376432,-80.110473435,-160.522746,4680.0
8.2163770153,-141.62123901,-80.842099197,179.93225296,4690.0
6.4531947747,-112.89815572,-80.922018051,-179.97557355,4700.0
5.8646393442,-86.893756189,-78.428606184,163.6594244,4710.0
6.1745248306,-61.231059522,-76.289080641,135.42942434,4720.0
7.550401062,-32.297762163,-75.927501625,101.46260828,4730.0
10.46041547,6.4451272272,-75.604605498,69.749020977,4740.0
14.558258433,74.802341823,-75.521123141,25.957343637,4750.0
12.074773444,160.94718028,-75.541958354,-11.7284296,4760.0
8.1001383433,-151.40574877,-75.446407065,-58.321289749,4770.0
6.1229118522,-118.69508385,-74.034754863,-100.38081747,4780.0
5.3271022188,-90.305535527,-73.408481836,-145.05374593,4790.0
5.3326268908,-62.805335624,-73.059133649,177.09494132,4800.0
6.287241349,-32.481539508,-73.124817991,139.29518822,4810.0
8.492449828,7.8864527267,-73.569068904,102.47347157,4820.0
11.419306215,71.545172281,-74.817955757,71.390292439,4830.0
10.186453,152.45781056,-76.518482066,40.854938563,4840.0
6.9318011774,-153.69195706,-78.274905455,-0.26754271557,4850.0
5.1492274146,-115.82564837,-79.915103247,-43.260470654,4860.0
4.4056258807,-82.609239398,-81.131942521,-109.30727132,4870.0
4.3728987272,-47.526752156,-78.369308951,-167.37741741,4880.0
4.8232064181,-1.5468288135,-76.136208206,140.07801839,4890.0
4.0905944385,66.696113853,-75.163311088,92.799286518,4900.0
0.53483974581,139.28280086,-74.966908323,49.405833119,4910.0
-2.5621284449,-165.35156123,-75.4050546,1.8072868216,4920.0
-4.3178797249,-127.09514658,-76.401348297,-47.046422877,4930.0
-5.3610827503,-98.643272091,-77.334261544,-99.443368413,4940.0
-6.6124027247,-70.804895729,-75.943633684,-150.4298043,4950.0
-10.10000594,-36.768064233,-74.327366092,168.47158144,4960.0
-31.606690684,75.711959308,-71.636179241,124.56177533,4970.0
-8.4141532129,-139.41380375,-70.452156423,80.42267198,4980.0
-3.5647436788,-94.966592853,-70.225879426,44.163771122,4990.0
-1.4725821579,-52.893467441,-70.256402721,5.9309638097,5000.0
0.23979975617,-4.1289206996,-70.737089389,-34.249867671,5010.0
2.5254656474,61.952018413,-71.948820193,-76.063559879,5020.0
3.8190291936,140.84703393,-73.302834141,-117.93176351,5030.0
3.2343355556,-157.46629387,-74.553999563,-155.5582685,5040.0
2.6334990967,-116.36457257,-74.300999051,159.32545792,5050.0
2.591335074,-84.848296543,-73.435477706,118.75934102,5060.0
3.150466826,-55.67114955,-73.044043448,78.754000385,5070.0
4.7519574185,-24.090267489,-72.446405479,44.025379921,5080.0
8.2317211832,16.426149834,-72.183526113,12.03162437,5090.0
13.782117451,88.538868865,-71.773305542,-19.10211662,5100.0
11.780333684,-177.64753886,-72.163911902,-56.523203087,5110.0
8.2443178718,-129.81216795,-72.718989318,-91.60296905,5120.0
6.6880883079,-97.104890819,-74.051906324,-125.70887375,5130.0
6.4976625969,-68.363793465,-75.008124148,-157.43235674,5140.0
7.4533071843,-38.534035578,-73.407166009,176.85056655,5150.0
9.971160349,-3.196229253,-70.376341018,134.25895802,5160.0
14.838781986,53.320518924,-68.759063674,87.537302656,5170.0
14.942374552,149.400723,-67.954626198,43.245466502,5180.0
10.285605581,-155.48087022,-67.697219788,1.7022386794,5190.0
7.7816371547,-121.38285793,-68.170868614,-37.780853998,5200.0
6.6663375622,-94.000266412,-68.60923791,-75.783952023,5210.0
6.6027681041,-68.472757003,-69.246634835,-113.57180683,5220.0
7.5994133637,-41.398793009,-69.568800068,-154.50614941,5230.0
10.128690405,-8.6078848441,-69.814421352,162.82013127,5240.0
15.087941541,44.571276875,-69.767237868,117.31029637,5250.0
15.485775828,139.80505712,-69.678947341,70.277206048,5260.0
10.710310777,-165.83436983,-70.091467234,30.827759955,5270.0
