S11m,S11p,S21m,S21p,Frequency
8.1918752531,162.20371349,-63.499167595,17.078053014,2000.0
7.4688059689,-167.06041935,-65.386342695,33.355418303,2010.0
8.9358589133,-135.38642469,-62.562880134,62.053313416,2020.0
14.784641085,-96.876605021,-54.704015658,76.40342915,2030.0
22.397900851,89.760267732,-44.656824134,-149.538309,2040.0
10.761686158,140.70564767,-53.998499936,-148.99639944,2050.0
7.9038073957,174.41208981,-55.438019241,-147.32480457,2060.0
7.7326220251,-154.23066764,-55.551166402,-144.2986096,2070.0
10.10546155,-120.98252636,-52.938978535,-139.24013891,2080.0
18.882649572,-75.747141451,-43.857863647,-121.34927928,2090.0
17.307101081,107.9345034,-46.805248025,30.07239146,2100.0
9.9310460888,149.06135381,-57.144881532,33.318953005,2110.0
7.8100975032,-179.8566071,-61.787809276,25.463414858,2120.0
8.0668808725,-150.42676372,-64.991353737,21.324881915,2130.0
11.147007475,-119.7817138,-67.019037667,-3.6668902378,2140.0
24.555281117,-97.39237774,-52.799302692,-70.047014971,2150.0
14.764109706,138.54829834,-58.968806001,125.10183607,2160.0
9.289869536,168.36311219,-66.145432867,162.68503106,2170.0
8.0045890222,-162.90163198,-64.461098671,-123.15557911,2180.0
9.1333122507,-134.03002885,-57.262284238,-98.295987946,2190.0
14.022040466,-103.02468797,-48.448242229,-84.039895778,2200.0
31.796868903,125.45687949,-28.543304956,129.36537088,2210.0
12.419874439,146.89618281,-48.143348695,133.82471869,2220.0
8.6884763695,176.72702791,-52.962929877,143.25816166,2230.0
8.111489126,-154.39829899,-53.536948238,156.64899802,2240.0
10.171603289,-124.3467582,-51.79769823,174.44844307,2250.0
18.660839519,-93.970514384,-43.240536322,-166.11868835,2260.0
17.37988726,131.82859773,-44.087315399,44.719471189,2270.0
9.5183450794,162.03470786,-52.527529169,62.827640134,2280.0
7.3414682296,-168.8855292,-57.826188678,84.339382266,2290.0
7.4851296237,-139.63154916,-62.442137243,90.645870219,2300.0
10.151931159,-106.76492019,-64.871026129,38.181083526,2310.0
20.907458076,-55.866739371,-46.820880026,21.294038435,2320.0
14.532130513,127.46124697,-49.90888555,176.00163382,2330.0
8.4189554894,166.2298768,-55.72642162,-179.22638006,2340.0
6.7607004127,-161.99791211,-58.090033036,171.91077537,2350.0
7.2469945331,-130.23706622,-58.262425934,157.74669613,2360.0
10.64214256,-91.725052337,-56.406149954,145.74190569,2370.0
22.091136574,5.3342161429,-49.484944064,175.28698456,2380.0
11.412211444,131.27291403,-64.051357422,-151.26599617,2390.0
7.1393059853,171.07093454,-66.464264095,-149.61485914,2400.0
5.9509090877,-157.08439442,-66.1941471,-106.07618124,2410.0
6.5805650384,-125.54270476,-62.680212324,-64.892395212,2420.0
9.9915907119,-87.062872983,-56.106549084,-23.983909437,2430.0
21.311506932,6.4871213496,-44.361230558,65.315360542,2440.0
11.436145358,136.27347663,-56.21369193,-171.85765787,2450.0
7.1889739738,177.25907552,-63.002812831,-125.05699395,2460.0
6.0938204783,-150.1316388,-63.752919867,-81.897218579,2470.0
6.9540227708,-117.50029338,-62.997091309,-69.999785615,2480.0
11.052997922,-75.950290525,-59.922246681,-73.053190184,2490.0
20.674990931,43.802662558,-51.478590187,-7.08465797,2500.0
10.584603132,143.64276268,-62.504187153,29.528474637,2510.0
7.0163569062,-176.96820523,-64.770997796,7.2678131053,2520.0
6.2742989806,-145.22533663,-61.229393807,-2.5689953165,2530.0
7.648362618,-113.01334481,-57.213579649,6.4230713682,2540.0
13.259618723,-72.720929404,-50.25128992,37.007025586,2550.0
21.286372542,103.43904367,-41.728312522,-159.29349458,2560.0
9.8368218044,162.60107511,-54.113166603,-114.0188921,2570.0
6.9031733425,-163.11149129,-58.938612788,-76.108255881,2580.0
6.6620161157,-132.33355257,-61.168313182,-33.953803715,2590.0
8.871920021,-98.844098257,-60.349222561,-0.5732597278,2600.0
17.323815373,-50.467168044,-53.281775426,43.798944112,2610.0
15.790741371,132.61316421,-56.52600428,-122.18687922,2620.0
8.6023571774,176.27044445,-61.462453231,-70.221292125,2630.0
6.7238568374,-151.2009785,-61.622992154,-48.697834474,2640.0
7.2024795111,-120.08613775,-59.531718207,-37.091626032,2650.0
10.806703765,-83.408014498,-54.821977544,-12.264235338,2660.0
25.347311954,14.541174,-41.53206314,65.986533206,2670.0
11.331560227,151.51564664,-64.394566957,-172.10285306,2680.0
6.9844352891,-170.4431336,-67.89558112,-14.938656846,2690.0
5.9671823623,-138.83242256,-61.479883211,22.573303495,2700.0
7.010283473,-105.75452203,-58.260581359,44.07499258,2710.0
11.476993091,-61.640783676,-52.706493437,71.993799411,2720.0
19.369230989,76.743574944,-44.480938553,-162.36207417,2730.0
9.2985347197,159.62336627,-55.588195077,-82.414652858,2740.0
6.1760870694,-162.19945571,-60.753396346,-53.261795331,2750.0
5.6058594866,-129.92156489,-62.179080843,-25.996819911,2760.0
6.8711449633,-94.029343392,-59.893729196,7.6990447708,2770.0
11.528485428,-39.514570788,-54.204939462,38.523170267,2780.0
13.969282176,92.422598375,-53.568974348,126.0258098,2790.0
7.3971119656,163.40218,-66.208356329,109.53848929,2800.0
5.1771972819,-157.24048565,-60.588150385,47.331417307,2810.0
4.9573155459,-122.92301003,-55.002847433,48.783952284,2820.0
6.569896776,-83.369700173,-49.755474391,60.580350014,2830.0
11.893193044,-15.851232934,-41.397860811,104.37551083,2840.0
10.699031598,114.41171713,-42.678373479,-141.72589049,2850.0
5.5882317477,175.0719181,-50.049644071,-91.679410833,2860.0
3.7463424383,-146.20043908,-52.463657504,-59.916231695,2870.0
3.2182786801,-109.32294327,-52.316418557,-24.935478944,2880.0
3.6522517607,-61.299967626,-50.6291617,22.05956044,2890.0
4.707959152,18.29672214,-47.792622539,84.958996118,2900.0
3.3580640092,113.98646303,-48.360452851,155.39957275,2910.0
1.7825253421,175.9823478,-51.379294352,-157.32800753,2920.0
1.05004657,-141.61947725,-55.197296806,-130.57687612,2930.0
0.46446832517,-101.19320991,-58.478936976,-134.52174335,2940.0
-0.85638711587,-45.783728644,-53.348998127,-137.73847818,2950.0
-4.5139845807,45.334004578,-49.686132041,-97.706108932,2960.0
-6.1844977388,142.2296296,-51.50388166,-61.676486306,2970.0
-6.575873807,-164.94761543,-53.095947874,-42.124110762,2980.0
-8.1311797198,-141.09848485,-52.701083324,-27.904560321,2990.0
-8.4534898723,-137.1093155,-52.176744574,-8.4940332284,3000.0
-7.2609675847,-123.54632804,-51.537556428,15.686375188,3010.0
-7.6341543308,-98.141582838,-50.129491231,44.168153202,3020.0
-10.629189151,-62.963903332,-48.817247724,88.179907843,3030.0
-16.285900404,19.795014554,-50.718864162,141.75171762,3040.0
-8.3959268621,123.31278298,-54.013064199,-174.35209504,3050.0
-2.8452710174,175.37886978,-55.784037052,-136.87871002,3060.0
-0.62290279858,-143.22192667,-57.409442374,-111.07769822,3070.0
0.45825104589,-104.14560412,-57.801686699,-97.141224357,3080.0
1.7312367456,-54.259818139,-53.893215432,-91.753638863,3090.0
4.3056002166,30.554456717,-47.558410678,-67.001233124,3100.0
4.2823891894,134.32304824,-45.880818898,-19.653021266,3110.0
2.9972681738,-165.06401561,-47.004104541,3.8657314405,3120.0
2.7052214744,-125.00665373,-46.372065484,23.272994743,3130.0
3.4117781291,-86.837226525,-44.562930462,55.434323234,3140.0
6.0887379745,-35.884397179,-43.838060794,98.419673583,3150.0
10.96629927,61.39699166,-41.945600837,163.37765065,3160.0
7.6754710594,160.87853329,-48.356694113,-130.75925291,3170.0
5.3257665686,-150.16999034,-53.893655454,-99.910703612,3180.0
5.0264349134,-114.02164543,-56.798022311,-80.645825056,3190.0
6.6044106743,-76.252472644,-56.585504018,-70.15449544,3200.0
12.321989641,-19.152574835,-51.899537049,-46.42558023,3210.0
14.141048422,124.45416111,-54.05711445,68.961313343,3220.0
7.5922993784,-171.97461472,-70.668964065,132.86125184,3230.0
5.6404537056,-135.24304012,-71.241682786,-73.371654777,3240.0
5.7124510385,-103.46567553,-65.845900332,-16.637141064,3250.0
7.9524259083,-68.749148263,-62.325309219,42.632429794,3260.0
15.887745636,-16.081948216,-53.812270898,84.775154328,3270.0
15.299255044,153.42426925,-53.942552885,-124.75304694,3280.0
8.4599385547,-157.996214,-61.538410488,-84.260881466,3290.0
6.663734887,-124.82018589,-63.649318829,-58.979325535,3300.0
7.2069604019,-94.110596507,-63.94955632,-45.824910015,3310.0
10.692009969,-59.844509361,-63.051950859,-26.476892885,3320.0
25.905352362,3.7426328944,-51.573529841,85.523298568,3330.0
13.219095522,178.4887876,-58.643455961,-76.16305089,3340.0
8.2914552906,-146.52814267,-60.834779743,-36.935709692,3350.0
7.1044435431,-117.49923993,-60.413334909,1.3970498417,3360.0
8.1335838181,-89.640527868,-61.115270528,44.02537556,3370.0
12.568452497,-61.440128743,-58.298930299,75.929344668,3380.0
29.581458306,-120.84142664,-42.210473736,6.8932693985,3390.0
12.544990575,-157.82439308,-60.656582081,-30.161357417,3400.0
8.7633683196,-131.32418394,-66.105731546,10.283733482,3410.0
8.2984159065,-105.36973698,-66.470133681,52.543417099,3420.0
10.295944985,-80.103214878,-61.393504565,76.716524058,3430.0
17.087686709,-63.70638829,-52.650016232,80.275587376,3440.0
19.112466976,-153.69708157,-51.14933352,-16.583626756,3450.0
11.122137265,-144.60131193,-62.226039585,-11.023701878,3460.0
8.7239026085,-121.19850535,-67.27893513,33.425085193,3470.0
8.9663040413,-97.041014159,-76.18374596,117.90737179,3480.0
11.923644417,-75.190070939,-71.639640021,-179.08214332,3490.0
19.943602625,-86.347581903,-61.776979117,179.36102953,3500.0
14.768595382,-144.02167821,-64.161527364,111.44920146,3510.0
10.084356475,-128.98085763,-67.939272252,110.95594426,3520.0
8.9734057311,-106.45827302,-67.955762366,115.83373483,3530.0
10.173070572,-83.630877563,-65.517660724,120.23917027,3540.0
14.785241335,-65.947229359,-59.493888971,136.70298931,3550.0
22.062381108,-123.99464173,-51.15393891,90.245230091,3560.0
12.762035452,-144.0492089,-61.302820202,80.567180726,3570.0
9.3665123988,-123.35335854,-66.526430548,112.20044455,3580.0
8.8836835046,-99.383871651,-70.600115834,153.9001747,3590.0
10.820655954,-76.763436077,-75.662604075,-165.80336622,3600.0
17.0732017,-68.425574528,-69.58134129,-122.48283495,3610.0
17.663100319,-136.73242513,-65.324436869,164.92648622,3620.0
11.27616452,-132.38510985,-68.901913603,155.74180217,3630.0
9.1689919889,-111.30126685,-70.722516319,141.05427536,3640.0
9.3611148644,-88.46624871,-71.601047742,129.39030534,3650.0
12.117684748,-67.198046179,-67.900300511,135.83343347,3660.0
20.335959903,-71.446281666,-61.808917535,174.95610235,3670.0
15.88777049,-142.13597666,-66.350149167,126.28324424,3680.0
10.53294312,-126.52909646,-70.65121791,145.57644787,3690.0
9.1588438167,-102.47455161,-71.495053732,175.40508198,3700.0
10.351545476,-78.878173256,-71.396006761,-150.82755803,3710.0
15.261388692,-63.975292441,-66.895339562,-129.6184506,3720.0
19.918409885,-124.13067935,-60.064113839,172.5465556,3730.0
12.14484446,-133.2225881,-64.896900632,161.21950777,3740.0
9.2766252641,-112.11026042,-68.431753632,166.07096007,3750.0
8.9503638881,-88.009207072,-71.101648345,149.60134898,3760.0
11.117372682,-63.57217819,-68.274967815,136.06522903,3770.0
19.076077497,-49.851662852,-60.36871508,142.3335324,3780.0
17.593271375,-147.31113131,-62.560006155,44.744667234,3790.0
10.592753159,-128.41777359,-69.994823259,52.903481877,3800.0
8.6475738057,-101.52543533,-71.114867932,61.125247782,3810.0
9.3878473437,-74.086219329,-70.891761299,62.011928088,3820.0
13.93494405,-46.593500481,-64.321581848,47.526194694,3830.0
29.163550656,-136.06685955,-45.965902551,-74.743808733,3840.0
12.313213892,-147.01884165,-60.600653593,-107.35349266,3850.0
8.3868034351,-118.38786691,-65.106588466,-74.161134868,3860.0
7.4489744178,-90.076572775,-67.447190131,-20.578072433,3870.0
8.75050709,-60.024507972,-65.213897142,61.190209611,3880.0
14.319304231,-23.401189597,-60.655101717,143.38597011,3890.0
23.052602022,162.04846344,-54.326309093,-27.690757346,3900.0
10.696916916,-143.77289119,-71.081048557,25.848999007,3910.0
7.6926672131,-109.43056012,-75.419786543,72.711817512,3920.0
7.5033986613,-77.654850448,-75.480683976,121.13267209,3930.0
9.9384347252,-42.537487758,-70.397547949,163.56413616,3940.0
18.845605971,15.703847649,-57.457852301,-161.14720858,3950.0
14.810515013,177.76035617,-57.421726297,-29.866051722,3960.0
8.4999724945,-135.85546977,-60.462941707,24.020843203,3970.0
6.6317751131,-101.85243189,-64.369659847,98.325654071,3980.0
6.9335625205,-69.296192868,-65.870612358,162.02280141,3990.0
9.9186828096,-30.518867971,-65.919383997,-144.79262164,4000.0
19.585661216,47.593184177,-57.474757751,-72.999574589,4010.0
12.654699433,-169.96140119,-65.828194839,59.044032722,4020.0
7.7913218915,-124.46202812,-70.383530864,95.970739557,4030.0
6.5786418019,-89.513915672,-71.07708441,130.8203941,4040.0
7.4936096411,-54.404740878,-69.323160978,161.98692028,4050.0
11.433106096,-8.1792222377,-64.530066493,-154.12948762,4060.0
18.090804839,104.55276662,-55.131579207,-24.346720642,4070.0
10.354994559,-160.8747836,-64.415953968,98.89428892,4080.0
7.0599008633,-117.88604947,-72.1915902,140.03517685,4090.0
6.5544669217,-82.622578556,-73.308003882,169.11224566,4100.0
8.2230154255,-45.292323783,-73.162950327,-164.05037544,4110.0
14.276490144,8.0371210054,-66.874993114,-123.89725148,4120.0
16.437096353,159.9324407,-67.479371305,11.011867373,4130.0
8.9048609344,-137.97005178,-78.709154156,93.937698149,4140.0
6.6936510601,-99.881510894,-75.203345055,161.08466485,4150.0
6.8552496641,-64.713455355,-68.918417658,-162.84967456,4160.0
9.3905220806,-23.458596324,-61.297258675,-143.1891852,4170.0
16.71183489,51.691561671,-49.283263905,-89.927755524,4180.0
12.663931446,-178.28225035,-54.157166934,38.754181744,4190.0
7.9077448116,-127.15824658,-63.25085325,81.89416245,4200.0
6.6643413433,-89.915961626,-67.360886413,113.33944014,4210.0
7.5516133841,-53.93309234,-68.588655291,141.52450072,4220.0
11.663427769,-8.5884791553,-66.903431365,172.81184954,4230.0
19.738208927,112.09457024,-60.691766654,-104.22709289,4240.0
10.564666113,-152.51626856,-72.217090097,-56.293325963,4250.0
7.2268308841,-110.77457491,-78.581066843,-67.655900163,4260.0
6.682950463,-75.473466482,-77.976364503,-108.24279287,4270.0
8.2867426196,-38.331533197,-70.881777414,-128.4008502,4280.0
13.979761781,14.523423944,-57.898988658,-88.940036113,4290.0
16.702869281,156.43547363,-54.406431554,70.157767468,4300.0
9.4358077259,-137.37170736,-65.101521372,116.93574465,4310.0
7.1610645459,-97.973117732,-69.373134451,138.54969745,4320.0
7.3386239126,-62.371792361,-70.492932635,162.06924701,4330.0
10.09560045,-21.379371569,-68.139442023,-170.15327008,4340.0
18.255023448,56.941665077,-60.094849176,-107.80600322,4350.0
12.925812078,-172.10069929,-65.458511878,18.024352481,4360.0
8.1662328187,-122.95934963,-66.652399387,76.300156402,4370.0
6.8774640173,-86.456613942,-62.076369322,114.92546118,4380.0
7.7610626437,-50.973264225,-56.457144769,151.23803548,4390.0
11.869451192,-7.6368782999,-49.983286155,-147.81483549,4400.0
21.183565718,107.90238462,-43.469536683,-26.696366055,4410.0
11.599520706,-149.54807555,-56.672704068,61.331917822,4420.0
8.0337037467,-107.87167059,-62.423976933,87.52454214,4430.0
7.5115627629,-72.831158435,-64.272978278,120.40352334,4440.0
9.3831159603,-36.183170977,-63.53011604,153.89289161,4450.0
16.14588865,16.882118641,-58.91723651,-155.01577038,4460.0
17.161449549,171.9350561,-57.211493814,16.473694251,4470.0
9.7230071787,-130.89865403,-60.439937767,91.977277776,4480.0
7.5784633234,-93.642655001,-59.422811855,132.78578226,4490.0
7.9440912223,-59.268705562,-57.393566604,163.78693782,4500.0
11.265504775,-20.145071256,-52.482931708,-159.66362009,4510.0
22.779098659,61.08154099,-40.551946362,-73.557624822,4520.0
13.518313593,-154.52969144,-52.312269123,73.501380901,4530.0
8.7295085168,-112.01019342,-59.511403188,115.55109985,4540.0
7.6370720528,-77.149718228,-62.173490411,155.50969393,4550.0
8.9335785418,-41.550243915,-62.838273054,-159.37663342,4560.0
14.05007301,6.0948170131,-59.311224062,-117.62803824,4570.0
19.600449239,146.30526921,-53.99049651,8.0864701912,4580.0
10.645282432,-139.74600668,-63.345033664,65.142993626,4590.0
7.7497243944,-100.2376536,-66.879336595,93.074249062,4600.0
7.5928268041,-65.152859057,-68.194152469,122.82649404,4610.0
9.8590974509,-26.862496932,-65.041821818,174.82352062,4620.0
17.283733493,34.631136655,-58.750069949,-97.336486694,4630.0
15.274553353,-179.30918357,-67.266047614,39.090311479,4640.0
9.0480988374,-126.19420241,-83.458378376,110.69168423,4650.0
7.1330932641,-88.949422799,-99.004713426,157.53443601,4660.0
7.4785017176,-53.301074987,-85.029496272,-31.854770764,4670.0
10.30014862,-10.273289246,-76.287854901,-12.556821462,4680.0
17.168092095,73.548927363,-64.671567276,74.510197655,4690.0
12.128560623,-169.6147366,-63.937217944,-173.73527575,4700.0
7.80404898,-120.15534779,-61.31610492,-104.62419539,4710.0
6.5794698542,-82.735016833,-63.286564074,-16.714298862,4720.0
7.3238574781,-46.132419771,-66.142326913,37.578577121,4730.0
10.696897329,-0.2248313732,-63.779640853,90.461690821,4740.0
16.974981408,96.765093537,-59.368074909,173.49078452,4750.0
10.860288543,-160.74891291,-67.751844346,-113.20580003,4760.0
7.1694028987,-113.59616549,-69.7329528,-96.947850586,4770.0
6.2175375008,-75.72883772,-66.591603051,-84.504268951,4780.0
7.1103096149,-36.855702258,-61.671873436,-59.228038828,4790.0
10.569062751,15.540619523,-51.125515008,-16.217925674,4800.0
14.08522161,119.98414506,-36.86384759,136.80125691,4810.0
8.973034313,-155.07313875,-53.383010653,-89.653582145,4820.0
6.2573549606,-108.1005096,-62.450886885,-56.144527658,4830.0
5.7416469661,-69.15146686,-66.483932763,-40.577732521,4840.0
7.0268466111,-26.66606585,-67.374045677,-20.497059326,4850.0
11.060408643,38.41752891,-65.046450791,1.2364649704,4860.0
11.055781504,154.29783331,-62.848827591,52.531885513,4870.0
6.2511373489,-134.91573525,-62.04103625,88.6486354,4880.0
4.1692007956,-87.696164241,-55.117965527,121.98611065,4890.0
3.5022636685,-42.4247747,-49.073416434,-147.76043293,4900.0
3.2561763936,16.170096356,-50.344247335,-73.06697384,4910.0
1.5299488904,97.061207499,-49.817358242,3.1701127262,4920.0
-0.91551041331,175.53021117,-54.248057269,75.269034836,4930.0
-1.9906463961,-126.72705305,-59.113756858,114.58025624,4940.0
-2.7295622438,-80.300876283,-59.036906222,142.33538888,4950.0
-4.6327501785,-30.1140123,-56.120496388,176.62326588,4960.0
-11.034403444,55.516977888,-52.763119006,-127.57208906,4970.0
-8.5900925665,-147.14351665,-52.32344063,-74.742302642,4980.0
-4.1596520785,-73.588181133,-51.866548874,-32.396656777,4990.0
-2.105452859,-3.8184316581,-46.518710717,10.23688403,5000.0
1.2246891273,92.821200789,-37.393627542,101.25383186,5010.0
3.0930954594,-168.24899955,-38.648171535,-132.41966981,5020.0
3.0063451928,-105.10007816,-43.570841792,-36.838554604,5030.0
3.4371364974,-57.393471411,-51.220382172,12.550042667,5040.0
5.1168172142,-5.8857204823,-53.719866887,32.959014948,5050.0
8.3260398723,68.488129353,-51.853149354,71.100837917,5060.0
8.4549474584,163.16348447,-52.017431243,139.2585,5070.0
6.4479410947,-133.36283593,-53.865528132,-171.93075647,5080.0
5.9588916234,-90.069808524,-54.809146367,-136.90726194,5090.0
7.2030289519,-52.26659699,-51.919452447,-118.6802476,5100.0
11.581758499,-11.138656705,-41.520345264,-123.99989256,5110.0
26.051916653,103.53028732,-28.375065798,-156.60902382,5120.0
12.46005787,-138.02037961,-51.225975432,-84.111463382,5130.0
8.5738933618,-99.368453178,-58.555475262,-57.023061586,5140.0
8.0150738019,-65.899683943,-57.967390144,-26.469613514,5150.0
9.961205888,-31.821481926,-54.405256544,-19.641528096,5160.0
16.822067328,11.2703405,-46.673036401,-10.831009241,5170.0
20.726884285,-175.90678282,-41.434933404,130.07324053,5180.0
11.569457259,-125.34044649,-48.90260742,161.13225221,5190.0
8.9996810676,-92.216674772,-50.046336615,-170.34504493,5200.0
9.0902768599,-62.200131771,-48.46881221,-143.67330422,5210.0
12.00874396,-32.113981655,-40.646906075,-92.286553977,5220.0
23.170631891,-3.5745951089,-35.908098387,-19.49753783,5230.0
17.159203447,-141.6377959,-47.347354147,-177.42071483,5240.0
10.627711047,-112.00476543,-54.221514572,-172.04057574,5250.0
8.7437945891,-83.921303442,-54.435115709,-154.11247103,5260.0
9.0552378342,-57.355670687,-53.565094421,-123.49245038,5270.0
