S11m,S11p,S21m,S21p,Frequency
8.1421411737,162.0945494,-73.043545361,3.6508050395,2000.0
7.4282500582,-167.13384901,-74.584718443,-45.82705007,2010.0
8.8908043169,-135.29434808,-74.595563718,-85.507454767,2020.0
14.711586472,-96.65715006,-73.0246548,-143.2344276,2030.0
22.303315465,89.005119336,-71.371364422,137.39390214,2040.0
10.723456822,140.53139644,-68.802839411,52.473896879,2050.0
7.8627423714,174.37952659,-65.988083658,-20.04428864,2060.0
7.6891251946,-154.23776402,-64.810575179,-84.44528003,2070.0
10.05997064,-120.77913352,-65.185126185,-144.17428375,2080.0
18.765260932,-74.937695561,-66.099612909,155.19279585,2090.0
17.220809869,107.30000376,-68.151773497,85.966180222,2100.0
9.8768511277,148.80483995,-70.400701787,11.558140274,2110.0
7.7741600643,-179.86825573,-72.856733205,-61.342968699,2120.0
8.0222323395,-150.32966161,-76.258865562,-131.55981752,2130.0
11.111408407,-119.57863541,-81.03957304,141.04956964,2140.0
24.634709985,-95.50824635,-81.138422179,15.7163075,2150.0
14.712120075,138.04711641,-78.011745387,-49.923961589,2160.0
9.2377254049,168.20887842,-78.655487048,-81.308503834,2170.0
7.9593922582,-162.89545531,-75.659587268,-78.548312919,2180.0
9.0816963489,-133.78005963,-70.10811505,-115.15908562,2190.0
13.975104464,-102.44453779,-67.501887971,-163.19998841,2200.0
31.671125781,119.193006,-66.355692717,146.39419764,2210.0
12.362476981,146.42253109,-65.942021001,91.132843543,2220.0
8.6275028624,176.66129528,-65.877604366,34.838469221,2230.0
8.0551383109,-154.39998036,-65.700235178,-19.245762544,2240.0
10.128134036,-124.08695288,-66.029579292,-71.177267259,2250.0
18.629714772,-92.642698211,-66.104072807,-113.73378989,2260.0
17.307604344,130.73042635,-66.19278506,-155.50276025,2270.0
9.4562028814,161.71606561,-67.350081685,158.34821747,2280.0
7.2805980423,-168.92564638,-70.118229076,110.60924335,2290.0
7.4198597665,-139.55756199,-75.459822662,53.267329004,2300.0
10.096465114,-106.40777569,-81.015281844,-58.802464359,2310.0
20.767781347,-53.838404629,-74.1264931,-167.67791555,2320.0
14.43689045,126.83168049,-70.441777529,124.46753623,2330.0
8.3455745859,166.02856279,-69.126490173,50.606371461,2340.0
6.7050999965,-162.05379345,-69.359008636,-29.048523111,2350.0
7.1923458285,-130.09149362,-70.233139398,-113.43148948,2360.0
10.571232389,-91.289106143,-72.371057768,162.86448533,2370.0
21.681548492,6.5335730951,-77.106857537,71.47635478,2380.0
11.303803738,130.85526413,-81.914613809,-50.217992164,2390.0
7.0573622647,170.95484211,-78.924887908,-126.64957438,2400.0
5.8891946642,-157.12930316,-77.143875577,-161.43873387,2410.0
6.5274833683,-125.35751614,-74.159703453,169.40308486,2420.0
9.9137338655,-86.55619839,-71.989264912,130.65341857,2430.0
21.003742796,7.8361255303,-71.989327183,88.455788065,2440.0
11.315760593,135.88123096,-73.741154278,51.794683637,2450.0
7.1157549465,177.1736698,-75.640831006,25.21176076,2460.0
6.0306990826,-150.08946833,-75.301028363,-6.9878300986,2470.0
6.8919911221,-117.21085903,-74.840897533,-61.340607522,2480.0
10.968510039,-75.13971441,-76.123448,-140.16520995,2490.0
20.244799424,44.607030083,-78.193170304,137.93027963,2500.0
10.435550525,143.26958804,-79.663631415,37.461862043,2510.0
6.9396433875,-177.04576567,-76.769413584,-71.915201658,2520.0
6.2025621422,-145.05447835,-72.525584188,-152.65661347,2530.0
7.5754424128,-112.70411485,-70.683679274,146.3818335,2540.0
13.186139802,-71.661748402,-70.038139154,100.83255897,2550.0
20.85583665,101.6890889,-69.353640644,58.679745573,2560.0
9.7086300347,162.23718109,-70.148395053,16.379653492,2570.0
6.8185757576,-163.12983101,-71.8262169,-20.01725757,2580.0
6.5845293159,-131.97492529,-73.105143362,-52.157389882,2590.0
8.7832974316,-98.187913956,-74.23082407,-88.407554334,2600.0
17.240366657,-47.872794094,-76.949794655,-125.26298762,2610.0
15.518562503,130.9939494,-79.07022665,-150.39184903,2620.0
8.4881612664,175.99403197,-76.745059444,-174.93361017,2630.0
6.6287590299,-151.18559954,-73.71706275,131.34060413,2640.0
7.1209215843,-119.79579566,-72.931628429,78.983362319,2650.0
10.719728104,-82.434203727,-73.023490325,30.84953976,2660.0
24.474036363,19.096063584,-74.052781762,-22.616549607,2670.0
11.12772185,150.59774363,-81.793249207,-65.576688796,2680.0
6.8713549591,-170.53714369,-80.571810027,6.1079596222,2690.0
5.8572599778,-138.6401639,-73.227770495,-28.186621309,2700.0
6.9140580984,-105.34217484,-70.781941242,-76.934106907,2710.0
11.371591108,-60.153356694,-70.725126965,-122.32281835,2720.0
18.70371646,76.479895298,-71.681086482,-164.21593644,2730.0
9.1046359268,159.27699446,-72.836542773,155.88674847,2740.0
6.0537798199,-162.19369344,-73.960673947,114.31140141,2750.0
5.5036737127,-129.58367337,-75.245548228,69.821068001,2760.0
6.7661968976,-93.253620264,-75.17821041,25.10847279,2770.0
11.37384604,-37.195634453,-74.625269809,-35.286597377,2780.0
13.413381002,92.746245509,-76.653025056,-107.47562673,2790.0
7.1617363731,163.58904528,-83.93783351,129.40544516,2800.0
5.0155750358,-156.92529744,-74.534570868,-11.058448986,2810.0
4.8433260595,-122.34937392,-68.305053807,-83.607765107,2820.0
6.4567011117,-82.067901313,-65.810529497,-146.21435166,2830.0
11.661744626,-12.582056313,-65.005557361,158.785858,2840.0
10.194601785,115.22783712,-65.467849146,107.30175003,2850.0
5.3501689042,175.7773203,-66.22122216,61.103482648,2860.0
3.5707836968,-145.26303946,-66.72977208,18.566192731,2870.0
3.0582722963,-107.91543636,-67.42326838,-26.05680887,2880.0
3.420623941,-58.597195075,-67.958418773,-67.526075646,2890.0
4.2232627283,22.744085378,-67.914916804,-110.72417723,2900.0
2.8297167765,117.29366409,-68.108076119,-158.46940083,2910.0
1.4647409742,178.02892334,-69.107781689,146.56942107,2920.0
0.82295941805,-139.76688768,-71.883121936,83.642193744,2930.0
0.20013811289,-98.763002481,-75.804515466,-6.6839144081,2940.0
-1.345379502,-41.238428011,-73.25948252,-109.96318948,2950.0
-5.2169743827,54.682664125,-69.729133459,170.77042038,2960.0
-6.2216990256,151.19598447,-68.381093794,101.7853264,2970.0
-6.6114841745,-157.47567789,-68.127148161,33.218339999,2980.0
-8.8315559509,-133.40998352,-68.029983556,-41.409817476,2990.0
-9.9305440813,-137.03149874,-68.001464291,-116.47872512,3000.0
-8.0876589181,-129.29090758,-67.626457369,173.89478226,3010.0
-7.899860221,-106.21322477,-67.664011415,109.91027225,3020.0
-10.190491269,-75.048220696,-68.720170614,49.819192638,3030.0
-16.056266462,-7.3059982481,-70.615171844,-9.2336774938,3040.0
-9.4845723378,113.94803938,-73.096279795,-68.63442406,3050.0
-3.1106764682,171.09073921,-73.616134437,-138.76794876,3060.0
-0.71262552677,-145.69927195,-72.72538207,147.15001858,3070.0
0.37229006525,-106.16799745,-71.028918604,75.712018844,3080.0
1.5570136357,-56.599845328,-68.202364426,-0.21948779725,3090.0
3.9751715806,26.786264162,-65.76838167,-77.002254837,3100.0
4.138654616,131.40774501,-63.784246727,-151.40757226,3110.0
2.8954965433,-166.70494409,-62.713680293,139.5385044,3120.0
2.6057368606,-126.17537785,-62.548846478,75.952422379,3130.0
3.2661920267,-87.982959928,-62.994935919,15.842349954,3140.0
5.8386906032,-37.320886418,-63.960696057,-44.88161023,3150.0
10.687421727,58.259725729,-64.824847567,-106.38758329,3160.0
7.6613675429,159.36945465,-65.777580823,-170.13436025,3170.0
5.2801828559,-150.92034409,-66.749289671,130.25013838,3180.0
4.967836994,-114.47229001,-67.448397764,74.109103525,3190.0
6.4735134276,-76.554686232,-68.651151223,18.428888733,3200.0
12.034115478,-19.796638796,-71.117017422,-36.13567307,3210.0
14.073507374,122.17143915,-75.938242828,-83.768471334,3220.0
7.5777841358,-172.84526785,-85.620758574,-116.33936919,3230.0
5.5953946732,-135.64873279,-87.919870349,-48.854657383,3240.0
5.6506271394,-103.74874425,-81.076260444,-71.454264917,3250.0
7.8427413619,-68.828521835,-78.74857961,-112.46864009,3260.0
15.583314876,-16.195177661,-75.726565758,-150.21244806,3270.0
15.306199495,152.1296056,-74.7580633,164.01793162,3280.0
8.4463721582,-158.49084276,-74.203483469,127.00660151,3290.0
6.6293489633,-124.92203808,-73.928738299,84.248759188,3300.0
7.1351638765,-94.174605641,-74.313769353,39.158880641,3310.0
10.600915873,-59.664302766,-78.204569908,-4.2072482363,3320.0
25.234349413,5.2907375956,-82.398013394,11.375201824,3330.0
13.227783011,177.738048,-77.958602626,2.6943172508,3340.0
8.261760314,-146.84196012,-75.609409518,-28.995133711,3350.0
7.0645166951,-117.53062197,-74.580850845,-67.82365781,3360.0
8.0623863465,-89.564342845,-74.807014256,-104.24584117,3370.0
12.495997479,-61.283403228,-75.783378514,-135.44972281,3380.0
30.335823844,-120.70547273,-76.541061318,-167.49968968,3390.0
12.582496097,-158.16517393,-77.86296987,162.88238098,3400.0
8.726257846,-131.35495861,-78.641873424,144.34133288,3410.0
8.2525014374,-105.39403714,-77.345377668,132.14902709,3420.0
10.254011317,-79.794280282,-75.025411715,99.560479381,3430.0
17.031687284,-62.817225108,-74.188535107,54.512344542,3440.0
19.175859452,-154.62480827,-75.590725627,13.175607414,3450.0
11.111279788,-144.92652344,-79.196315591,-27.181734745,3460.0
8.6768767315,-121.14562303,-82.857121763,-51.228539967,3470.0
8.9019658932,-97.122207841,-90.039289094,-64.125280443,3480.0
11.917509022,-75.061582051,-87.945671609,-40.023120741,3490.0
20.051383799,-85.138211974,-84.652869168,-56.065161005,3500.0
14.771929019,-144.09660658,-82.750872607,-87.911371747,3510.0
10.036533371,-129.09467024,-80.324724972,-130.94059667,3520.0
8.9399450227,-106.44703777,-78.809612403,173.10249293,3530.0
10.119225478,-83.43145578,-78.719493074,124.39036162,3540.0
14.757213759,-65.671810352,-79.377005498,90.1852782,3550.0
22.262678982,-124.4831244,-79.619349223,61.557759004,3560.0
12.757123975,-144.09383234,-79.545621634,28.462020709,3570.0
9.2965442057,-123.42960128,-80.742857142,2.0435518153,3580.0
8.8587453565,-99.577577391,-83.904241132,-28.59189454,3590.0
10.803466997,-76.447519602,-86.204039803,-34.595055941,3600.0
17.011226367,-67.743617602,-87.926136221,-23.596714364,3610.0
17.6300614,-136.97924886,-84.097005673,-40.820172152,3620.0
11.246752182,-132.5257049,-81.331209996,-94.232196955,3630.0
9.1192665247,-111.23441355,-82.283560458,-167.9012183,3640.0
9.3128109764,-88.478326034,-84.451110363,124.17141522,3650.0
12.113723374,-66.894281424,-86.393686871,63.870858877,3660.0
20.34896486,-70.046644738,-88.970471208,49.879144727,3670.0
15.843582502,-142.01484094,-84.918721388,37.238832773,3680.0
10.478805765,-126.78089029,-82.853693214,17.429906002,3690.0
9.1550497787,-102.3878837,-82.301564214,-13.604436807,3700.0
10.311802329,-78.533710144,-82.606870384,-35.874090563,3710.0
15.222009577,-63.713627756,-83.12779671,-50.880640276,3720.0
19.981014089,-124.57895234,-82.158573492,-67.923130854,3730.0
12.116518206,-133.25193508,-80.237494929,-104.31728522,3740.0
9.2291702342,-112.21320386,-82.504545176,-164.15959172,3750.0
8.9460760399,-88.025012885,-86.315856192,113.4561747,3760.0
11.092497062,-63.045526215,-85.544748451,29.079488593,3770.0
18.977890567,-49.249464455,-86.076812029,-20.033579156,3780.0
17.527192346,-147.80878807,-84.597520667,-61.477688691,3790.0
10.578727311,-128.81403488,-83.908651441,-97.407133051,3800.0
8.6275862045,-101.43352435,-82.813711373,-147.58904997,3810.0
9.3502806569,-73.982447601,-82.7816587,149.81355363,3820.0
13.927778941,-46.176203014,-80.933237918,91.25595054,3830.0
29.469153267,-137.36095694,-78.469988708,28.671846539,3840.0
12.245823594,-147.24030784,-78.010903775,-24.12756689,3850.0
8.3560423959,-118.6511871,-79.675409233,-66.395259762,3860.0
7.4494884732,-89.990408418,-83.079885227,-83.297421123,3870.0
8.6931953191,-59.793101499,-84.498221783,-84.991837589,3880.0
14.302903941,-23.290515654,-82.562525759,-97.330463616,3890.0
22.816825106,161.13879608,-83.239913208,-126.1323481,3900.0
10.668369914,-143.97711468,-85.21278862,-142.2893965,3910.0
7.6542514323,-109.48934388,-85.184473925,-141.36002285,3920.0
7.4844961569,-77.668830035,-83.624015098,-157.63644089,3930.0
9.8957451087,-42.357001714,-82.919490159,172.53943479,3940.0
18.810780856,15.870075695,-80.741244092,130.31660062,3950.0
14.675976604,177.43468487,-80.253912143,64.390153628,3960.0
8.4824532565,-136.04129104,-81.286278811,13.740634438,3970.0
6.5993026935,-101.74304065,-83.037677779,-20.779652268,3980.0
6.8857766379,-69.322743822,-82.199459842,-48.060420831,3990.0
9.9016716313,-30.38022656,-81.241067861,-65.308224855,4000.0
19.434636175,48.150277243,-80.323895522,-92.465223254,4010.0
12.592621443,-170.14513421,-80.436653004,-111.32237192,4020.0
7.7577562944,-124.60955777,-79.423657011,-138.62150607,4030.0
6.5487407311,-89.45180795,-79.764704989,-165.42669238,4040.0
7.4424213508,-54.384816538,-79.279741215,161.39936272,4050.0
11.417650954,-8.0510908048,-80.872349385,118.98475084,4060.0
17.863930918,104.42212728,-85.120504394,86.698008661,4070.0
10.331877471,-161.01738641,-86.245200551,48.225189645,4080.0
7.0082553223,-117.9278689,-86.946264886,-1.228142052,4090.0
6.5224285973,-82.708486799,-86.740981478,-51.084835883,4100.0
8.1869749781,-45.168091601,-84.466547663,-86.625146424,4110.0
14.21956653,8.2631911761,-84.785646947,-124.99539452,4120.0
16.324253227,159.56563589,-86.793204909,-158.78512631,4130.0
8.878592607,-138.0927237,-89.425302247,-158.69968923,4140.0
6.6473825268,-99.839188568,-84.280811986,-150.04351337,4150.0
6.8203928516,-64.806142824,-79.791370013,163.37735138,4160.0
9.3617174514,-23.233312605,-76.930958269,103.51836607,4170.0
16.55996881,51.765012963,-77.034665708,38.435748516,4180.0
12.601438052,-178.43233347,-78.558790184,-28.19928153,4190.0
7.857639129,-127.38598004,-79.3857618,-83.849547547,4200.0
6.6379555123,-89.976234169,-79.573899776,-129.11365145,4210.0
7.5061220395,-53.956818703,-80.452662396,-174.92196918,4220.0
11.625204765,-8.5212495496,-80.15452741,144.91860033,4230.0
19.596121893,111.45203497,-81.341617585,92.39230084,4240.0
10.528755313,-152.56667332,-84.437367809,30.290132883,4250.0
7.1760393399,-110.89813045,-86.422198146,-59.185776716,4260.0
6.6698437865,-75.512621016,-86.621159501,-169.85441214,4270.0
8.2395380725,-38.108525473,-85.975687265,108.95016543,4280.0
13.887714421,14.581738966,-83.886052749,33.119266263,4290.0
16.598357387,155.99741746,-81.087909941,-31.037103441,4300.0
9.4125041036,-137.64564446,-79.436159479,-82.338196885,4310.0
7.1295758422,-98.056446398,-78.057969085,-129.43915738,4320.0
7.3217669004,-62.503333043,-77.44600444,-168.05839249,4330.0
10.066224673,-21.196482616,-76.437886288,155.20366194,4340.0
18.1412514,56.641936921,-77.728480572,122.05192473,4350.0
12.845703031,-172.16106934,-78.400641711,104.83287823,4360.0
8.1328012773,-123.27372298,-75.853123712,85.152896534,4370.0
6.8608421951,-86.471943355,-72.188607637,47.497038043,4380.0
7.7144711661,-51.003063697,-70.127900813,-0.71730142073,4390.0
11.84885913,-7.6120146978,-69.876661596,-46.666541972,4400.0
21.000576095,107.84879991,-70.048968946,-90.032573433,4410.0
11.548528062,-149.72253142,-70.524040127,-129.47507457,4420.0
7.9938525159,-108.09061882,-71.083683892,-165.8326526,4430.0
7.4982232202,-72.859006154,-72.138626961,159.14758673,4440.0
9.3324196873,-36.122947701,-73.796052602,129.21446097,4450.0
16.118307229,16.734982003,-75.52310772,105.00769223,4460.0
17.013241404,171.49389195,-76.282377271,94.746138095,4470.0
9.71075386,-131.12926105,-73.027742145,80.062521132,4480.0
7.5339971396,-93.65885801,-70.375895551,38.328143657,4490.0
7.9030159348,-59.373890605,-69.419373022,-2.5899466118,4500.0
11.229787829,-19.990070202,-69.428739929,-42.894783522,4510.0
22.657896228,61.059806078,-69.989308125,-82.917492875,4520.0
13.446271785,-154.79653736,-70.817770081,-117.54062057,4530.0
8.7097297564,-112.22424021,-71.798452958,-151.13549669,4540.0
7.6036619524,-77.065906755,-72.60971768,175.01055034,4550.0
8.8768952992,-41.655461095,-73.732271995,147.65843547,4560.0
14.046413271,6.2734452584,-74.166245643,118.67601548,4570.0
19.456168578,145.56460753,-74.416988344,79.577315524,4580.0
10.607225935,-139.81388939,-75.93898413,37.004348564,4590.0
7.709644418,-100.35776559,-77.973105588,-10.554964557,4600.0
7.5701643648,-65.129186675,-80.428211951,-43.835523292,4610.0
9.8033702885,-26.68554494,-82.915741398,-80.172173714,4620.0
17.20449604,34.974066517,-83.897136311,-127.90522884,4630.0
15.168815502,-179.95296499,-87.372153509,-162.81494635,4640.0
9.0343543153,-126.27366788,-92.096744048,173.83306699,4650.0
7.0819708895,-88.939839248,-110.82746501,-55.330485224,4660.0
7.4561093041,-53.367029464,-93.552130269,-65.426077046,4670.0
10.274396359,-9.8598130045,-85.758432263,-118.21736292,4680.0
17.01296272,73.787409503,-82.391682234,-137.43488912,4690.0
12.02529643,-169.76313909,-81.428885143,-162.29371632,4700.0
7.765283363,-120.28720899,-80.067775735,169.73102403,4710.0
6.5466949063,-82.625425289,-79.190817006,136.50207043,4720.0
7.2933758258,-46.062260823,-79.264835164,111.39742078,4730.0
10.690718762,0.30137151021,-79.131605004,86.616367387,4740.0
16.784473018,97.223646425,-78.636849393,45.496427296,4750.0
10.767416084,-160.52886506,-79.483438279,-0.58689676629,4760.0
7.1020906274,-113.61431169,-78.395593107,-45.296217976,4770.0
6.1978096477,-75.59338003,-77.509510699,-92.351462497,4780.0
7.0720422111,-36.461307445,-76.428606357,-140.02423208,4790.0
10.571164192,16.209935037,-75.557821987,-179.74358875,4800.0
13.887984435,121.07094879,-74.950388717,143.28446442,4810.0
8.8741382043,-154.6576571,-75.137399723,108.91945021,4820.0
6.1764865204,-107.74409222,-75.925216814,71.9698107,4830.0
5.7083705795,-68.8274584,-78.626563476,33.253654393,4840.0
7.0088556066,-25.891235652,-81.234703321,-14.062967777,4850.0
11.064602538,39.618057133,-84.334108608,-77.689040709,4860.0
10.913746874,155.99406051,-83.551728726,-156.70208229,4870.0
6.1811509157,-134.05477902,-80.094407902,156.28099057,4880.0
4.1583089089,-86.602257058,-77.278065594,116.71659062,4890.0
3.5281119985,-41.086338465,-75.742222269,74.607437781,4900.0
3.342851729,18.885895467,-75.914996161,34.935736253,4910.0
1.5694026084,101.56335618,-75.639404639,-3.43011073,4920.0
-0.88564887611,-179.816218,-76.244466968,-55.179724498,4930.0
-1.9687125888,-122.83263097,-77.135989166,-104.6219266,4940.0
-2.7096306307,-76.397066998,-76.013478999,-155.11541959,4950.0
-4.6035025842,-24.357702396,-74.007850924,164.00488189,4960.0
-10.108776507,69.17051312,-72.03461481,121.45736576,4970.0
-7.0889310384,-148.8806941,-71.109804377,81.8447711,4980.0
-3.4443670696,-76.229987703,-70.938410619,45.448825026,4990.0
-1.6130437679,-7.953393567,-71.301371264,11.597432411,5000.0
1.4626314116,87.243054415,-71.60154458,-21.602947935,5010.0
3.2105734572,-171.95278506,-71.996133857,-57.953880957,5020.0
3.0084897786,-107.26777037,-72.484043371,-102.0717305,5030.0
3.3593797634,-59.342306944,-73.107719516,-145.35003726,5040.0
4.921519544,-8.10623873,-72.9835614,168.83632166,5050.0
8.0626234457,64.441930637,-72.602621373,125.1010188,5060.0
8.4606864485,159.62875096,-72.26046806,86.995487105,5070.0
6.4706052011,-135.54112079,-72.084419218,47.668035971,5080.0
5.9650708929,-91.427095674,-71.688535879,12.983367917,5090.0
7.1233028563,-53.382110097,-71.282606045,-21.003314538,5100.0
11.401234935,-12.255920314,-72.002195133,-60.309794661,5110.0
25.673375061,96.002915079,-73.487273736,-96.195380564,5120.0
12.568428239,-139.1111337,-74.605544863,-130.95141697,5130.0
8.5656163364,-100.19116582,-75.169933366,-157.0235312,5140.0
7.9793044701,-66.476877322,-72.690272941,177.75791765,5150.0
9.816410736,-32.240450042,-69.844369877,131.60798793,5160.0
16.497836267,10.153620735,-68.189916281,81.332787531,5170.0
20.902130433,-178.73146498,-67.482416745,35.448294542,5180.0
11.633717068,-126.41551364,-67.564110792,-8.2909682987,5190.0
8.9990920584,-92.636054178,-68.181626529,-48.118389012,5200.0
9.0281911406,-62.632565705,-68.974190928,-87.495936929,5210.0
11.883491355,-32.17892699,-70.143571062,-125.62334741,5220.0
22.719672994,-2.9831831551,-70.969700172,-165.92165556,5230.0
17.224533763,-142.61899185,-71.383284714,155.18659635,5240.0
10.643927728,-112.7047785,-70.943228898,111.90647284,5250.0
8.7030543247,-84.081062506,-70.524404285,70.385505715,5260.0
