S11m,S11p,S21m,S21p,Frequency
5.9772761938,32.770499998,-45.740538031,-74.523524389,2000.0
5.4474495354,69.156702053,-53.680966735,-81.60945563,2010.0
5.1519484638,107.11239265,-59.420703784,-41.498181427,2020.0
5.5114597694,146.20951951,-54.531058424,-20.611546751,2030.0
7.0110383398,-173.99907742,-47.365223837,-33.186435622,2040.0
11.89033968,-138.54550801,-37.051190097,-66.184346726,2050.0
14.532281678,-170.27607686,-29.997019801,-175.41244629,2060.0
8.8017889963,-149.404137,-30.888439912,114.90390605,2070.0
6.7639325655,-112.37068861,-34.247922596,33.813154652,2080.0
6.0207840795,-74.860346609,-40.530716904,2.8714221561,2090.0
5.6814993485,-38.041243886,-44.135192707,-8.0105646256,2100.0
5.3408091964,-1.5087875636,-46.615059624,-28.433308921,2110.0
5.2615141187,36.921739848,-53.086620752,-35.67922423,2120.0
5.4705668395,76.788869483,-51.405948547,-0.4414305685,2130.0
6.6429755114,117.81055495,-44.544975279,2.4086216806,2140.0
10.803481067,153.28727256,-31.093740989,-14.667783104,2150.0
13.520571518,130.46004387,-18.455173425,124.86766569,2160.0
8.1094358928,149.01100397,-37.391830223,70.315328383,2170.0
6.0380824434,-175.99443108,-44.756901034,64.655872029,2180.0
5.219254601,-141.35015933,-47.983360283,65.35425838,2190.0
4.9237103303,-106.80185955,-48.981467097,65.494239985,2200.0
4.8638313987,-71.995607282,-49.112782364,57.127017596,2210.0
4.9708765764,-36.071903786,-50.65876816,37.275830934,2220.0
5.3816732867,2.0995170468,-52.4680743,68.427837664,2230.0
6.5748564818,43.054342763,-41.51414718,88.752420928,2240.0
10.323838685,80.561941414,-17.962398761,-108.37473454,2250.0
13.69704408,64.937324455,-33.943718646,-176.65575773,2260.0
8.4086770408,81.197996549,-46.143410819,152.60591947,2270.0
6.1785197299,117.34854846,-52.435245958,152.45285617,2280.0
5.1912638275,152.3501649,-55.651534083,154.34250748,2290.0
4.7324232413,-173.72611253,-56.701567218,156.60359868,2300.0
4.5646823619,-140.24038135,-55.841217681,151.75148858,2310.0
4.6310606263,-106.25956935,-53.987770658,139.92102691,2320.0
4.9839686404,-70.962893969,-53.157684929,131.5234369,2330.0
6.1786702465,-32.287829042,-40.223588644,170.05536483,2340.0
9.9404324191,4.5299558249,-37.207562261,-55.503433311,2350.0
13.016362589,-10.888023261,-43.672079593,-126.20179898,2360.0
8.0590317805,8.8304589401,-56.901703846,-144.21903261,2370.0
6.1088082718,46.265010073,-64.033124542,-118.63195903,2380.0
5.2835244332,83.22490009,-65.309398931,-97.35696681,2390.0
4.8108472224,118.21536496,-64.825441067,-90.662494522,2400.0
4.5653042577,152.07061783,-63.994397265,-88.772857789,2410.0
4.5093686478,-174.36535546,-61.675289259,-90.981956403,2420.0
4.6806918222,-140.30577517,-57.703878171,-100.89412228,2430.0
5.4754182482,-104.55844428,-47.916731675,-101.90880584,2440.0
8.3048873933,-69.673298471,-47.188131357,112.75440461,2450.0
11.759282517,-73.977291578,-48.886564626,55.543007389,2460.0
7.5564149785,-61.776240493,-55.968595555,16.227630825,2470.0
5.6439451778,-26.191995321,-59.816878414,9.3564269507,2480.0
4.9925984478,9.5921648616,-61.395660059,2.061160592,2490.0
4.7589774258,45.083264902,-62.184932138,0.1689746109,2500.0
4.6603713862,79.752747664,-61.401264212,-1.5281339073,2510.0
4.6885409202,114.41445007,-59.757087768,-4.7798991679,2520.0
4.8675464834,149.61189741,-55.536743857,-9.3972839786,2530.0
5.5013449778,-174.12509027,-46.021942327,-29.001063699,2540.0
7.7284784001,-138.37350069,-46.314556008,-151.10516826,2550.0
11.496509504,-134.03368146,-48.647525318,148.74832402,2560.0
7.832839959,-128.14574321,-57.190482074,100.05929745,2570.0
5.6211417838,-94.690716151,-63.287841245,91.594468923,2580.0
4.8098958868,-60.332673164,-66.427593591,89.283850661,2590.0
4.5492334089,-26.794497775,-67.455688528,89.954639204,2600.0
4.5086052668,6.8732049217,-67.234232602,92.955165952,2610.0
4.5700312137,40.973668122,-65.184537009,99.911986393,2620.0
4.835754686,75.667772594,-59.228450814,101.18525271,2630.0
5.4649021289,112.62420672,-47.842604839,88.013958451,2640.0
7.3656550013,151.34459919,-47.900122438,-59.249007107,2650.0
12.316774746,163.91710111,-47.910765559,-94.806935975,2660.0
8.4586605837,161.04225202,-57.245359745,-155.0172352,2670.0
5.9182142882,-164.46682823,-65.285882914,-155.70451755,2680.0
4.9401455259,-129.20640906,-69.219022438,-144.883114,2690.0
4.5276794004,-95.598227769,-70.716624997,-137.16654752,2700.0
4.3635029656,-62.782991033,-70.783458555,-132.93282712,2710.0
4.3489087992,-29.91349313,-67.915684689,-131.59279638,2720.0
4.5582069794,3.5361410339,-61.987099191,-132.39149847,2730.0
5.1606661082,38.424345417,-49.735663727,-150.58413328,2740.0
6.7219205048,74.382338991,-48.006565418,65.710258781,2750.0
10.850943436,98.578347798,-48.924505867,63.20665559,2760.0
9.4682289627,88.131646805,-48.577098432,-7.0504500583,2770.0
6.175882798,121.17633256,-53.280679591,-32.798162674,2780.0
5.1664069543,158.33482239,-56.683375047,-41.855516747,2790.0
4.7872581104,-166.51813796,-58.886343086,-49.41067386,2800.0
4.7158770513,-132.95674143,-60.180680189,-52.545068638,2810.0
4.6370973989,-99.633166104,-60.167711082,-58.136580426,2820.0
4.7281366943,-66.284162447,-57.820883119,-71.771571478,2830.0
5.1265636342,-31.864826054,-53.605402462,-105.89211982,2840.0
6.3419386811,3.9944556831,-53.38649856,-171.72446773,2850.0
9.8244127244,31.722824762,-56.192984691,157.22395151,2860.0
10.48140777,21.652018854,-54.907633501,104.55563563,2870.0
6.4950134506,47.261641806,-59.50334481,68.89351579,2880.0
5.1770269699,84.405880234,-61.965726131,55.724126371,2890.0
4.7674525568,119.96049647,-62.951806062,45.038607012,2900.0
4.6615370588,154.48343586,-63.055585006,29.610746632,2910.0
4.7751031439,-171.75044838,-62.877386711,6.0878302066,2920.0
4.9411645698,-137.70392699,-62.954496871,-20.446904761,2930.0
5.2968072364,-102.81005315,-62.322391276,-38.966308308,2940.0
6.1974391658,-66.095322169,-59.567097217,-63.740268966,2950.0
9.3019456472,-30.830939347,-56.485763623,-108.33632879,2960.0
12.165506032,-43.508938428,-56.227287314,-155.57721716,2970.0
7.1972620184,-24.742721786,-56.740449636,169.17027888,2980.0
5.3757438054,12.192883957,-55.691226563,132.35186653,2990.0
4.8122153487,47.876226625,-57.133090535,87.33860865,3000.0
4.6754356583,81.930709728,-60.98786677,57.812724513,3010.0
4.7391855368,115.51593546,-63.725057904,43.298540422,3020.0
5.0039513794,149.60026555,-64.424013034,35.043216394,3030.0
5.5188704203,-175.27074136,-63.27315317,31.044338323,3040.0
6.4770408743,-139.0013704,-59.97244929,18.85871694,3050.0
8.8854789185,-100.91998286,-54.833214641,-6.0608774584,3060.0
15.164097519,-98.577803173,-49.805819907,-60.077256255,3070.0
8.696469503,-101.85164417,-51.548732191,-103.66086092,3080.0
6.048462639,-59.896712722,-48.943172986,-147.30658067,3090.0
5.2897730538,-21.859339389,-53.613695661,138.15565656,3100.0
4.994130856,13.862079552,-59.220067928,122.14776206,3110.0
4.8785682867,47.341419141,-62.100649419,118.71535287,3120.0
5.0260764825,80.853141986,-63.350214616,111.9835044,3130.0
5.3821437688,114.89599744,-62.925160699,109.44156826,3140.0
6.2691705785,150.30054204,-60.383316197,102.10983235,3150.0
8.5061845273,-174.20535167,-55.875822617,85.102938802,3160.0
14.44854373,-156.85367617,-50.512235536,42.872527611,3170.0
10.380964987,-179.85401166,-53.725136712,-18.852399577,3180.0
6.6641081151,-139.27228452,-52.724316903,-42.359721467,3190.0
5.7373243699,-97.938942012,-52.894517248,-133.63469889,3200.0
5.497161816,-59.562707815,-62.667771548,-169.62703899,3210.0
5.5046901103,-23.057895896,-68.181523745,-175.68459669,3220.0
5.6569227094,12.336681665,-69.342134131,-176.26254637,3230.0
5.9081297483,48.127262923,-69.581532611,-174.62976202,3240.0
6.574197494,84.992164564,-67.449807069,-174.76812437,3250.0
8.5431554907,123.61383171,-61.584177978,173.31931904,3260.0
15.121343677,149.18147022,-51.77165946,129.63211963,3270.0
12.124722664,104.90589341,-54.542311356,35.401946696,3280.0
7.0319418656,144.60551468,-54.428680078,38.202816409,3290.0
5.8048808326,-173.35602546,-45.412700883,-12.142435126,3300.0
5.6846619236,-134.32874357,-56.445560744,-100.2384258,3310.0
5.8954017128,-96.752251556,-61.754323745,-101.98897157,3320.0
6.2638463831,-59.574059185,-63.489067711,-97.409054966,3330.0
6.7824516855,-21.574330223,-63.912575997,-89.741663128,3340.0
7.5712925974,17.619820976,-63.498195451,-86.838220308,3350.0
9.1362407492,58.226821872,-60.298095073,-92.008679812,3360.0
14.102728699,103.94959609,-53.331366949,-99.812497951,3370.0
18.360170719,20.957594223,-47.981920081,133.56167821,3380.0
8.4093354728,66.897758406,-54.467303533,135.83277175,3390.0
6.2081498488,114.17904501,-49.572629969,124.43546117,3400.0
5.7933713067,154.41268002,-52.480886782,7.1810965001,3410.0
6.00751756,-168.18527467,-60.835916854,-0.50422020886,3420.0
6.5521250683,-130.99955488,-63.686412199,3.0836367827,3430.0
7.4894082784,-92.610060347,-63.817627316,6.964193563,3440.0
8.9474063751,-51.809932731,-62.125819689,16.10463191,3450.0
11.535805606,-8.4894952241,-58.588868735,22.156742153,3460.0
16.895412197,49.11898601,-53.948929124,35.963442453,3470.0
20.915400872,-101.07079776,-49.907914673,-153.38152954,3480.0
10.521065754,-23.115740409,-57.890665572,-117.68725617,3490.0
7.6418248087,35.992304671,-56.380482089,-101.62601607,3500.0
6.8226348933,84.302276406,-42.65201586,-178.19101051,3510.0
6.7962980726,126.1680929,-61.0695947,118.09671569,3520.0
7.200029657,165.15852347,-67.279433687,127.17094827,3530.0
8.0587597715,-156.53638668,-67.939852699,140.24365804,3540.0
9.6491885151,-115.90778245,-66.100969603,152.00100358,3550.0
12.719017496,-70.298360827,-62.654738087,162.33219316,3560.0
19.168275197,-3.2997019375,-55.835501168,-158.86141945,3570.0
18.303532241,158.92123472,-54.39658273,-34.043797773,3580.0
11.093319742,-119.4915767,-58.737941622,-9.0413280377,3590.0
8.7362512289,-54.115131297,-55.157590875,-7.6207851937,3600.0
8.3396771057,3.788140682,-41.851402723,115.28426787,3610.0
8.6492813768,55.793443317,-56.585776999,166.32321781,3620.0
9.2405408978,103.50319497,-60.832777869,-173.12403316,3630.0
10.131016138,148.51193628,-61.889651999,-152.82879184,3640.0
11.645768466,-168.09738083,-61.072110481,-142.30973902,3650.0
14.022889674,-116.79547877,-60.043817502,-116.56908748,3660.0
19.533914361,-32.455262476,-54.349321408,-51.273757202,3670.0
16.095209706,88.322510714,-57.131450299,37.763185787,3680.0
10.462699607,161.01069021,-61.055628809,63.238627141,3690.0
8.1900667261,-138.75805847,-54.846780945,72.866006504,3700.0
8.3003149057,-82.409773874,-55.38128881,-139.30944221,3710.0
9.8722645485,-27.321841673,-60.972830294,-133.66954756,3720.0
12.180070975,30.241033119,-59.858528526,-112.38766852,3730.0
14.489536123,92.007204933,-56.70784325,-91.351809302,3740.0
15.81975218,154.91630585,-54.355079597,-67.210094119,3750.0
15.835875691,-131.10352295,-48.950548678,-8.8751449342,3760.0
15.053710811,-59.890268677,-38.146047719,-99.984036112,3770.0
13.165044929,11.875622066,-52.901472409,-69.224280421,3780.0
10.647067898,79.196437991,-58.110668273,-22.09167261,3790.0
8.7832231386,141.07398963,-60.831695163,3.0643894255,3800.0
8.525930833,-160.86049782,-61.817879705,13.941722785,3810.0
10.253070399,-105.23714066,-60.434480635,19.069111709,3820.0
14.43497588,-48.126875653,-55.058269011,27.515763545,3830.0
21.522021952,37.377548201,-44.557941324,66.957069756,3840.0
18.444538655,152.91665708,-40.105753175,121.32577811,3850.0
13.737722261,-148.89941915,-49.799252851,45.9039318,3860.0
11.182480367,-101.90043108,-59.607834908,57.464859251,3870.0
9.7926985084,-55.116317155,-63.885847645,66.393579398,3880.0
9.1221125785,-4.4594914651,-65.749100962,84.851918597,3890.0
8.930490538,51.754318325,-65.912964519,103.96683868,3900.0
9.6012569749,113.60418484,-65.366725198,119.23443131,3910.0
12.011973956,178.22047417,-63.879627744,123.31978075,3920.0
18.043727355,-114.64548379,-56.645057171,132.56028599,3930.0
26.510414175,37.476108985,-43.148278024,-130.02243423,3940.0
15.925175886,124.98876301,-32.908146659,76.704408075,3950.0
11.381520017,171.47938865,-63.989037982,115.92132623,3960.0
9.073984939,-149.26798933,-70.80532025,152.84288907,3970.0
7.7105285336,-111.74699038,-72.617689414,169.20080036,3980.0
7.0719704006,-73.374278372,-73.899855948,-176.66172306,3990.0
7.1223736171,-31.206968043,-73.760338901,-160.18992508,4000.0
8.4252626417,18.330219265,-71.475596611,-152.7895943,4010.0
12.804697995,76.92470928,-66.67263174,-151.86854291,4020.0
28.195299331,142.24285238,-52.598534588,-147.95719623,4030.0
18.720644277,11.261217001,-60.428502099,26.225639236,4040.0
13.00370901,62.938389785,-50.58612813,19.256657399,4050.0
10.396619584,108.77340398,-70.209472252,-161.80898536,4060.0
8.6363836953,149.48762821,-77.963416995,-99.303287029,4070.0
7.3390961009,-172.32205101,-75.966656655,-89.472279587,4080.0
6.4737698319,-135.70400171,-75.661774507,-85.85098019,4090.0
6.1436572188,-99.25153401,-75.025117558,-87.202178947,4100.0
6.6728638221,-60.274250899,-72.660809611,-87.719057349,4110.0
9.5930657957,-19.718179174,-67.394735488,-91.302200504,4120.0
16.624731579,-15.299097538,-59.102200316,-140.67014302,4130.0
12.601528101,-31.699549692,-61.709303065,150.51823962,4140.0
9.5328089111,0.13217772776,-59.95183614,139.07209149,4150.0
8.271459546,38.226638775,-61.036423662,-69.3814583,4160.0
7.6422154283,76.793105346,-77.165758379,18.664127037,4170.0
7.161307668,116.08675739,-74.041209177,46.191119682,4180.0
6.664804685,155.00104463,-73.136160737,48.967390087,4190.0
6.2844279974,-166.61972813,-72.628190192,47.758738947,4200.0
6.3064734912,-127.96630231,-70.521133784,48.156719872,4210.0
7.807520637,-89.552860041,-66.296276351,38.5679548,4220.0
11.913635999,-72.047949746,-59.996156501,-1.4515211754,4230.0
10.398454765,-79.205894519,-59.698626487,-68.777776562,4240.0
7.7391896356,-54.286152424,-58.831091921,-98.572803176,4250.0
6.5921911102,-23.796412752,-45.673864783,82.920349909,4260.0
6.0975459331,8.2237893652,-68.484836121,77.730391545,4270.0
5.9816046072,41.383764728,-73.05557872,99.651804426,4280.0
6.0530063189,76.347455474,-72.80302024,110.46622589,4290.0
6.2359144479,113.8852583,-71.995210045,114.99631516,4300.0
6.5196177672,153.70094267,-70.423330794,120.84648034,4310.0
7.6160921106,-165.15641414,-66.91439415,115.57229605,4320.0
11.069719407,-137.6884184,-60.812566411,89.35309636,4330.0
10.340845434,-139.9528608,-59.757384547,37.099428423,4340.0
7.4451425565,-114.33203784,-59.734803565,15.107513306,4350.0
6.1648724054,-84.267398025,-51.914218756,-31.490614336,4360.0
5.4611559147,-54.380842108,-65.715234411,175.46559084,4370.0
5.1434610661,-24.398478112,-79.699388376,-178.29183952,4380.0
5.1344405498,6.0445587963,-78.513797293,-134.83246318,4390.0
5.3733041868,37.736465308,-75.087848105,-144.93341448,4400.0
5.9390048052,72.823418963,-70.319239405,-157.66071175,4410.0
7.2287922849,111.07270103,-63.559134314,-176.15016456,4420.0
10.35696369,140.40076481,-55.918519845,139.10145418,4430.0
10.571724583,146.58251023,-53.114271951,65.644668083,4440.0
7.8849375061,174.67667302,-55.454428397,11.040953194,4450.0
6.4374589503,-150.56971152,-58.091648803,-30.369464886,4460.0
5.6724309778,-117.92250532,-64.079149546,-65.359514484,4470.0
5.1050900361,-87.144700252,-73.63920123,-55.100139997,4480.0
4.8284701296,-57.626531348,-73.172857828,-27.554747572,4490.0
4.722265659,-28.289724612,-70.290982549,-32.440543252,4500.0
4.9312110359,1.5746299152,-67.671140464,-50.009446778,4510.0
5.7444484521,33.076189815,-63.679217532,-90.746212316,4520.0
7.8564233775,60.731999988,-58.955045383,-158.77251754,4530.0
8.7340581264,71.923523843,-59.290282467,115.53137041,4540.0
7.3047391175,97.23812305,-65.092680587,61.319238212,4550.0
6.4853646871,131.55227844,-71.755927652,35.150930967,4560.0
6.0626566035,167.26577517,-79.944054575,18.515879406,4570.0
5.6517321591,-158.27963011,-89.782281615,1.1164691836,4580.0
5.3711258903,-124.86137346,-86.828778162,179.75886039,4590.0
5.0224455044,-92.853213196,-80.442136908,-176.60436861,4600.0
4.854117952,-62.607626223,-69.828767436,164.92958287,4610.0
5.101146111,-32.048428933,-65.772650888,85.640439346,4620.0
6.2916930729,-4.3963149736,-67.645298885,52.579782332,4630.0
7.2878747247,8.7579290118,-69.494567026,-5.2602928924,4640.0
6.0559350907,29.141294853,-74.016222853,-55.50232798,4650.0
5.5101996601,58.223943353,-76.345848559,-72.545345376,4660.0
5.4127794583,89.462154872,-77.766227838,-70.474702946,4670.0
5.463180467,121.97719644,-78.341211532,-78.128072549,4680.0
5.5372033198,155.59308166,-80.920305418,-112.14944029,4690.0
5.5538473816,-169.58052285,-85.359339449,142.66038161,4700.0
5.4709393627,-134.69563078,-71.100855273,44.217749345,4710.0
5.4823867344,-101.03719722,-69.774230157,-53.094161531,4720.0
6.0368874135,-69.064062364,-72.015997232,-89.533293913,4730.0
7.2556279621,-47.518564897,-71.196754458,-139.16252043,4740.0
6.1731908528,-32.335266582,-74.585755057,165.77956806,4750.0
5.0428601139,-6.0899179985,-79.914189018,135.23228051,4760.0
4.6546014032,22.052283156,-81.096427287,117.45923099,4770.0
4.630932468,50.697086284,-80.228757381,104.20582114,4780.0
4.7601608442,79.731666695,-76.89099342,105.30142124,4790.0
5.0439512412,110.41535929,-72.979142764,107.3881999,4800.0
5.3999247704,143.47739645,-64.377273782,83.655216864,4810.0
5.8329749665,178.20181889,-65.594707076,-10.969272432,4820.0
6.6485621206,-146.84273611,-69.10533723,-38.008152227,4830.0
7.8852481819,-119.47351354,-70.671973554,-64.275085537,4840.0
7.083621251,-99.609558413,-75.608510456,-104.3721219,4850.0
5.654708728,-70.656604736,-81.695565279,-143.79009656,4860.0
4.9017120015,-40.712832714,-83.508030245,176.42408819,4870.0
4.5408861352,-11.985224919,-82.686027548,149.44621903,4880.0
4.3002150976,15.57814255,-79.076257429,131.20850258,4890.0
4.3376771988,42.231154223,-72.744859903,115.38376986,4900.0
4.4443175062,70.954016409,-67.227282934,72.808100583,4910.0
5.0430263379,99.453938445,-67.296704778,2.2140052812,4920.0
5.9246478524,131.58170393,-69.407644642,-34.047757027,4930.0
7.4087287976,159.70366444,-68.956937175,-68.143087803,4940.0
7.49623796,179.52694869,-69.920932157,-111.79380313,4950.0
6.2886870085,-149.41728553,-73.208622209,-133.81922301,4960.0
5.5896329317,-114.96881993,-74.468770646,-150.88537971,4970.0
5.1299347085,-82.093136727,-73.781128953,-158.31692368,4980.0
4.7695959909,-51.080183299,-71.939295955,-158.91233514,4990.0
4.5589504239,-21.544766359,-68.108608342,-166.5876803,5000.0
4.5410614873,7.1627340999,-62.30353054,154.55535831,5010.0
4.5433910828,34.414407939,-65.851093132,100.12864766,5020.0
5.0690345545,63.238622008,-68.156054322,75.920717518,5030.0
6.1822226488,87.936710959,-66.879211021,41.46360797,5040.0
6.7251893348,104.61197748,-66.562043067,-14.541323635,5050.0
5.7257915028,130.14234759,-68.878324274,-36.330460867,5060.0
5.3835926358,163.1649456,-70.293342668,-28.715000573,5070.0
5.4478740072,-163.01491799,-72.676868323,-26.739417705,5080.0
5.5292463444,-129.04639663,-72.484115724,-30.849138839,5090.0
5.4062319786,-95.137025147,-68.927173973,-45.940318124,5100.0
5.2987680948,-62.119886058,-65.346658301,-88.600588512,5110.0
5.2245229689,-30.294593191,-72.321315124,-123.48462015,5120.0
5.3110792014,-0.27576147088,-72.468077425,-117.30787004,5130.0
5.9428258195,26.358955348,-67.621912496,-152.31390095,5140.0
6.4201184097,43.190170218,-63.626381606,161.45828792,5150.0
5.1649042027,63.381816268,-63.763504087,128.40722456,5160.0
4.5397243752,91.697459209,-64.391253657,117.21471086,5170.0
4.5613201519,120.9881115,-65.73237584,120.16276146,5180.0
4.8688863263,150.84527596,-65.008899273,116.56425003,5190.0
5.2140081841,-177.11308563,-65.033924689,102.37663798,5200.0
5.5176842511,-143.04427627,-66.055256021,81.329212621,5210.0
5.7701832954,-109.06270354,-70.074572119,76.135037996,5220.0
5.9494147357,-75.219478626,-68.228220859,80.051423593,5230.0
6.6708228884,-43.156059955,-60.590779739,56.3436865,5240.0
7.5015861813,-19.661562267,-53.019254203,-6.3312555515,5250.0
6.1795612413,-2.0236994839,-51.948027251,-78.675042344,5260.0
4.8063375705,25.878645297,-56.480326562,-118.32629492,5270.0
4.3358423,55.821290438,-61.504855404,-134.79181125,5280.0
