S11m,S11p,S21m,S21p,Frequency
9.2875634518,162.51865494,-66.747756281,-159.18374487,2000.0
8.2880629183,-168.46074376,-66.219841261,158.7592204,2010.0
9.6745966788,-138.7149518,-64.592890933,106.46173899,2020.0
15.670979482,-107.27377146,-62.938172562,43.254685078,2030.0
23.169971169,118.46116636,-62.807629765,-23.454072915,2040.0
11.421880076,147.08964921,-64.912732499,-89.183955614,2050.0
8.6311510835,178.10394965,-69.769758298,-151.76582656,2060.0
8.6843451462,-152.05808474,-80.215923683,126.60094489,2070.0
11.740850439,-121.45547129,-77.600856064,-41.668078711,2080.0
24.591390534,-93.607579768,-72.274506162,-98.875405814,2090.0
15.789017721,129.53572447,-69.64933931,-146.65827669,2100.0
9.8927610519,159.8253845,-67.941638694,159.95364388,2110.0
8.3107880664,-171.37249015,-67.24140786,100.41120155,2120.0
9.2028767361,-143.14423353,-67.387108092,40.190832094,2130.0
13.869933465,-116.16697071,-67.743392996,-13.245514959,2140.0
26.345115083,168.40810596,-67.432058366,-58.514594009,2150.0
12.57660499,154.16214514,-67.440175889,-109.83031326,2160.0
9.1357400057,-178.59000278,-70.36126703,-164.79221344,2170.0
8.9301393986,-150.71859551,-79.334974559,157.68784395,2180.0
11.68983745,-122.25923163,-80.240685122,-147.62374739,2190.0
23.012620529,-103.93123532,-77.813308922,175.44868783,2200.0
15.910833107,138.66747161,-84.458773658,-171.0295419,2210.0
9.7100385328,166.02701964,-71.491521612,-171.10122284,2220.0
8.0569743462,-165.35951272,-65.758089343,121.28552109,2230.0
8.9675753293,-135.88007369,-63.535718505,50.001020197,2240.0
13.925170683,-103.62194894,-62.605173555,-12.131470262,2250.0
27.050582527,123.74973702,-61.796507237,-70.675360708,2260.0
11.168044085,150.97583013,-62.35569767,-125.18748127,2270.0
7.7066128739,-177.85227471,-63.77646497,-172.60538731,2280.0
7.1581025555,-147.69187937,-65.792482058,144.38553464,2290.0
8.8851059186,-114.37488367,-69.256602956,103.07298869,2300.0
15.586810011,-67.57501649,-75.446953017,60.700006005,2310.0
17.508813926,101.93472485,-90.156034455,-164.19031534,2320.0
9.1713488282,154.44477429,-72.685071654,136.06349802,2330.0
6.8529540813,-170.86361589,-68.599109756,73.327857517,2340.0
6.9306073018,-138.29859078,-68.414012937,11.33214042,2350.0
9.6287883777,-101.27153596,-69.376782275,-34.962442556,2360.0
20.034239103,-32.686832692,-68.04480403,-73.148972302,2370.0
12.936188084,125.54181206,-66.243327744,-120.01275908,2380.0
7.6700062349,168.36748957,-65.668137584,-169.38114142,2390.0
6.2391830099,-158.39335515,-66.221700228,144.52344499,2400.0
6.8634291773,-125.64276623,-67.662724435,103.47615072,2410.0
10.510420091,-85.689217307,-69.963032522,65.114810053,2420.0
22.349119791,22.868906342,-72.975732572,27.263929681,2430.0
11.084025685,141.14391787,-78.058170669,-11.330954741,2440.0
7.2873852961,-178.25198016,-97.803006352,-81.06327085,2450.0
6.6024728422,-144.65312606,-80.63134629,55.521934306,2460.0
8.3190545653,-109.44968392,-75.762164008,-2.6202931615,2470.0
15.545416099,-58.633359316,-74.982314916,-70.032264167,2480.0
15.742884411,113.18359839,-74.363933761,-126.23564714,2490.0
8.3620782675,164.62835531,-73.488422776,-168.77525843,2500.0
6.335736862,-160.25981439,-72.387447139,151.03445449,2510.0
6.6007553789,-127.25107801,-70.88619479,100.19049417,2520.0
9.8364964612,-88.256395676,-72.897589932,48.396437628,2530.0
21.803264204,6.7824505822,-78.726889672,-2.469495074,2540.0
11.159742003,142.44921675,-89.25520023,105.8099233,2550.0
6.8966054341,-175.699321,-76.781777089,47.857173998,2560.0
5.9320682233,-141.83329958,-75.077445002,-0.82511981204,2570.0
7.1547917803,-105.84915843,-77.293251383,-44.944204643,2580.0
12.380207487,-52.933878264,-81.189125897,-74.514075505,2590.0
15.520190131,90.202790708,-80.378116866,-89.597706983,2600.0
8.1026556373,158.97957079,-79.210943591,-141.1210906,2610.0
5.7481686456,-162.54531025,-81.926470258,161.42310684,2620.0
5.6506009342,-128.87262634,-85.023570116,147.79614062,2630.0
7.8361804149,-89.889577099,-77.400013747,144.28674911,2640.0
15.233155647,-21.004481278,-70.647015064,92.908512829,2650.0
12.327120817,123.33849701,-67.508851343,29.567858311,2660.0
6.9402513928,175.64095455,-67.71200817,-27.572368232,2670.0
5.4425955258,-148.42412126,-69.736430035,-77.751921464,2680.0
5.9960372629,-113.7229891,-73.829250322,-111.19838998,2690.0
9.3778981889,-68.975042054,-76.578999713,-123.1117356,2700.0
17.540376922,39.188193444,-76.437738151,-140.10870372,2710.0
9.5225573023,148.54098684,-75.795136839,-168.45163888,2720.0
6.0976894269,-168.00579078,-75.128642556,157.70989773,2730.0
5.5255361202,-133.32951822,-74.404708008,116.33695247,2740.0
7.0439063379,-95.962920354,-75.236540851,74.162927231,2750.0
12.874507184,-38.664939078,-73.21794604,52.019280501,2760.0
13.714410164,110.60800547,-68.776382916,5.1717133066,2770.0
6.993619968,172.6871589,-66.301318651,-53.239923661,2780.0
5.0604697407,-149.19706974,-66.013855766,-108.56721521,2790.0
5.227251545,-113.44982133,-66.931385789,-155.78044103,2800.0
7.7257096757,-68.293934749,-68.09393922,160.8678963,2810.0
14.273227232,26.47747502,-69.840933727,118.47138703,2820.0
8.6974506992,142.68785088,-72.376637997,75.865613712,2830.0
5.2165756259,-167.79901563,-77.713626866,25.174436358,2840.0
4.3465285331,-130.08545764,-88.205201428,-170.39272061,2850.0
5.0082467643,-89.081437817,-73.204058507,98.431668169,2860.0
7.6816632136,-23.236040119,-69.557461166,37.185936938,2870.0
7.3065299741,90.192964514,-67.38143729,-15.567387176,2880.0
3.5104940566,164.35049477,-66.329083101,-67.800815202,2890.0
2.0781005824,-151.23697997,-65.872781986,-116.57540693,2900.0
1.6291695236,-112.77350505,-65.923919912,-164.31042584,2910.0
1.7032777997,-64.938872383,-66.207764531,149.85763705,2920.0
2.0059809815,15.616796721,-66.942731908,98.427052801,2930.0
0.90970517282,117.01773744,-68.594900811,42.443573508,2940.0
-0.23220332651,-176.78667187,-70.630999912,-29.650878633,2950.0
-1.4606536285,-132.09834367,-73.795131187,-125.06509323,2960.0
-4.5677605829,-90.044050695,-75.157854542,127.92676323,2970.0
-17.530332111,-62.603990278,-73.941729966,23.948596894,2980.0
-11.2097902,-149.71912654,-72.995332148,-54.696853327,2990.0
-9.0241541462,-110.80120356,-71.419642162,-107.88048663,3000.0
-14.36061879,-54.082767626,-68.696738971,-153.83653682,3010.0
-12.900195562,113.97465959,-66.408147304,157.32962119,3020.0
-5.093122699,172.49870733,-65.28896737,107.83997577,3030.0
-2.4302716764,-147.85334193,-65.154117355,61.695257829,3040.0
-1.2615939972,-110.33361597,-65.412257723,17.541387432,3050.0
-0.31360450669,-62.570708019,-65.975161506,-24.91495972,3060.0
1.8454132862,15.891298406,-66.217338784,-67.514963486,3070.0
3.4878111304,118.49997628,-66.371615011,-115.40858375,3080.0
2.7769363543,-174.16122923,-68.17985354,-161.33102683,3090.0
2.5111496948,-130.77291516,-69.773525514,170.3942775,3100.0
3.0360200664,-89.699221237,-69.25066665,145.30890248,3110.0
5.1856892694,-33.911892382,-68.328989494,112.43253933,3120.0
8.2702854453,65.506351213,-67.057392188,75.183411501,3130.0
5.7478220349,157.06537374,-66.145321594,33.978431344,3140.0
4.1597675465,-152.99097964,-65.865574427,-12.973211354,3150.0
4.0979982405,-115.42558383,-66.085625377,-65.826256771,3160.0
5.6914301862,-76.031091637,-67.257824019,-123.96222176,3170.0
11.080828452,-17.107415173,-69.384355793,172.65386371,3180.0
13.309199313,122.63084186,-73.335596196,110.84725336,3190.0
7.3309474327,-170.15631633,-80.086398908,59.287348831,3200.0
5.6649651431,-130.79809952,-87.005896317,140.51127346,3210.0
6.1536345668,-95.893762771,-75.411728982,108.00280915,3220.0
9.5971574617,-54.911302076,-70.626580715,58.826161791,3230.0
20.729588478,44.304221656,-68.285723231,4.0660073004,3240.0
11.091403621,171.06126627,-67.322999678,-49.805505073,3250.0
7.1793449172,-147.41533522,-67.464875116,-104.18806278,3260.0
6.5193320644,-114.85656718,-68.60521181,-152.93975685,3270.0
8.170739326,-82.774967189,-69.67851987,163.12286361,3280.0
14.973873668,-45.61572619,-71.110514986,119.95751204,3290.0
19.308762527,161.05899137,-73.178665529,82.667687168,3300.0
9.5824932099,-158.43187979,-75.876885113,55.153597164,3310.0
7.2428224622,-126.97426617,-77.984491654,50.844338599,3320.0
7.4966223872,-97.928492429,-74.486892338,43.913808832,3330.0
10.58882829,-67.149584711,-70.95903705,8.6267231581,3340.0
23.536398606,-34.476800394,-69.388896398,-34.120291659,3350.0
14.619943773,-176.56618731,-68.95636891,-78.627089357,3360.0
9.0194608984,-145.10322182,-69.244269734,-122.42255347,3370.0
7.6601098493,-116.82268758,-70.067147459,-166.67121207,3380.0
8.7999904109,-90.229258013,-71.636397413,143.6542033,3390.0
13.647638584,-66.063916242,-75.525229616,96.112127592,3400.0
23.551604218,-132.35455527,-81.820156733,45.598459953,3410.0
12.301539023,-150.45103589,-92.379018143,-102.8513396,3420.0
9.002428174,-127.5218022,-78.915057829,162.29013637,3430.0
8.6676206162,-103.76658653,-75.236537376,105.33111091,3440.0
10.721342366,-81.230808764,-73.982566829,58.709225533,3450.0
16.915024614,-73.15096184,-74.473158439,14.196018111,3460.0
18.099055697,-139.56307126,-75.738025178,-28.439182797,3470.0
11.595345942,-136.25014219,-78.595318207,-64.271448866,3480.0
9.6568083184,-116.37272911,-79.80599868,-94.012824214,3490.0
10.384295335,-96.134412184,-81.552915582,-151.32117519,3500.0
13.570668377,-84.385075762,-85.335862837,137.8824284,3510.0
17.032024597,-109.31667082,-88.008321809,24.046507391,3520.0
13.303727571,-129.01888871,-82.145906475,-68.297257557,3530.0
10.723619716,-117.99946543,-77.433873753,-144.27048266,3540.0
10.374853449,-101.49513313,-74.69496133,153.11717081,3550.0
12.128777942,-87.478454877,-73.481457946,100.09123651,3560.0
15.852572847,-91.013971877,-73.616493938,54.38714192,3570.0
15.282313114,-120.24054442,-73.917877005,14.418448553,3580.0
11.883907592,-120.30793701,-75.000856594,-23.345586681,3590.0
10.882676323,-105.49592527,-76.706343449,-61.98140412,3600.0
11.934268044,-90.848849438,-78.825466413,-99.804461739,3610.0
14.819634164,-90.380260056,-81.51762875,-146.04755661,3620.0
15.503819426,-113.66318564,-85.307332242,157.08221105,3630.0
12.677416482,-118.76306101,-91.393178438,84.380920021,3640.0
11.161434396,-108.44043566,-98.550849558,-41.786777311,3650.0
11.496274353,-94.885622555,-89.932562977,171.65312626,3660.0
13.649249428,-87.656753653,-81.148649289,104.1557201,3670.0
15.592520508,-103.03273876,-78.821904917,53.238884257,3680.0
13.080470988,-116.99189902,-78.238302209,14.011077958,3690.0
11.136476316,-106.92803462,-77.991281034,-15.403102518,3700.0
11.324017574,-89.144940671,-77.832902752,-45.529286935,3710.0
14.305624252,-77.774190025,-78.290975291,-77.787579579,3720.0
18.362903924,-108.22202252,-79.398237871,-120.08201034,3730.0
13.192558057,-129.57216585,-83.301908321,-179.37291515,3740.0
9.9100590709,-114.68126719,-91.758723208,98.948312459,3750.0
9.2321274066,-92.926569368,-95.090764044,-4.8441737878,3760.0
10.845314706,-69.036025941,-95.09552206,-76.10951972,3770.0
16.970800498,-51.070798896,-103.78978261,149.71823934,3780.0
19.897048514,-145.4448548,-91.759833131,18.576143723,3790.0
11.059702026,-135.32786998,-88.211325739,-9.2977924465,3800.0
8.4504170753,-107.40252406,-85.577015184,-62.792768238,3810.0
8.4983101311,-78.437096461,-87.344332488,-100.83836572,3820.0
11.702769401,-45.833473831,-91.045398075,-152.19884829,3830.0
26.600788002,12.216146275,-92.102711233,120.68693028,3840.0
13.643695056,-166.89476693,-88.647981206,50.477074773,3850.0
8.3986582543,-131.42139495,-84.88888937,10.716472405,3860.0
6.9809351302,-99.823677292,-81.381912525,-23.750390623,3870.0
7.6373875308,-67.972187688,-80.458735683,-55.229025701,3880.0
11.610210215,-29.550321497,-79.04986038,-85.905285213,3890.0
23.74444572,93.277984783,-79.258895979,-114.99620764,3900.0
11.177733113,-159.26416537,-80.586679612,-136.20875458,3910.0
7.3240030446,-119.41258941,-82.100238923,-164.83137952,3920.0
6.671340872,-85.529953969,-84.211291134,176.78900638,3930.0
8.3252229787,-48.53202954,-87.141273278,-167.68871367,3940.0
14.454290174,7.0036947938,-80.998648593,-176.79106309,3950.0
15.131903008,152.8288547,-75.907412204,127.51521697,3960.0
8.3380511976,-146.32531479,-73.834762665,68.899320077,3970.0
6.1681179624,-107.98436478,-72.756903851,13.643507851,3980.0
6.2559827062,-73.285720419,-72.77013619,-34.071339652,3990.0
8.9250454994,-31.518338002,-72.362697481,-75.034750043,4000.0
16.724414167,50.141118227,-73.032920375,-113.94381157,4010.0
11.431524241,-177.0797738,-74.271778134,-151.92175919,4020.0
6.9152430994,-126.99956961,-76.513639947,176.23898543,4030.0
5.8189877361,-89.458182786,-78.204329489,150.94744143,4040.0
6.7443279746,-51.347338913,-79.048157373,126.82647822,4050.0
10.586765164,2.5814217568,-78.53335871,94.730933199,4060.0
14.099957302,117.26046919,-76.968170977,46.017058066,4070.0
8.2390603478,-159.28836903,-76.499564688,-12.404111785,4080.0
5.730367422,-114.98938996,-76.589936765,-62.398475152,4090.0
5.5393118807,-77.836827734,-76.65633112,-108.29272493,4100.0
7.3479192536,-36.186056683,-77.537080479,-149.03562004,4110.0
13.049160728,31.508124711,-77.910113895,-179.98557893,4120.0
12.140852985,163.38761541,-79.116658242,149.43972987,4130.0
7.0301939446,-135.16449786,-81.858957339,118.5660941,4140.0
5.4932657837,-95.051995932,-82.224645936,99.506195557,4150.0
5.9732080077,-57.031838148,-80.638001891,76.806462362,4160.0
8.721833472,-8.3445578142,-77.795429232,30.223299413,4170.0
13.965850315,86.070485538,-75.555576286,-25.302824649,4180.0
9.2559855936,-170.56849124,-74.846057073,-79.572878964,4190.0
6.1709546435,-120.36667043,-74.790819419,-123.46608,4200.0
5.5939594736,-81.415724333,-74.964027511,-167.28048681,4210.0
6.9374953961,-41.396612562,-76.353120701,156.02184216,4220.0
11.616227567,16.558157285,-77.302271178,126.13482215,4230.0
14.047153042,143.14396639,-77.835183466,86.529499937,4240.0
8.0357092519,-143.84709097,-80.21700812,48.333999114,4250.0
5.9952817873,-101.76303629,-85.082185955,37.689912635,4260.0
6.0893189123,-64.095014763,-79.893998976,46.212855057,4270.0
8.3782464057,-21.011445773,-73.781157157,-0.80512012975,4280.0
14.845690416,55.934501191,-71.653022806,-54.247174578,4290.0
11.741011673,179.38180967,-70.681542858,-103.31619564,4300.0
7.4694927441,-125.61476809,-70.676864125,-147.76279835,4310.0
6.3596375473,-86.917917927,-70.43509152,172.65773394,4320.0
7.4396630691,-49.383245766,-70.51952664,132.90121304,4330.0
11.788505743,-1.7487503991,-71.374073746,93.406318342,4340.0
18.653423146,124.71165307,-72.905630323,58.535504542,4350.0
10.203229388,-148.62458256,-75.344979948,29.598709122,4360.0
7.2728326316,-106.58379662,-76.608197871,29.04784735,4370.0
6.9257554334,-71.449582311,-71.686725582,7.9752347683,4380.0
8.9640762339,-35.022725581,-68.505738296,-42.542914073,4390.0
15.853494411,17.716507779,-68.389475333,-93.99552523,4400.0
17.513573329,174.21744304,-69.37576545,-137.90600262,4410.0
10.045230127,-129.84121196,-70.598168497,-173.10326861,4420.0
8.0712409942,-94.391866999,-71.831527416,149.51927328,4430.0
8.5627931051,-62.268831972,-73.211152966,119.89372427,4440.0
12.128871439,-30.386240364,-74.332944564,87.944862534,4450.0
27.686819678,4.9660067029,-76.029539842,50.18836565,4460.0
15.551370005,-140.24633839,-81.654698075,17.736467235,4470.0
10.335088194,-108.27943312,-83.053409395,63.412437337,4480.0
9.3261344671,-79.889405601,-75.161164915,32.345860928,4490.0
11.038329479,-53.028201095,-73.040785743,-20.975978597,4500.0
16.658075939,-34.63966892,-72.983434234,-71.050580882,4510.0
22.223427079,-106.58704156,-74.775555373,-116.65815721,4520.0
13.811772654,-112.65299608,-78.152426927,-146.79586281,4530.0
11.162011365,-90.839212683,-80.387614365,-169.07926212,4540.0
11.381300163,-69.366939142,-82.378702693,171.16129114,4550.0
14.393442255,-53.291894917,-83.475887573,158.57565057,4560.0
19.500391879,-69.495388346,-81.564060885,133.9186677,4570.0
16.144768801,-103.239465,-83.201385332,86.135901308,4580.0
12.663268377,-94.988432991,-89.361992557,39.223811641,4590.0
12.036847265,-77.749020205,-115.26228981,78.080095273,4600.0
13.457835768,-62.88337907,-95.196733075,66.447662038,4610.0
16.701318206,-64.611323545,-92.825831012,18.338150917,4620.0
17.180620276,-89.210228079,-96.540831669,-58.783011373,4630.0
14.203037854,-93.47743114,-94.831068352,-117.65206827,4640.0
12.791984191,-83.115986677,-97.222125575,163.71331892,4650.0
13.448801342,-70.653054175,-91.581096215,84.278193052,4660.0
15.53414869,-67.408527407,-85.606622727,0.31925476476,4670.0
16.428408959,-82.6269614,-81.102397322,-45.686820304,4680.0
14.35184475,-90.302967028,-76.473601536,-89.261971489,4690.0
13.09776158,-81.622963246,-73.97269867,-133.42106277,4700.0
13.477187873,-69.821754821,-72.306706135,-177.06045609,4710.0
15.372853485,-66.834979605,-72.050332103,144.50046388,4720.0
16.602839359,-79.926815181,-72.889684853,108.70827979,4730.0
14.749700106,-88.505389381,-72.773497883,76.075933655,4740.0
13.091995533,-81.870188068,-73.161651596,36.648443289,4750.0
13.338798917,-68.424779689,-74.111818581,-4.2895815761,4760.0
15.854854786,-58.679718911,-74.875597902,-49.041933987,4770.0
19.348825898,-81.884842673,-75.068401819,-86.943678917,4780.0
15.103979544,-107.6812503,-75.188051888,-124.53388692,4790.0
11.60530827,-95.429160129,-74.034243517,-151.47390016,4800.0
10.562620077,-73.698996059,-72.226871739,176.42807097,4810.0
11.913620869,-50.544277577,-71.273055612,135.37579027,4820.0
17.430471615,-31.56477531,-70.933392239,100.41676509,4830.0
23.076018723,-116.15837493,-71.774194199,61.781388572,4840.0
12.778788924,-116.45701422,-73.030970654,20.87032403,4850.0
9.6038206241,-89.837971742,-74.848707592,-23.09312116,4860.0
9.2552651895,-58.202776086,-76.374154747,-70.368069116,4870.0
11.793546421,-19.805718606,-77.692599494,-132.96670734,4880.0
20.499867081,65.611024294,-77.416749298,168.52458825,4890.0
12.208460359,-167.4811758,-77.180652012,115.99677322,4900.0
7.0582770552,-120.2648835,-77.065659863,64.438945769,4910.0
5.2231354966,-83.09061739,-78.509861416,19.647223048,4920.0
5.111167912,-45.113668094,-82.512088634,-43.089347735,4930.0
6.5355833196,3.9029896267,-85.303669989,-92.805003595,4940.0
8.8694813834,86.978496394,-81.404059565,-146.78972066,4950.0
6.0697976893,-176.79593057,-77.42253326,158.5011154,4960.0
3.2194623268,-115.35597157,-74.443719552,115.63643604,4970.0
1.6575678851,-66.371345333,-72.699448558,77.455966542,4980.0
-0.12159840966,-11.120702126,-71.726891582,41.427951101,4990.0
-5.9499446189,71.473341479,-71.396607817,1.6326759226,5000.0
-12.974666173,-143.90560468,-71.377629511,-37.881412509,5010.0
-11.02153209,-35.326490903,-72.282270061,-83.1588545,5020.0
-8.9846770881,83.49557604,-72.75242553,-130.85898272,5030.0
-3.39289684,-177.51863265,-72.766873383,-178.51236924,5040.0
-1.382228396,-116.20631719,-71.778098164,134.54696103,5050.0
-0.94245700674,-72.39986525,-71.592329901,85.131273213,5060.0
-0.54822058935,-31.783961233,-72.088033405,44.636306181,5070.0
1.1829375192,17.16104608,-72.529194091,11.085809879,5080.0
5.1736228271,89.205903585,-73.353272912,-21.43081775,5090.0
7.0959589099,179.39116537,-73.877249214,-53.239038929,5100.0
6.2002030762,-117.03729509,-73.918307899,-84.176476681,5110.0
6.3075460491,-73.040812824,-74.310763305,-123.59117068,5120.0
8.6611563594,-31.123531775,-75.70092939,-164.25094536,5130.0
16.164354816,26.783024428,-76.000929553,162.87663486,5140.0
16.090478228,-174.16844434,-74.981306716,134.11999361,5150.0
9.4154120164,-121.75355815,-72.039328432,96.642117079,5160.0
7.6398144341,-86.148549191,-70.018716436,53.724787008,5170.0
8.1937786898,-54.756686139,-69.675857837,10.937511167,5180.0
11.733576032,-23.634378501,-69.605149111,-29.935650183,5190.0
24.935620068,5.8277571698,-70.154004249,-67.281495355,5200.0
16.725471615,-131.40186912,-71.531438967,-102.18721673,5210.0
11.028112225,-101.38670104,-71.879206687,-135.11652607,5220.0
10.03752128,-72.439482818,-72.309713318,-171.35624576,5230.0
12.037623369,-44.417423297,-71.616394705,151.61372981,5240.0
19.964285542,-26.806327179,-69.855830272,108.76394922,5250.0
19.951221422,-134.27208984,-68.494438269,63.720538438,5260.0
