S11m,S11p,S21m,S21p,Frequency
6.5583689483,33.704144755,-49.701689677,120.29758043,2000.0
6.0634959717,70.286800142,-57.066070468,88.22374234,2010.0
5.8083029125,108.41921005,-59.71040385,117.50600571,2020.0
6.2098344418,147.76142129,-43.292915322,72.711263518,2030.0
7.7638764968,-172.27461953,-49.202679104,-28.432287958,2040.0
12.690322325,-136.76240376,-46.34641985,-70.201726246,2050.0
15.263380125,-168.9621982,-45.08561402,-178.93320553,2060.0
9.5393687626,-147.66720594,-51.43629601,136.0723225,2070.0
7.4954482181,-110.43307934,-51.23025922,114.09661902,2080.0
6.7442986093,-72.91892589,-49.145968048,83.926215162,2090.0
6.4058722319,-36.13589421,-48.557513296,28.592587442,2100.0
6.0614488442,0.34497549521,-49.974816263,-24.677237381,2110.0
5.9699420822,38.758694927,-55.389903455,-53.143493625,2120.0
6.1509071681,78.659072888,-47.145120345,-62.813061594,2130.0
7.2794318921,119.72953352,-49.880511153,-166.03149106,2140.0
11.35831197,155.23082575,-49.426079814,160.55428056,2150.0
14.100680957,133.56430123,-48.258746479,67.807728086,2160.0
8.7542709014,151.39956795,-53.710267929,24.662724711,2170.0
6.6703116713,-173.86366307,-55.431964343,2.7785035291,2180.0
5.8160082166,-139.4057097,-54.390033186,-29.940774536,2190.0
5.4951764288,-105.09441341,-53.002939856,-69.687326122,2200.0
5.4026683301,-70.540264442,-53.971570141,-106.19389389,2210.0
5.5002317502,-34.95230848,-54.957052988,-150.79013546,2220.0
5.9241236892,2.9379705314,-52.740920257,-148.9293928,2230.0
7.1534472315,43.558475965,-48.149263613,115.75513676,2240.0
10.963094087,80.39882793,-48.920229726,70.268396709,2250.0
14.136153821,64.839966077,-47.4953012,-19.956500419,2260.0
8.9660088222,81.884747115,-54.914400509,-67.397896212,2270.0
6.7908520148,118.17987747,-57.532692321,-97.226241937,2280.0
5.8429427156,153.4010861,-57.760776338,-125.99796424,2290.0
5.4256644366,-172.43500827,-60.102603194,-154.06337249,2300.0
5.2989492855,-138.67867645,-60.740500266,168.42524474,2310.0
5.3947011266,-104.51844743,-58.997032768,136.93896223,2320.0
5.7683217817,-69.122547848,-57.061484721,105.2249423,2330.0
6.9668615088,-30.451634042,-48.354522802,25.623520969,2340.0
10.71188951,6.426272666,-50.42754901,-41.111374996,2350.0
13.80951798,-8.7134399892,-51.785962328,-141.16213458,2360.0
8.8317273214,10.807045201,-61.230505615,161.92117226,2370.0
6.8488665486,48.090771277,-65.631325546,155.7012573,2380.0
5.9797842307,84.850669087,-69.935924636,154.21159424,2390.0
5.4784906432,119.62896735,-71.541770997,131.67298489,2400.0
5.216681945,153.39034112,-69.622955162,114.57050512,2410.0
5.1388359609,-173.03980803,-68.674672038,98.243857685,2420.0
5.3007203137,-138.97656844,-64.828883225,66.279576005,2430.0
6.0907240797,-103.27491424,-58.897456012,12.386662988,2440.0
8.8992749862,-68.639994567,-58.094991454,-57.875102653,2450.0
12.291100457,-72.610376726,-55.597704231,-142.95670551,2460.0
8.1546620224,-60.244027632,-59.281574516,151.69194668,2470.0
6.2567532297,-24.899954831,-63.111696413,110.8514881,2480.0
5.6204857319,10.760347708,-66.912660335,64.708011055,2490.0
5.4083049409,46.316509604,-69.174869809,49.821775557,2500.0
5.2862857113,80.67246495,-69.521715149,37.264684218,2510.0
5.3506640528,115.22167322,-68.338645254,21.485408419,2520.0
5.5769604018,150.36326257,-64.045722354,-8.4646011652,2530.0
6.2545636389,-173.19034399,-57.073102431,-60.065002706,2540.0
8.5390073768,-137.45707072,-55.891101511,-132.60917937,2550.0
12.31448009,-133.65698141,-53.485684902,136.45383637,2560.0
8.5950082727,-127.21508743,-59.746440035,55.065678956,2570.0
6.4028100741,-93.472446351,-66.285050195,3.0685312054,2580.0
5.6200298775,-58.900640969,-71.056981862,-25.585608038,2590.0
5.3675568752,-25.067669382,-74.858580905,-35.659426689,2600.0
5.308550411,8.515976516,-77.057475509,-41.191386284,2610.0
5.3367760389,42.481818775,-76.938857043,-52.822252326,2620.0
5.5533272331,77.059844293,-70.787545751,-72.040030084,2630.0
6.182495212,113.86416563,-60.817403717,-99.464251818,2640.0
8.0558655836,152.53434666,-55.25582911,160.48861907,2650.0
12.936818714,165.28223586,-53.154812285,85.736016493,2660.0
9.1440599872,162.48584012,-60.065119933,-16.509188574,2670.0
6.5626771443,-163.19850935,-68.140589721,-65.213908227,2680.0
5.577528764,-127.92617236,-76.107521366,-72.021074102,2690.0
5.1546628842,-94.419502699,-82.025807214,-81.704432264,2700.0
5.0137888207,-61.688816041,-84.941076394,-80.682092741,2710.0
5.0213099771,-28.740348261,-82.76546828,-88.181381927,2720.0
5.2375018102,4.7555794192,-77.228960786,-95.175268421,2730.0
5.8564975284,39.476583235,-67.316037279,-119.07730335,2740.0
7.4430976894,75.177979997,-54.876855504,155.07011081,2750.0
11.562423061,99.006201797,-54.26470666,83.232919858,2760.0
10.129767379,88.755277579,-52.303824988,-23.295408628,2770.0
6.8812403705,121.83672489,-56.899010486,-103.01042442,2780.0
5.9218639199,159.3411984,-65.429667327,-148.06592391,2790.0
5.5103163069,-165.40196782,-72.577089773,-147.47308944,2800.0
5.399263115,-132.54557815,-78.48397874,-152.80645737,2810.0
5.4247548856,-98.466443906,-76.167192352,-176.00528749,2820.0
5.5329022548,-65.216097226,-77.567327308,-174.93978097,2830.0
5.9287552965,-30.643224133,-71.934541785,167.64006505,2840.0
7.1642640523,5.3626208645,-60.774086634,122.95384162,2850.0
10.676987882,33.280916253,-59.241689074,9.5548332218,2860.0
11.347253654,23.159039934,-58.333060812,-75.461674728,2870.0
7.3108623334,48.587550044,-62.107419428,-168.67228445,2880.0
5.969048718,85.614625968,-70.558761628,155.26828471,2890.0
5.5463364201,121.15504349,-80.295450661,140.45925842,2900.0
5.4111374506,155.38241114,-80.076471406,144.31592714,2910.0
5.4659915974,-170.91920867,-85.087004729,134.29511851,2920.0
5.6025559125,-136.94196385,-82.906111395,89.318002807,2930.0
5.9715923843,-101.92221163,-75.028583731,89.915459225,2940.0
6.9015734776,-65.16107516,-63.773857271,72.2546911,2950.0
10.001536149,-30.193092447,-55.354456384,-56.991444928,2960.0
12.818597914,-42.723809206,-59.58545121,-144.91012254,2970.0
7.8784425427,-23.749399186,-58.510117209,145.2316315,2980.0
6.1009831488,13.346604867,-66.005260046,56.571757836,2990.0
5.5617556874,48.897570837,-73.563354627,33.511376166,3000.0
5.4336836623,82.893440111,-80.714901516,35.373772226,3010.0
5.5501982618,116.59756374,-87.684448291,0.13647956258,3020.0
5.825064536,150.30185539,-79.741980993,-16.448293713,3030.0
6.2878491942,-175.11850429,-72.666512161,-5.1192154975,3040.0
7.2516553742,-138.80980078,-63.130890029,-32.837272748,3050.0
9.7209767636,-100.52767424,-51.156103342,-110.13196482,3060.0
16.001725284,-98.362711216,-51.123588742,139.81015438,3070.0
9.5017742041,-101.23663959,-54.550381384,73.076410572,3080.0
6.9317247954,-59.57763319,-55.451080368,-22.195777019,3090.0
6.033550533,-20.978729883,-66.991469779,-59.059281173,3100.0
5.772811507,14.471142145,-81.168463846,-98.875947771,3110.0
5.7095409759,48.529411915,-75.282505455,-48.196670902,3120.0
5.8303860125,81.991110773,-73.097974488,-56.517024626,3130.0
6.1655522333,116.21760168,-71.465379916,-82.098772122,3140.0
7.0109758373,151.49003571,-62.205612387,-111.39369533,3150.0
9.2029514934,-173.14908532,-51.716975847,-177.08462479,3160.0
15.065995351,-155.74780684,-50.050950081,77.16926772,3170.0
11.098719391,-178.53413947,-56.185615279,-5.6855612873,3180.0
7.3931511721,-138.33470391,-55.556744357,-62.529895675,3190.0
6.4704302534,-97.237780604,-65.244354217,-157.83479682,3200.0
6.2304073113,-58.930159892,-74.586844162,178.46840959,3210.0
6.2552160251,-22.541805677,-76.818687415,-163.23753969,3220.0
6.3607732033,12.994811451,-76.207515414,-175.18045244,3230.0
6.648471748,48.709063614,-73.512145272,162.14000239,3240.0
7.3447769756,85.82379721,-65.601689268,157.14218689,3250.0
9.3119870969,124.28588164,-52.722348173,80.117079563,3260.0
15.837355661,149.46579558,-47.849219188,-20.690491645,3270.0
12.809408429,105.9365111,-56.084320601,-124.36312299,3280.0
7.7850032858,145.33983618,-57.74218182,-143.45111053,3290.0
6.5655908489,-172.59339642,-54.124250451,120.25575937,3300.0
6.4545019853,-133.98222793,-65.818849142,95.186911259,3310.0
6.6996334642,-96.478629977,-74.113151733,86.775796207,3320.0
7.0434348649,-58.873784134,-73.125854446,58.906809118,3330.0
7.5507130449,-20.935851931,-67.800168334,60.526734523,3340.0
8.4093282676,18.030079654,-60.833722529,54.158290332,3350.0
9.952206932,59.053549063,-50.916214357,14.174882097,3360.0
14.879075159,105.29653151,-48.871963511,-56.650388713,3370.0
19.335869947,21.669361477,-48.910924747,148.15829233,3380.0
9.2240184635,67.306158379,-56.863443195,133.22554937,3390.0
6.9411930787,114.71213751,-51.632516976,101.82093604,3400.0
6.5520449048,155.31526255,-61.276731708,8.742444177,3410.0
6.7331489932,-167.35902808,-65.169964223,-2.4719740565,3420.0
7.305354651,-130.20227712,-65.367298175,9.7276231902,3430.0
8.2200875467,-91.933806065,-64.506465375,10.718258221,3440.0
9.6563945698,-51.461118566,-57.233146134,3.3841262344,3450.0
12.265989794,-8.4216177859,-41.103288401,-74.277029006,3460.0
17.675267269,49.199372495,-46.445534915,-126.20835437,3470.0
21.694672797,-99.399576192,-48.351426154,31.504738941,3480.0
11.208859254,-22.433992142,-59.034337515,56.6652747,3490.0
8.3573974542,36.450405465,-58.825725351,65.376396101,3500.0
7.5355487546,84.749002511,-56.216051282,-27.616352698,3510.0
7.4785244294,126.47993328,-66.86431423,-59.360936002,3520.0
7.9315339827,165.30470639,-69.581058412,-51.584710286,3530.0
8.8481045538,-156.14919794,-66.060543951,-40.10351978,3540.0
10.44555951,-115.61496346,-58.021192793,-46.90635184,3550.0
13.54476271,-70.346415075,-52.550012806,-153.77678323,3560.0
20.169687961,-2.754586517,-53.497362639,-153.06528827,3570.0
18.837048567,159.33201449,-55.782327974,-37.747469131,3580.0
11.847675938,-119.57884171,-61.896330474,-13.566710357,3590.0
9.5681813654,-54.311342618,-60.521753637,-23.504658505,3600.0
9.2265057721,3.9537496133,-48.685017058,-114.55032024,3610.0
9.4808462316,56.519578077,-59.271051306,-166.83829771,3620.0
9.9860269971,104.38465517,-61.908690152,-149.14029697,3630.0
10.846146162,149.37024209,-59.318827086,-132.8246449,3640.0
12.336128476,-167.30981068,-46.733345069,-111.40357209,3650.0
14.682710029,-116.48664445,-51.952978856,43.375725765,3660.0
20.362766382,-34.163505588,-54.521037944,118.68862766,3670.0
16.988912352,89.525962963,-61.807998633,-152.04920032,3680.0
11.203032686,161.69588176,-68.20546273,-133.72818106,3690.0
8.930295161,-138.21096671,-65.972983786,-143.47679158,3700.0
9.0456557815,-82.221773618,-57.813502047,124.18343741,3710.0
10.657776053,-27.196897979,-62.179685209,67.426692688,3720.0
12.970960256,30.609114805,-57.53512501,70.294286696,3730.0
15.231323946,92.489751193,-35.882279647,44.326029981,3740.0
16.559478673,155.05399524,-56.117105978,-66.041063354,3750.0
16.567603657,-130.96266703,-62.925818742,-2.6294068589,3760.0
15.835669086,-59.94079801,-63.059224704,56.559722284,3770.0
14.005276412,12.324288608,-62.803345416,101.84002003,3780.0
11.409090119,79.898614274,-57.193772228,131.23204432,3790.0
9.5076604718,141.46015171,-51.283122037,63.396991046,3800.0
9.248131381,-160.69807886,-57.734258823,34.644965509,3810.0
10.983873287,-105.51730936,-57.644336161,35.052138911,3820.0
15.309417246,-48.914319141,-50.204896537,44.153940316,3830.0
22.608921683,39.137175809,-33.232741328,168.92970935,3840.0
19.049751402,153.89361238,-51.372792543,-58.549395893,3850.0
14.386674302,-148.41828005,-63.226547249,-20.863778029,3860.0
11.831220302,-101.96148585,-64.631535369,7.3257611731,3870.0
10.541718066,-55.530293536,-62.78234945,13.582559854,3880.0
9.9466722003,-4.8032690295,-61.4764432,-14.080705608,3890.0
9.7699736045,51.656043858,-62.838506565,-44.877289904,3900.0
10.425209209,113.84846936,-63.245194666,-48.88852482,3910.0
12.760926738,178.89180031,-60.905615599,-51.758608002,3920.0
18.655469127,-114.2654416,-49.82290761,-56.002333091,3930.0
27.433875407,36.387759292,-31.415885981,-110.42791856,3940.0
16.740728624,124.96361465,-56.960185561,-108.97043486,3950.0
12.18588884,171.72818637,-68.475818777,-105.66935839,3960.0
9.825115256,-148.83128538,-68.643397265,-82.068385783,3970.0
8.4177476965,-111.52671872,-66.542045716,-107.34112754,3980.0
7.8202072557,-73.279316565,-69.907973063,-140.06467423,3990.0
7.89320474,-31.060081788,-72.438602479,-146.43667497,4000.0
9.1989572467,18.460160764,-70.779554137,-146.96792922,4010.0
13.636526646,77.092889265,-64.435728563,-153.73204984,4020.0
28.739718772,146.15592629,-46.913326209,-158.00320815,4030.0
19.7112732,11.200100695,-49.64735436,-76.68826671,4040.0
13.835939116,63.281659782,-62.92669546,-173.42960181,4050.0
11.204600478,109.05599194,-74.021243733,153.11366831,4060.0
9.4090490952,150.12341467,-76.996497588,-176.89660503,4070.0
8.0361954362,-171.68572562,-73.053244812,141.74025414,4080.0
7.1280624516,-135.51899879,-74.684854894,123.93872288,4090.0
6.8099521519,-99.213827833,-77.305243096,112.06092725,4100.0
7.3568811282,-60.36030072,-75.903461502,87.911191333,4110.0
10.277672124,-20.410493546,-67.214272379,73.250262502,4120.0
17.20602359,-17.21914924,-55.621060588,16.270815038,4130.0
13.231036094,-32.43211164,-56.271620864,-138.47653953,4140.0
10.234167548,-0.34216690954,-65.423945961,133.30237351,4150.0
9.0518444149,37.594957187,-71.436811102,98.10806521,4160.0
8.4522391216,76.193323521,-78.437891009,122.32988359,4170.0
8.0384837374,115.83308908,-73.343104553,91.95603307,4180.0
7.4688043552,155.06440717,-75.163440954,67.777612249,4190.0
7.0258124572,-166.47903921,-75.006078982,52.454904724,4200.0
7.0496611534,-127.842649,-72.04183706,54.796437357,4210.0
8.5447804496,-89.342998338,-68.972594545,48.848870473,4220.0
12.618891191,-71.933364914,-62.923828538,-34.982762821,4230.0
11.095104233,-79.193134404,-58.928002224,-165.05278908,4240.0
8.4747284389,-54.331845356,-65.234265931,133.6098543,4250.0
7.3589463348,-23.890292469,-71.080235865,89.999222714,4260.0
6.8479541001,7.943237583,-70.257333023,13.811759755,4270.0
6.7760505058,41.157808212,-72.485535833,-2.8485485662,4280.0
6.8769385634,76.432728382,-79.230803451,-27.536327014,4290.0
6.9840137235,114.43198249,-80.749884041,-80.919903517,4300.0
7.2753673852,153.69953935,-75.912087708,-57.669330534,4310.0
8.3399857455,-164.96528695,-73.901681822,-51.094628711,4320.0
11.678841901,-137.16668407,-67.931090607,-119.39288666,4330.0
10.96934118,-139.41853879,-61.761583511,125.61302531,4340.0
8.0722206425,-114.30756045,-68.856477915,87.208795153,4350.0
6.7922737048,-84.403832049,-76.54857788,49.795819447,4360.0
6.0962123568,-54.314707955,-75.067967197,-30.483970273,4370.0
5.7486557834,-24.70276388,-80.303140229,-103.64669001,4380.0
5.7475957021,5.1184205365,-83.13117943,-89.245744153,4390.0
6.0900160858,36.936575207,-85.109639929,-91.009646797,4400.0
6.751616341,72.068302512,-88.644067087,-133.66200756,4410.0
8.1137055037,110.01093557,-77.899667701,154.86739165,4420.0
11.224450217,139.58250011,-65.870283168,125.59740656,4430.0
11.441687418,145.78802361,-61.749970296,40.616127838,4440.0
8.6949819361,174.63093952,-75.889767143,-17.024921821,4450.0
7.2202266456,-150.65120879,-82.4339431,-84.072806309,4460.0
6.412040671,-118.32595576,-79.237308609,-91.726701167,4470.0
5.9389457052,-86.527986825,-74.986129539,-115.86856371,4480.0
5.5135934095,-57.06281084,-78.565733312,-152.58402386,4490.0
5.3336602216,-28.458147508,-82.027396379,170.03705412,4500.0
5.6018961647,1.1955650951,-83.810948327,163.65354869,4510.0
6.4764005461,32.731636109,-82.603332782,102.18142177,4520.0
8.6001439858,60.273619831,-72.483821006,71.191073489,4530.0
9.4921064512,71.552797919,-71.96456081,-5.9768895262,4540.0
8.0799134611,97.029404134,-82.016398213,-139.64859788,4550.0
7.2561893593,131.38375609,-82.617452996,168.0899711,4560.0
6.9043894442,167.07504373,-91.029624644,-139.16341752,4570.0
6.4773347197,-158.09039064,-98.112391731,165.45693272,4580.0
6.0724574442,-124.54985015,-92.13158831,-97.325709438,4590.0
5.6179646291,-92.761609892,-95.965986668,-138.96577579,4600.0
5.4971950359,-62.166577676,-89.181950721,161.97900158,4610.0
5.6933748159,-32.464006009,-83.343507227,-162.8805236,4620.0
6.8935624658,-4.8796381711,-87.95088959,-156.76841236,4630.0
7.8320427142,8.4470321055,-77.21406516,42.597244028,4640.0
6.6408017149,28.671146117,-78.975554992,-14.551537078,4650.0
6.1414711489,57.762481702,-90.613819727,7.2020188877,4660.0
6.1176371671,88.665120817,-89.727952099,-168.78465726,4670.0
6.190216013,121.20120305,-83.749587566,-114.22065001,4680.0
6.2562909213,155.24873568,-83.634288024,-145.4329124,4690.0
6.3390588225,-169.86434547,-96.546516435,-21.088968041,4700.0
6.3023463204,-134.73927172,-86.37954391,-69.265441121,4710.0
6.2913432219,-100.92060084,-86.509196762,-77.189847699,4720.0
6.7437896006,-69.046338176,-92.065421678,99.250917179,4730.0
7.9433612993,-47.179210136,-75.958799605,97.213369974,4740.0
6.8702255012,-32.290896401,-79.554918313,53.892098596,4750.0
5.7030157765,-6.018731767,-93.613458968,-27.562389019,4760.0
5.3510441911,22.139666184,-93.726831987,-119.6963487,4770.0
5.2599768537,50.487658607,-86.86077447,-106.36646525,4780.0
5.3654849712,79.848290223,-86.951773071,-68.014146975,4790.0
5.69386224,109.81834052,-82.217674784,156.6857463,4800.0
6.1420073204,142.81617621,-80.089372199,167.87822559,4810.0
6.6073868127,177.64704505,-83.46689615,-168.49255592,4820.0
7.3721432099,-147.2033581,-84.924669002,73.084360623,4830.0
8.5695379566,-119.3353458,-75.431161047,46.884827758,4840.0
7.7886858718,-99.555466225,-85.606892268,-36.88516575,4850.0
6.3361122875,-70.712210172,-87.126899647,-174.18481583,4860.0
5.536517385,-40.766394193,-84.368522869,178.04594645,4870.0
5.0908756825,-12.918453645,-86.752653127,-153.53916587,4880.0
5.0389128325,14.88782379,-87.767935071,10.953435021,4890.0
4.77065527,41.993672063,-76.091422124,30.22140055,4900.0
5.2572836133,71.484236227,-76.258040455,120.79980435,4910.0
5.7424942881,100.99096281,-81.475059716,-143.98972726,4920.0
6.535069555,131.37442138,-76.270070003,-83.099038509,4930.0
8.131293957,159.00142647,-72.440677329,-99.051330868,4940.0
8.2327775644,178.97729536,-79.383104749,108.12806844,4950.0
6.992113177,-149.7083252,-73.750485122,59.162422166,4960.0
6.3090540894,-115.01284599,-78.975792102,84.195692236,4970.0
5.8412913114,-82.268335887,-81.30077665,-83.931317236,4980.0
5.5097228875,-51.502186948,-71.883703306,-29.342850633,4990.0
5.2729921556,-22.138565915,-73.131624873,-11.737421678,5000.0
5.0693339813,6.2277521841,-90.969934398,-159.13928716,5010.0
5.1931681089,34.464001199,-83.305624014,-157.99262504,5020.0
5.6642305266,63.212463637,-79.940328028,-123.63205024,5030.0
6.7431304114,87.159770582,-79.292594182,168.28150634,5040.0
7.4914773906,103.67397418,-66.54908084,60.065669537,5050.0
6.4563661798,129.72202817,-71.166488927,35.930620776,5060.0
6.1472004071,162.3555256,-96.327757774,52.356387011,5070.0
6.1684412243,-163.71307383,-80.141118294,-46.638674591,5080.0
6.1785658551,-129.33777903,-78.310094061,-39.721598128,5090.0
6.087403413,-95.471200933,-84.334212802,-8.9189114408,5100.0
6.0158629568,-62.697369302,-82.699635581,167.3450319,5110.0
5.8560779295,-30.764948184,-84.057795481,-156.37758298,5120.0
5.8476231524,-0.45563565371,-85.926393037,-104.89801023,5130.0
6.4497270058,26.110141844,-77.64667483,155.34983553,5140.0
6.9410705042,42.87972286,-63.777585394,89.278641859,5150.0
5.7524753398,63.197945478,-76.687323552,48.49776195,5160.0
5.1125095463,91.41868489,-72.710966556,-56.427893689,5170.0
5.1944932937,120.21562755,-71.927149945,-15.554726186,5180.0
5.6360997935,150.39457272,-78.385553248,140.09454527,5190.0
5.840105251,-178.425164,-65.168725963,-172.32185572,5200.0
6.1583338528,-144.32349089,-73.6899973,-114.57349309,5210.0
6.5314065598,-110.28395381,-75.043606376,-31.930327088,5220.0
6.8417758878,-74.806333212,-74.939669637,49.111252992,5230.0
7.2232053407,-42.614910411,-64.742381977,156.40701071,5240.0
7.9638895941,-19.84485598,-53.792974599,133.53369005,5250.0
6.8252838133,-2.1479350448,-66.506539256,-20.012349529,5260.0
5.4524712028,25.563803068,-62.06065929,-55.891174287,5270.0
4.9261786072,54.84281757,-69.450958029,-27.535449702,5280.0
