S11m,S11p,S21m,S21p,Frequency
8.1793872704,162.16581744,-63.759311142,-140.36424789,2000.0
7.4666282556,-167.06684068,-69.298981904,-149.76976137,2010.0
8.9457354998,-135.33871693,-70.963495643,108.34091839,2020.0
14.821687812,-96.75048549,-57.214822225,78.026440222,2030.0
22.27479108,89.788277871,-52.707303173,-157.41052361,2040.0
10.738142529,140.67616265,-67.134071386,135.53173854,2050.0
7.8975359826,174.43094163,-61.399639341,104.46929514,2060.0
7.736034635,-154.18602039,-56.056171964,109.38956137,2070.0
10.121610651,-120.85382306,-50.89155577,131.54499009,2080.0
18.92586759,-75.28732794,-42.729378803,159.09591239,2090.0
17.251852886,107.70505239,-47.077186226,-55.252399469,2100.0
9.9204920301,148.92067866,-56.062376629,-54.653319093,2110.0
7.81393676,-179.93151039,-60.226570717,-55.109508256,2120.0
8.0815793757,-150.44862869,-63.518879274,-53.73519177,2130.0
11.182874399,-119.79951974,-66.735179776,-71.069500336,2140.0
24.780963423,-97.656035903,-50.385699594,-144.35668387,2150.0
14.713997634,138.49215938,-55.713134857,50.272311538,2160.0
9.2820767676,168.32933849,-57.996476894,59.306768423,2170.0
8.0101890844,-162.94551507,-55.829532344,83.359531868,2180.0
9.1529039997,-134.06286937,-51.585917833,126.68539261,2190.0
14.071217656,-103.08974474,-48.833538048,172.16626364,2200.0
31.372170302,125.15173456,-34.117734598,52.684428375,2210.0
12.390608301,146.93681007,-50.725173597,71.507323077,2220.0
8.6776380472,176.74376347,-52.641445822,83.210570933,2230.0
8.115071414,-154.39436191,-52.921279096,90.86278028,2240.0
10.192338521,-124.34892534,-50.042757359,103.14539027,2250.0
18.729880851,-94.081825654,-39.724015166,121.63942923,2260.0
17.334044059,131.96314129,-41.006633795,-25.276027392,2270.0
9.5122162484,162.07540267,-50.277443291,-8.5672778603,2280.0
7.3484840838,-168.86930946,-54.000988826,13.36697656,2290.0
7.5019515438,-139.61674843,-57.303873297,43.367622153,2300.0
10.190972091,-106.73545999,-63.07506088,46.155247232,2310.0
21.080332318,-55.554489407,-52.526654105,-8.5429763423,2320.0
14.467642775,127.60524911,-53.493662637,117.29148483,2330.0
8.3963059671,166.25053385,-59.016224387,115.84298475,2340.0
6.7549446034,-162.00505812,-62.439896713,98.768114662,2350.0
7.2557446409,-130.22111762,-64.311995894,64.22623512,2360.0
10.671141266,-91.69281363,-64.825105279,3.2115911912,2370.0
22.159678218,6.2517314698,-49.258443644,-2.260047647,2380.0
11.383842755,131.4045535,-56.865553447,69.166991358,2390.0
7.128116276,171.10592467,-59.998777296,81.558325959,2400.0
5.9458966152,-157.10003848,-62.370757502,115.16401843,2410.0
6.5855558313,-125.54899698,-67.64690017,174.15011535,2420.0
10.008163295,-87.059282034,-63.646524121,-88.743788188,2430.0
21.366945701,7.0366959387,-49.250066206,17.49070901,2440.0
11.417881828,136.36975451,-59.496395594,150.60448458,2450.0
7.1828657094,177.28962849,-64.347905791,-161.36885965,2460.0
6.0941654335,-150.15910904,-63.687641913,-127.42233696,2470.0
6.9631340918,-117.52470099,-61.575616011,-109.0786658,2480.0
11.077521905,-75.987143027,-59.865147773,-98.033690685,2490.0
20.704333596,44.277556167,-55.064476108,-21.690949312,2500.0
10.575492948,143.70753946,-74.059740001,4.1650031128,2510.0
7.0171506778,-176.98710051,-69.74681727,-47.122942794,2520.0
6.2765234126,-145.26769575,-64.096362022,-39.12088999,2530.0
7.6603272071,-113.11148315,-59.469686775,-21.53817627,2540.0
13.293530407,-72.92490741,-50.529112143,7.1824675784,2550.0
21.29755745,104.1642232,-39.958117944,170.21121384,2560.0
9.8407366925,162.7415129,-51.916951418,-146.75259181,2570.0
6.9108497351,-163.08597648,-56.147496627,-112.71954311,2580.0
6.6765267995,-132.33125633,-57.860583808,-67.942050612,2590.0
8.9006115594,-98.909709391,-58.480172003,-34.564195758,2600.0
17.40700602,-50.670354009,-52.798162907,-6.3566776325,2610.0
15.778578316,132.81278152,-59.578845342,152.69697536,2620.0
8.6070879703,176.29414609,-74.811364927,-103.98895202,2630.0
6.734027455,-151.2488877,-64.840254625,-36.955871647,2640.0
7.2250089348,-120.19469556,-58.162955575,-28.40598872,2650.0
10.854689424,-83.582670358,-50.641897865,-20.805531757,2660.0
25.613795738,15.169281873,-37.800757677,42.452112442,2670.0
11.333987637,151.68653119,-61.30067769,-178.60008371,2680.0
6.9952341333,-170.41742408,-64.297091773,-89.56822318,2690.0
5.98069846,-138.87420812,-62.131833265,-42.501812663,2700.0
7.0385218499,-105.85159337,-60.384709875,-4.482483102,2710.0
11.52767623,-61.817416602,-56.046575785,33.063474716,2720.0
19.426229361,77.275788738,-47.83026075,166.99420564,2730.0
9.3051116518,159.66442139,-56.664630189,-108.57628083,2740.0
6.1865679951,-162.31789332,-60.560383895,-66.31754195,2750.0
5.6167157451,-130.08036857,-63.702212636,-35.690443633,2760.0
6.8902940866,-94.317506372,-61.244668338,15.357169465,2770.0
11.573851032,-40.084351074,-52.486753113,56.230070742,2780.0
14.098125377,92.318232813,-49.156506127,157.57441525,2790.0
7.4470574067,163.33499478,-57.186565392,-155.003919,2800.0
5.2063614477,-157.4100217,-64.05486518,-99.510992866,2810.0
4.9880744865,-123.1534978,-63.271323045,7.9687462745,2820.0
6.6011455625,-83.732419839,-55.765256088,59.256490569,2830.0
11.956618361,-16.675845312,-45.453515469,107.29717051,2840.0
10.814206312,114.0741175,-44.164381849,-141.3937605,2850.0
5.6527720237,174.74253829,-50.042830242,-93.858179301,2860.0
3.7914550296,-146.62104905,-51.948451358,-67.403734499,2870.0
3.2615311478,-109.90506756,-51.790959042,-34.055159243,2880.0
3.713290676,-62.271747804,-50.091276759,17.040268386,2890.0
4.8543797149,16.676245646,-47.71069079,83.438338769,2900.0
3.5309264597,112.79111784,-48.601474239,156.30680024,2910.0
1.8899265694,175.15511098,-51.519373577,-148.21767306,2920.0
1.1364696978,-142.36934331,-55.366841972,-110.25136638,2930.0
0.55832168878,-102.148094,-59.007909365,-97.15274219,2940.0
-0.68840181393,-47.521978557,-57.079777421,-102.5610372,2950.0
-4.2485910899,41.713246622,-52.351932979,-74.898117328,2960.0
-6.1498551993,138.34261914,-53.472891131,-49.506336257,2970.0
-6.5305801137,-168.32162613,-57.038233327,-32.656973593,2980.0
-7.7817422764,-144.25931946,-58.023414195,-14.711868928,2990.0
-7.8518389582,-137.01132286,-57.275855281,5.7419667549,3000.0
-6.9048328628,-121.11983114,-55.547698949,28.556385994,3010.0
-7.5061395551,-94.472503716,-52.126519966,58.437081035,3020.0
-10.808736941,-56.968435251,-50.433500771,114.0115485,3030.0
-15.986198841,32.420680372,-54.101218705,165.64847022,3040.0
-7.9366446916,127.3839012,-59.89621157,-161.96679266,3050.0
-2.7454088304,177.42477119,-65.317269738,-150.78336742,3060.0
-0.60652499161,-142.01056686,-69.964534617,-169.80893876,3070.0
0.4706882727,-103.10757218,-77.098086992,-151.11711861,3080.0
1.7735859673,-52.852831042,-67.721368448,-110.3857096,3090.0
4.3693909211,32.791069305,-56.028942376,-76.123767349,3100.0
4.270924531,135.97520689,-51.429428497,-9.3429174836,3110.0
2.9952272521,-164.22848744,-51.644325874,34.005506496,3120.0
2.7204103991,-124.39761687,-51.400459823,66.66002172,3130.0
3.4465555471,-86.181827249,-51.446583052,98.633980121,3140.0
6.1691062412,-34.917332309,-50.811530421,127.7478433,3150.0
10.993427485,63.267841972,-47.28849415,-171.86456534,3160.0
7.6206680759,161.71116448,-51.180289007,-110.3684902,3170.0
5.3061921018,-149.75387774,-53.759622712,-91.504823151,3180.0
5.0251131201,-113.67779059,-55.507387307,-81.145716422,3190.0
6.6246805973,-75.853833801,-54.221250021,-69.517969858,3200.0
12.400471286,-18.45441081,-48.66277868,-31.841862148,3210.0
14.051468767,125.36318636,-52.186959761,96.491215715,3220.0
7.564137957,-171.61669715,-74.358180643,125.09332242,3230.0
5.633150966,-134.95729956,-71.445186243,6.1831871323,3240.0
5.7199929932,-103.20864214,-66.125898104,29.266355451,3250.0
7.9811641892,-68.406143056,-62.145800079,55.577159057,3260.0
15.977981808,-15.395689266,-51.462870358,83.564612959,3270.0
15.201042569,153.78051958,-51.573104031,-130.39387336,3280.0
8.4334102656,-157.82385093,-60.287542264,-74.383169601,3290.0
6.6526367516,-124.64901965,-64.99199232,-34.002330509,3300.0
7.2054649531,-93.944015171,-65.078659056,0.92692978166,3310.0
10.720130115,-59.619947387,-60.030182533,50.884535693,3320.0
26.098208477,5.244375012,-43.563672611,140.43474358,3330.0
13.163400335,178.70620955,-55.17458164,-36.792695778,3340.0
8.2754037998,-146.38353406,-60.232253192,1.171249351,3350.0
7.1008203596,-117.35455991,-62.350866716,34.719752623,3360.0
8.1432307267,-89.463783557,-63.460717923,56.170197893,3370.0
12.615892771,-61.284941259,-59.741339846,78.600915203,3380.0
29.579134605,-123.55775195,-41.927441737,10.408829833,3390.0
12.514445739,-157.74669812,-59.482409062,-14.835293652,3400.0
8.7519825801,-131.22056468,-65.688694688,36.935900333,3410.0
8.300435917,-105.2644584,-64.095456229,86.718274176,3420.0
10.325920998,-79.973315458,-58.670568093,134.82000415,3430.0
17.170928634,-63.853538375,-51.870983517,156.25067518,3440.0
19.002105347,-154.1776788,-52.347068515,59.493443895,3450.0
11.077810176,-144.54687387,-62.537688346,63.641357309,3460.0
8.7050331462,-121.1202251,-67.504680057,88.060310855,3470.0
8.9564880952,-97.004433888,-71.398075463,103.67600896,3480.0
11.950602166,-75.247405652,-72.263191,118.76851261,3490.0
19.9783902,-86.879403504,-62.532056846,141.5068712,3500.0
14.698985876,-144.07420502,-60.22101886,133.895999,3510.0
10.051075495,-128.90084146,-62.071840552,-173.83499455,3520.0
8.9610423197,-106.40144615,-64.401058689,-151.22880902,3530.0
10.173587743,-83.544424613,-64.085367098,-137.86770452,3540.0
14.810772087,-65.96204101,-61.271282125,-124.14032481,3550.0
21.9982966,-124.63312741,-54.15389841,169.715214,3560.0
12.723370229,-143.98073909,-63.012997055,136.85889684,3570.0
9.3484295491,-123.27218994,-67.148109429,155.26609091,3580.0
8.8858217664,-99.379409783,-68.067609428,-176.4706291,3590.0
10.829634598,-76.734930017,-66.301469394,-144.81455639,3600.0
17.096666816,-68.553472855,-48.12580425,-114.19643039,3610.0
17.58245326,-136.95361251,-49.140764753,-65.871075987,3620.0
11.24604644,-132.37419564,-60.768551765,-83.332540381,3630.0
9.1518732139,-111.28706184,-65.838322504,-105.26831945,3640.0
9.3618267127,-88.459133411,-70.506820458,-120.17013675,3650.0
12.138866727,-67.202900497,-71.327662021,-130.16847966,3660.0
20.373189651,-71.998309849,-63.760040607,-123.51545468,3670.0
15.799625771,-142.07140632,-63.616135861,171.79363621,3680.0
10.498198522,-126.49667228,-63.60216623,-166.05591048,3690.0
9.1462293669,-102.36437919,-59.482254242,-136.41424953,3700.0
10.352060778,-78.810121233,-50.166223611,-60.33224331,3710.0
15.283549472,-64.169763553,-56.648535687,25.479557529,3720.0
19.814873736,-124.6063006,-57.729540416,-42.037174832,3730.0
12.096337319,-133.12012604,-68.778170096,-64.805184016,3740.0
9.2440869531,-112.03789883,-74.974688133,-59.470052563,3750.0
8.938836249,-87.94548528,-83.419454298,-97.056098676,3760.0
11.119045709,-63.467567302,-77.472558248,-156.15563339,3770.0
19.089139925,-49.984437922,-65.387710984,-156.54695956,3780.0
17.496206752,-147.37245617,-59.494803398,117.473398,3790.0
10.575212158,-128.32210837,-64.193650059,-174.37009059,3800.0
8.6351518036,-101.40831392,-71.684314279,-144.86363364,3810.0
9.3861873433,-73.945961824,-75.106200918,-146.29887315,3820.0
13.975271104,-46.409479049,-68.3233975,-154.87175606,3830.0
28.952195893,-137.68313061,-51.549674606,71.194408045,3840.0
12.248422621,-146.96790696,-65.82831006,26.586564793,3850.0
8.3593098656,-118.34550806,-70.051236366,42.667715329,3860.0
7.4416082871,-89.981401406,-70.516026139,107.00391139,3870.0
8.7478034812,-59.865312451,-64.421709636,171.70260013,3880.0
14.367398134,-23.173857781,-53.43514441,-121.1884904,3890.0
22.815334838,162.42455976,-46.385457866,89.371135991,3900.0
10.646093401,-143.73999527,-64.879885167,147.33966406,3910.0
7.6613516468,-109.33227483,-73.525094089,-173.4097652,3920.0
7.4936083053,-77.515674592,-77.289076569,-117.16990403,3930.0
9.9436609053,-42.370663693,-71.651172921,-57.605428398,3940.0
18.927380773,16.335598003,-58.247645529,-0.67194245181,3950.0
14.698993321,178.05294649,-58.163210929,129.3740434,3960.0
8.4621729794,-135.75741852,-61.542215774,154.4983415,3970.0
6.608364953,-101.66214798,-61.615930203,-161.07741118,3980.0
6.9141247106,-69.140901145,-61.701058397,-106.94734469,3990.0
9.9269995319,-30.223246012,-57.938328444,-48.149975681,4000.0
19.568538333,48.777515321,-50.825519571,51.015122773,4010.0
12.572055051,-169.87914899,-61.745249545,-168.41587382,4020.0
7.7564576491,-124.3756602,-68.768989912,-122.9914985,4030.0
6.5527375629,-89.411480118,-70.297798055,-90.88049883,4040.0
7.4783092133,-54.285225565,-69.358783108,-48.60051419,4050.0
11.446491336,-7.9318043851,-65.456823878,-6.4532925114,4060.0
18.010493538,105.42055722,-57.899483183,111.96207898,4070.0
10.299128631,-160.6490171,-59.684508757,-152.89692516,4080.0
7.0282102261,-117.68216927,-63.621775221,-72.535358971,4090.0
6.531750357,-82.429739459,-67.847311906,-27.411545479,4100.0
8.2146701204,-45.018983624,-66.510646433,1.292157436,4110.0
14.291389318,8.7065719208,-62.065154189,39.154184499,4120.0
16.296652231,160.27244498,-62.552622732,170.2337111,4130.0
8.8531520786,-137.82159052,-73.153144996,-139.2940937,4140.0
6.6657395018,-99.692476154,-77.004158876,-99.893690838,4150.0
6.8357939641,-64.517011729,-74.436062933,-31.102967294,4160.0
9.3951527368,-23.106451061,-64.299416893,5.3813185085,4170.0
16.693408816,52.718612239,-50.557091617,57.665417941,4180.0
12.561613741,-177.98032385,-51.5022974,-160.67923499,4190.0
7.8484458563,-127.00915505,-63.750564537,-110.26524472,4200.0
6.6296062248,-89.77481687,-69.918046634,-81.471737433,4210.0
7.5260672444,-53.717955383,-70.516924361,-55.796739223,4220.0
11.658379977,-8.1821651808,-66.810092621,-29.287668365,4230.0
19.594849703,112.90978816,-59.929431838,57.060451427,4240.0
10.491586119,-152.35981968,-72.206780352,113.97045174,4250.0
7.1882123605,-110.64193323,-79.433131496,98.964903584,4260.0
6.6593359725,-75.254465149,-79.564127882,67.935265141,4270.0
8.2646768129,-37.988922224,-74.891633517,31.834831248,4280.0
13.958417059,15.188733731,-61.296590896,78.320129075,4290.0
16.545045819,156.73527844,-57.858224155,-134.66453467,4300.0
9.3728381016,-137.30585578,-67.295698977,-85.596525575,4310.0
7.125758564,-97.82371142,-69.847228835,-68.818886133,4320.0
7.3123297248,-62.182547812,-70.023808967,-49.657432078,4330.0
10.081227903,-21.040191726,-67.097378258,-14.278504827,4340.0
18.192435109,57.905582346,-58.70501871,46.65005498,4350.0
12.825230387,-171.97965438,-64.482616894,166.67226266,4360.0
8.1135451409,-122.91753801,-66.839573128,-134.6244917,4370.0
6.8423538456,-86.340803717,-61.53675395,-80.824738517,4380.0
7.7330389636,-50.789130968,-56.433354452,-22.656415966,4390.0
11.869851288,-7.3553801512,-52.702036308,30.251109659,4400.0
21.03895664,109.16211142,-45.989734735,142.05773814,4410.0
11.517899437,-149.45365941,-58.062347849,-132.58237043,4420.0
7.9950502289,-107.71949162,-63.660149493,-110.3218049,4430.0
7.4830984514,-72.658948842,-64.485250322,-83.184941559,4440.0
9.3530894034,-35.91598976,-62.149628395,-59.443384872,4450.0
16.123224906,17.399083863,-54.893778147,-19.051500708,4460.0
17.040417309,172.03500618,-55.311026401,132.87343131,4470.0
9.6851237479,-130.83025704,-58.375178214,-116.87836676,4480.0
7.5446570454,-93.420089848,-55.670043964,-29.871863264,4490.0
7.9201942489,-59.085957285,-57.351531527,10.190646689,4500.0
11.269613892,-19.802119255,-55.414330414,38.976860734,4510.0
22.779296911,62.714675247,-45.443686917,105.9181227,4520.0
13.428178848,-154.46522118,-56.42008344,-127.86967571,4530.0
8.684738197,-111.88390852,-61.782585542,-101.4878161,4540.0
7.6041413649,-76.962455446,-62.213840495,-79.02240965,4550.0
8.9141835202,-41.34147683,-58.202897803,-48.774987336,4560.0
14.064380357,6.505974656,-48.741629692,3.1687394953,4570.0
19.453353033,146.9296325,-34.399263755,167.03719119,4580.0
10.584368318,-139.61631575,-50.39959512,-40.171119805,4590.0
7.7101273218,-100.07172649,-63.254070379,-16.080216956,4600.0
7.5720789923,-64.967465398,-69.075523635,4.1780373255,4610.0
9.8460546157,-26.563424841,-68.0218451,32.165913558,4620.0
17.266094689,35.389660683,-60.639356612,70.333382097,4630.0
15.160747133,-179.22398522,-64.478621383,-170.56481047,4640.0
9.0024672602,-126.05561549,-72.761244752,-135.00728375,4650.0
7.098349628,-88.797057908,-73.709158822,-132.66775758,4660.0
7.4582347533,-53.120918829,-68.944070567,159.69120305,4670.0
10.291520737,-9.8958892076,-56.986801749,45.715884266,4680.0
17.092192366,74.11896613,-50.876914044,68.364149835,4690.0
12.05264784,-169.60257127,-58.535343693,149.88434498,4700.0
7.7674713085,-120.12221414,-64.741043626,175.1376404,4710.0
6.5575290144,-82.658913212,-67.494076725,-166.31349555,4720.0
7.3147935725,-46.026858689,-66.406915248,-138.79867033,4730.0
10.703065758,0.017252417279,-61.387354903,-107.46468739,4740.0
16.928011681,97.677423793,-53.599285126,-42.156834304,4750.0
10.789116433,-160.48111339,-58.22309174,17.234112576,4760.0
7.1332820212,-113.51301092,-57.365480911,-19.886867945,4770.0
6.1856545508,-75.671512382,-60.984642358,-70.994857465,4780.0
7.0840029474,-36.80050584,-62.671280094,-71.869366208,4790.0
10.561062571,15.613715196,-58.197913131,-34.028951416,4800.0
14.053559137,120.19610975,-53.668969894,51.101452324,4810.0
8.9399566106,-154.95335666,-59.410244012,109.13825828,4820.0
6.2320367128,-108.03826589,-63.177888785,135.93854514,4830.0
5.7163827448,-69.178621528,-63.453304885,160.53401785,4840.0
7.0003515158,-26.679576591,-60.918515696,-174.51427998,4850.0
11.016697515,38.277493662,-54.529455506,-138.89071464,4860.0
11.040529753,154.11760969,-38.468379001,-56.864259146,4870.0
6.2229777117,-135.08160255,-56.076283777,111.54708971,4880.0
4.142653927,-87.865909887,-60.026685894,129.28968594,4890.0
3.4548531918,-42.733492881,-59.569052182,146.36955841,4900.0
3.1771434069,15.439948053,-57.543712997,178.68213675,4910.0
1.4597663628,95.670207402,-56.71606615,-121.92003682,4920.0
-0.95834604948,174.04546454,-59.5699136,-75.166914163,4930.0
-1.9996974953,-128.06234095,-60.686070238,-30.204275263,4940.0
-2.7159453839,-81.735195973,-55.94704736,7.3611137954,4950.0
-4.600058953,-32.347780147,-50.502805075,61.878829272,4960.0
-11.225222168,49.419326491,-46.609806227,133.43691102,4970.0
-9.2624191893,-146.29483382,-46.399171555,-139.79699486,4980.0
-4.4809709434,-72.448721114,-49.97211178,-70.18580093,4990.0
-2.3684660934,-1.9252370617,-51.12461318,-21.175350135,5000.0
1.0333317031,95.604605345,-49.786475577,36.998778927,5010.0
2.9751426048,-166.37689083,-50.344008722,108.42862831,5020.0
2.9539960947,-103.88401466,-52.955140405,155.39801604,5030.0
3.4234684557,-56.318571367,-52.500492529,-175.50193168,5040.0
5.1332496172,-4.5380227743,-47.650717807,-150.81626504,5050.0
8.3334062629,70.685973341,-39.305564105,-72.570872743,5060.0
8.3226463412,165.0157195,-43.894388465,51.587209765,5070.0
6.3566230804,-132.2622009,-50.650483308,113.06502737,5080.0
5.9116045378,-89.243955206,-53.880511488,159.55269219,5090.0
7.1918313431,-51.506108366,-55.009340993,-156.15317623,5100.0
11.646530778,-10.192392716,-52.714608287,-128.59489526,5110.0
25.890332717,108.34504651,-39.264654408,-35.424185429,5120.0
12.340211732,-137.44983778,-50.980317067,62.196246632,5130.0
8.5206791946,-98.796429798,-49.606425807,112.57295486,5140.0
7.9927191138,-65.320405046,-46.727635581,-172.9394221,5150.0
9.9747687154,-30.990208646,-43.373424662,-103.08561627,5160.0
16.919105574,12.158440458,-40.423198833,-48.081711993,5170.0
20.473583531,-174.58320462,-40.358996336,102.21399878,5180.0
11.458259039,-124.87283287,-50.887326455,125.53887166,5190.0
8.962899911,-91.622919523,-53.494288705,137.02674508,5200.0
9.0702410473,-61.658123472,-53.425583208,155.84169662,5210.0
12.01744316,-31.451912119,-50.525805755,166.99027625,5220.0
23.319552148,-2.8178919985,-37.600796027,161.89804522,5230.0
17.055597092,-141.42413496,-35.057829373,-32.449166264,5240.0
10.592764416,-111.59916591,-44.76070139,-169.00569002,5250.0
8.7302154614,-83.466244805,-51.429202473,-179.2172377,5260.0
9.0612518641,-56.865425142,-51.957111029,-166.34408397,5270.0
