S11m,S11p,S21m,S21p,Frequency
9.3131403652,162.52539501,-54.7853738,36.610923119,2000.0
8.2991926496,-168.42141029,-54.976526552,62.597659392,2010.0
9.6899371066,-138.77704967,-51.045530708,77.69296655,2020.0
15.717678853,-107.25609259,-43.080802875,79.847977406,2030.0
23.195113624,118.3965681,-35.793771985,-91.298582223,2040.0
11.428088662,147.1214102,-50.239219992,-96.191786853,2050.0
8.6482262989,178.10263336,-58.463848679,-89.629733408,2060.0
8.6991045985,-152.01321131,-69.290044331,-103.37025602,2070.0
11.756632995,-121.52387673,-61.610875474,159.07840278,2080.0
24.675325825,-93.800627831,-42.22810708,170.00633458,2090.0
15.816069693,129.51469965,-48.967815363,26.04853067,2100.0
9.9060895547,159.91851231,-53.853538058,38.591678163,2110.0
8.3204437884,-171.40487592,-55.065921686,42.032716203,2120.0
9.2250874212,-143.15527513,-54.283740633,47.476865838,2130.0
13.878845006,-116.13804456,-49.838910497,55.487724936,2140.0
26.288041429,168.44457925,-37.383627954,-30.706496157,2150.0
12.585216654,154.13137712,-51.721067409,-61.108556607,2160.0
9.1517057111,-178.54211944,-59.156960117,-54.648409853,2170.0
8.9376498966,-150.74389126,-67.401061911,-33.36305812,2180.0
11.714031462,-122.33538162,-64.295493473,82.034109501,2190.0
23.003697445,-103.98707954,-49.41876357,101.81625056,2200.0
15.921252396,138.84478315,-62.904184587,33.746165284,2210.0
9.7178146518,166.01856163,-57.197552483,91.914156682,2220.0
8.078201589,-165.35953292,-53.612902454,91.977653961,2230.0
8.9780181485,-135.85469806,-50.79385287,94.244474262,2240.0
13.941323332,-103.77308763,-45.10711164,103.5379282,2250.0
27.044934802,124.12300228,-31.221870372,-54.420198409,2260.0
11.193893458,151.06633061,-47.965525477,-51.787023265,2270.0
7.7206824055,-177.80829839,-53.132969959,-38.2147974,2280.0
7.1783806599,-147.69917349,-54.529586125,-22.40264908,2290.0
8.9014964398,-114.3516222,-53.442153685,1.702925249,2300.0
15.591081775,-67.801765662,-50.459720092,51.744566998,2310.0
17.527318084,102.03921494,-64.417913421,41.252457728,2320.0
9.2006816207,154.44875642,-57.20590635,74.064668101,2330.0
6.8678918113,-170.78872933,-56.937682557,86.342285527,2340.0
6.9433033382,-138.30878942,-57.596154796,99.353863101,2350.0
9.6543673603,-101.29186499,-55.796995147,122.19475209,2360.0
20.052712439,-32.915925395,-42.97452985,-179.5712706,2370.0
12.959426712,125.66369834,-47.453603933,-39.73716898,2380.0
7.6944858599,168.36495046,-52.080951054,-12.342301999,2390.0
6.2559007119,-158.33045877,-53.670366004,11.727186531,2400.0
6.8725437389,-125.66711384,-52.729173356,49.187623157,2410.0
10.535640132,-85.810933723,-50.241425809,101.55539098,2420.0
22.375522001,22.472753235,-42.834582224,-145.34511707,2430.0
11.122359093,141.26595648,-60.713225375,-34.77988517,2440.0
7.3011322136,-178.21775925,-83.067897418,-31.483178101,2450.0
6.6201568685,-144.64434922,-69.6565889,-175.74091,2460.0
8.3294558777,-109.47341833,-62.112701189,-171.39806313,2470.0
15.560308389,-58.850134463,-52.382733388,-154.24401587,2480.0
15.80323158,113.22479572,-51.647861523,-8.4642107982,2490.0
8.3968825487,164.76400884,-59.938051343,36.661997952,2500.0
6.3440837913,-160.24233806,-60.48488899,70.611713578,2510.0
6.6199318258,-127.31653526,-57.336607008,97.713304944,2520.0
9.8518208857,-88.248714173,-54.31106354,133.29384786,2530.0
21.879386024,5.9556984955,-48.817554576,-145.27157832,2540.0
11.194619261,142.60075423,-70.118494388,116.85312667,2550.0
6.9221042668,-175.65132447,-63.999590488,148.69589441,2560.0
5.946535785,-141.79768525,-64.252501477,165.20892999,2570.0
7.1725317937,-105.95073185,-64.229288361,-173.20037718,2580.0
12.401840362,-53.084904531,-60.031583082,-110.68657491,2590.0
15.622399163,90.185003804,-56.261902196,59.816518913,2600.0
8.1271840373,159.12018648,-63.38325965,119.57943263,2610.0
5.7679969822,-162.57777724,-68.294699793,145.31434478,2620.0
5.6748227101,-128.83784897,-70.480296526,-151.46425689,2630.0
7.8452128978,-89.953222857,-61.044659817,-65.333698191,2640.0
15.268323445,-21.345062162,-46.955246411,-24.541353886,2650.0
12.392675511,123.42054486,-47.863268565,79.371752394,2660.0
6.9666531523,175.72594402,-54.354794995,104.38079898,2670.0
5.4596595513,-148.44443409,-58.189936585,127.69233597,2680.0
6.0184517903,-113.74051343,-59.894080308,165.71007149,2690.0
9.3811387237,-69.167147106,-56.601768308,-109.66068034,2700.0
17.687549867,38.856593496,-47.73420235,28.387882042,2710.0
9.5586966071,148.53809775,-56.647100924,144.43312185,2720.0
6.1356368391,-167.98853366,-60.363082179,-166.14626076,2730.0
5.536301029,-133.32530381,-60.478408076,-131.98159791,2740.0
7.0542038172,-96.09696562,-60.250012402,-102.18752298,2750.0
12.882070485,-39.176746196,-52.139385318,-44.71509512,2760.0
13.830590419,110.68255545,-45.512829672,82.753568269,2770.0
7.0285396745,172.61567507,-49.285403597,120.61860774,2780.0
5.0979553575,-149.26888045,-49.83573213,145.37914087,2790.0
5.2413282117,-113.53582255,-47.982352707,-172.69729711,2800.0
7.741338244,-68.708177793,-46.666605818,-105.8771439,2810.0
14.354125453,25.866732978,-44.101873316,-19.978699438,2820.0
8.7839207738,142.55190536,-54.075633753,72.855840836,2830.0
5.2501985652,-167.83601358,-64.456300186,97.222402177,2840.0
4.3641861935,-130.25773144,-75.33561669,-15.68783937,2850.0
5.0211376745,-89.395883085,-58.804370591,-38.187958438,2860.0
7.7112987138,-24.048889954,-49.946663827,-9.1745786578,2870.0
7.3965133339,89.539035618,-45.004388826,75.691502771,2880.0
3.5738851188,163.87145436,-46.69566159,137.97842852,2890.0
2.1152819289,-151.50850544,-47.825490459,-174.05293104,2900.0
1.6496849767,-113.19440276,-48.07281796,-124.65396766,2910.0
1.7417329025,-65.633419085,-48.081787704,-72.477754325,2920.0
2.0693610515,14.273995591,-48.302317714,-18.258432012,2930.0
0.98609226359,115.84514911,-51.585607176,36.348631491,2940.0
-0.20246817496,-177.60612169,-55.912359225,56.105035558,2950.0
-1.4322052255,-132.96200358,-59.807790585,46.699052576,2960.0
-4.4768393733,-91.504484905,-59.050030887,25.50154621,2970.0
-16.434644228,-65.665490061,-55.2569457,20.71213861,2980.0
-11.574902934,-147.00180546,-52.647150807,57.490714026,2990.0
-9.3713887349,-109.48450178,-51.810635623,121.86556229,3000.0
-15.128822797,-51.458540366,-50.161645256,179.84536206,3010.0
-12.516588419,118.08042118,-48.751754988,-123.97208978,3020.0
-5.0148992123,174.07038455,-49.404513182,-71.542998417,3030.0
-2.4330676563,-146.86749943,-50.892933795,-26.724402506,3040.0
-1.2848055976,-109.58716699,-50.897997142,14.375737802,3050.0
-0.33426241717,-61.757217348,-49.472528176,60.939867926,3060.0
1.8561849235,16.956240667,-46.811012346,126.22766147,3070.0
3.4693623975,119.35427992,-47.222931021,-157.85636651,3080.0
2.777466971,-173.80712025,-51.096100812,-97.207209344,3090.0
2.5171721163,-130.41617357,-54.48972135,-25.512893378,3100.0
3.0532780599,-89.442932886,-54.960190532,35.405845923,3110.0
5.2461806089,-33.388030748,-50.993199132,88.973606993,3120.0
8.3009391005,66.320047075,-46.230315842,175.65248626,3130.0
5.7501850106,157.58497792,-49.531790279,-104.70089958,3140.0
4.1639259691,-152.74145719,-52.487018262,-67.748184146,3150.0
4.1093208517,-115.22329565,-52.640777319,-44.189761417,3160.0
5.7129736494,-75.935697647,-50.829268897,-16.57589892,3170.0
11.181613025,-16.774661561,-47.273238688,23.145115284,3180.0
13.298462814,123.06541778,-50.244394425,132.84813643,3190.0
7.3435729183,-169.83690637,-64.255074345,-170.5188969,3200.0
5.6632798948,-130.70560935,-75.464421934,-14.54701897,3210.0
6.1811087789,-95.855571467,-61.99902289,22.495059115,3220.0
9.6466767553,-54.81464848,-53.074345339,44.398857938,3230.0
20.884934376,45.2428871,-38.845198628,120.57586638,3240.0
11.078291999,171.28332206,-49.115514353,-135.21216102,3250.0
7.1863935591,-147.273335,-54.090841855,-116.96515798,3260.0
6.522050326,-114.8258463,-54.157887844,-94.491280254,3270.0
8.2129400557,-82.822088008,-51.361706304,-46.334432814,3280.0
15.042286583,-45.358848962,-47.688253278,-4.2741612828,3290.0
19.305398483,161.65936446,-46.846493009,-167.95443002,3300.0
9.5654088115,-158.29758874,-59.851721966,-126.39411665,3310.0
7.2575279169,-126.98256184,-65.269720998,-66.788408566,3320.0
7.5161932117,-97.909548043,-61.552774374,-11.638886075,3330.0
10.623167373,-67.239009133,-54.789400176,14.099626194,3340.0
23.694282221,-34.541666563,-39.752967593,37.036311244,3350.0
14.631053878,-176.32310587,-47.778906831,-119.14278814,3360.0
9.0055084742,-145.05198823,-52.055291629,-92.389819476,3370.0
7.6880904651,-116.92611353,-52.592214933,-40.906678067,3380.0
8.8340928663,-90.087541728,-57.039357731,-11.504396998,3390.0
13.637318052,-66.05642161,-57.526656873,-16.899577643,3400.0
23.385746169,-132.75571215,-54.07564297,-116.78377065,3410.0
12.295994595,-150.53292089,-72.428006656,113.15695966,3420.0
9.0152546217,-127.48284186,-65.779530316,68.904022303,3430.0
8.6849818988,-103.83738657,-62.613697203,72.114404287,3440.0
10.767299901,-81.177646394,-58.588030437,85.919489492,3450.0
16.919722822,-72.950630191,-51.704650216,88.053198366,3460.0
18.040989011,-139.46174495,-51.381407963,16.142507389,3470.0
11.602379129,-136.40228233,-59.666051261,28.326079884,3480.0
9.7047601356,-116.30779242,-64.294661893,59.42980389,3490.0
10.387376473,-96.08150084,-68.239508288,58.780943256,3500.0
13.573818998,-84.678462103,-69.498014707,23.932250182,3510.0
17.070219193,-109.62246413,-68.619951674,-80.64859128,3520.0
13.321107971,-128.97669874,-65.609647044,-172.70046682,3530.0
10.738049851,-118.09127612,-63.339716406,164.74613554,3540.0
10.425025321,-101.52780484,-60.051407626,155.66617239,3550.0
12.146784338,-87.312501531,-56.30147086,163.5221661,3560.0
15.802551212,-91.232048447,-53.499156566,157.40446422,3570.0
15.282263877,-120.61951473,-55.620249852,117.7671149,3580.0
11.936628189,-120.26960634,-60.438455167,107.31776026,3590.0
10.885631952,-105.34678789,-64.08190529,115.59635829,3600.0
11.943628818,-91.053120047,-65.867765042,118.52346495,3610.0
14.880507803,-90.557387702,-65.033924653,97.576970378,3620.0
15.515082758,-113.53863577,-66.643975012,39.466681125,3630.0
12.676392081,-118.82277597,-74.400883808,4.64247407,3640.0
11.210216752,-108.49402533,-84.366598056,-40.026791668,3650.0
11.509635081,-94.650059754,-72.681400694,-121.68082072,3660.0
13.616530042,-87.871974144,-65.111036062,-147.57441278,3670.0
15.613839812,-103.63651616,-61.76165079,173.65893737,3680.0
13.141086549,-117.03111281,-64.20336596,141.93619926,3690.0
11.145890372,-106.65553214,-65.580954906,146.64482603,3700.0
11.334770381,-89.218105607,-64.885758858,157.43572856,3710.0
14.357758254,-77.816562092,-61.029486024,160.50156426,3720.0
18.370188147,-108.14748815,-55.90574994,105.95682964,3730.0
13.168244389,-129.69687765,-60.0119594,76.803183064,3740.0
9.9511165945,-114.76125509,-73.359142872,85.414317185,3750.0
9.243335357,-92.716874619,-81.144735229,54.927668884,3760.0
10.836526535,-69.120775898,-78.264240788,19.846348468,3770.0
17.081044246,-51.392008912,-78.56380595,-41.3052569,3780.0
19.95726047,-145.79390619,-72.101350974,124.0535968,3790.0
11.085867394,-135.15418949,-74.4915446,103.09847379,3800.0
8.4471051438,-107.42997834,-73.960860397,113.927506,3810.0
8.52507503,-78.401948938,-67.771377652,135.25520073,3820.0
11.713738783,-45.75761183,-64.117387223,167.9601174,3830.0
26.802444132,12.461215098,-52.713031234,-155.42028393,3840.0
13.656026388,-167.11786554,-68.029859858,-9.4515891021,3850.0
8.4275666242,-131.23938914,-72.627011819,18.529853316,3860.0
6.9720971416,-99.748814397,-70.83847232,47.118750825,3870.0
7.6635152489,-68.044867001,-68.063060201,87.405487502,3880.0
11.641830099,-29.271238021,-62.720315167,137.93839707,3890.0
23.854043458,93.046794179,-50.535249431,-108.07362578,3900.0
11.164688814,-159.21906811,-61.95715797,-2.429379857,3910.0
7.3399370739,-119.41033781,-64.364810864,62.308321782,3920.0
6.6752011968,-85.432641754,-70.088327684,137.55778827,3930.0
8.3468107366,-48.565236716,-71.837321585,-139.5847528,3940.0
14.475182081,7.3620947502,-58.3581005,-60.320820844,3950.0
15.180485065,152.84142085,-54.185765116,62.183988754,3960.0
8.3234677566,-146.1416596,-59.702390029,90.56669021,3970.0
6.1751322443,-108.08387931,-60.181665485,105.19047936,3980.0
6.2849984224,-73.16510112,-57.651283665,145.30522578,3990.0
8.9260339008,-31.444530005,-55.730795843,-166.11520499,4000.0
16.774859344,50.304370782,-47.876296659,-102.83902051,4010.0
11.438217511,-177.04117283,-52.142602306,22.44037738,4020.0
6.9227812447,-126.84757943,-60.594383974,107.50018275,4030.0
5.8264969916,-89.487665897,-67.591972076,153.89933212,4040.0
6.7716001633,-51.219414981,-67.878769467,-171.2700356,4050.0
10.583616572,2.6457201343,-60.769015493,-117.4675762,4060.0
14.144302776,117.76969658,-54.396888444,-15.102227007,4070.0
8.2305090951,-159.3289264,-61.127954086,39.709283708,4080.0
5.7575380282,-114.95703752,-62.292349238,66.350616174,4090.0
5.5476397566,-77.750600788,-61.391065888,108.93926769,4100.0
7.3674035383,-36.131860645,-60.609968802,158.28694795,4110.0
13.064413987,31.682118333,-53.4645266,-136.80121855,4120.0
12.154333601,163.6533078,-54.682195757,20.941127719,4130.0
7.0227466259,-135.17453104,-67.467370467,99.890447415,4140.0
5.5210106083,-95.047870095,-73.642695368,138.22104383,4150.0
5.9747049391,-56.890003805,-70.331256377,-178.53114364,4160.0
8.7413260286,-8.5004402705,-61.291628901,-147.28645363,4170.0
13.981866498,86.577402359,-53.323697953,-81.081390498,4180.0
9.2768380149,-170.60356194,-56.685319349,-22.437055024,4190.0
6.1773316099,-120.2253735,-54.898138401,-25.394197655,4200.0
5.6013815469,-81.41252596,-52.659647332,-140.8881585,4210.0
6.9524215136,-41.297809375,-61.207699671,-147.99181006,4220.0
11.630960846,16.489440834,-58.940789511,-109.82468315,4230.0
14.033744942,143.43772518,-59.071235134,4.9935889317,4240.0
8.0592410009,-143.92556188,-71.003250354,60.510290243,4250.0
6.008187404,-101.56715379,-77.846492167,105.68870001,4260.0
6.0854717833,-64.124131376,-72.082938725,178.97114137,4270.0
8.4211932742,-20.972155925,-58.85804528,-149.79224875,4280.0
14.841112144,56.163579073,-45.524587697,-96.342868322,4290.0
11.758363076,179.6183991,-37.264058933,-0.71689036901,4300.0
7.4682871341,-125.56655411,-51.798854358,-177.03452089,4310.0
6.3753516557,-86.824408689,-61.466377429,-170.00546944,4320.0
7.4322286079,-49.371024197,-63.087580063,-164.14397109,4330.0
11.829860233,-1.8320479341,-59.205516473,-144.32531985,4340.0
18.624136949,124.66224251,-53.263967424,-32.647875612,4350.0
10.241677761,-148.39709,-65.429653102,47.372829139,4360.0
7.2590791106,-106.4721874,-70.065180038,111.41218986,4370.0
6.9466899245,-71.494953947,-63.100115106,160.88095217,4380.0
8.9852958943,-34.862348492,-53.178857586,-166.2987161,4390.0
15.873680906,17.63711051,-43.691626024,-110.24301974,4400.0
17.49652971,174.37913604,-42.437565653,59.432654003,4410.0
10.068896182,-129.76029263,-55.965361216,136.35478563,4420.0
8.0624961552,-94.301997049,-64.392094255,155.83278211,4430.0
8.581784592,-62.389705082,-66.686153002,168.80167607,4440.0
12.161784308,-30.181027152,-62.887595451,-176.89619903,4450.0
27.488027157,4.4626201021,-46.898161409,-150.47306349,4460.0
15.520002891,-139.96238288,-64.313410561,68.283752331,4470.0
10.32988096,-108.43141165,-72.744030333,167.60119617,4480.0
9.3523351031,-79.756296238,-63.188896947,-159.19289012,4490.0
11.023885559,-53.011677735,-55.900748042,-123.6999643,4500.0
16.703995268,-34.692166737,-51.202016631,-104.2239676,4510.0
22.281647095,-106.33297896,-47.809501537,175.51058087,4520.0
13.795825881,-112.50881035,-61.954416504,-179.58938661,4530.0
11.160306978,-91.064977602,-70.003346328,-156.32851946,4540.0
11.407373074,-69.33883279,-73.126753877,-144.81599666,4550.0
14.357043395,-53.077904757,-68.970318398,-133.9162485,4560.0
19.412343307,-69.858501187,-59.84317919,-146.76405163,4570.0
16.168029946,-103.65537439,-62.353710669,-178.61505694,4580.0
12.690405845,-94.901426866,-70.696614769,165.16112885,4590.0
12.020584865,-77.684684174,-86.808327069,9.8156933271,4600.0
13.468604379,-63.023100263,-70.659936424,-1.8313138167,4610.0
16.682870823,-64.399553783,-76.687599824,-21.31057242,4620.0
17.13127844,-89.104891262,-80.647452302,-94.325241676,4630.0
14.205217368,-93.7679987,-79.484732904,-139.94079966,4640.0
12.845618486,-83.043249407,-81.43398074,-163.23016518,4650.0
13.42740958,-70.379593975,-81.747912814,94.398475558,4660.0
15.47304233,-67.654474271,-69.37193563,39.583388945,4670.0
16.459420134,-82.870230119,-55.961060967,-46.221939619,4680.0
14.396065215,-89.971731878,-43.668265764,153.90990885,4690.0
13.090676342,-81.498539867,-49.870630471,96.372476488,4700.0
13.483658183,-69.979658008,-50.112338851,112.51042295,4710.0
15.369540984,-66.809415644,-53.300254633,109.46377163,4720.0
16.530927364,-79.906425042,-55.577901447,73.509766039,4730.0
14.745324417,-88.741624934,-56.81047291,41.366516877,4740.0
13.145765494,-81.743101223,-55.898458435,23.926465555,4750.0
13.321920633,-68.183120706,-54.293275626,29.362103956,4760.0
15.821776899,-59.064240234,-51.834711238,5.7857059777,4770.0
19.325604417,-82.161361053,-44.945598361,-80.675126727,4780.0
15.141661065,-107.34591074,-48.515331355,162.12255057,4790.0
11.601815683,-95.373528587,-53.614774161,118.20523072,4800.0
10.57912966,-73.797893726,-53.775429908,112.17979531,4810.0
11.918696692,-50.566164669,-52.480457195,127.57764537,4820.0
17.370904383,-32.173626145,-50.070172529,133.83972581,4830.0
22.977179366,-116.3414953,-45.918477478,20.276411461,4840.0
12.849840385,-116.38604832,-55.280454756,-16.490842905,4850.0
9.6022346478,-89.561211202,-55.493113974,-15.509625818,4860.0
9.2358338645,-58.432386517,-53.787533256,9.154084394,4870.0
11.818136742,-19.971702095,-48.490292323,-8.2311397812,4880.0
20.475490578,64.716000281,-38.180122567,-66.573548031,4890.0
12.260507209,-167.49020829,-53.044420051,-31.360760563,4900.0
7.0835375577,-120.48094701,-61.812677352,-39.548606967,4910.0
5.239476777,-83.231140804,-65.005093007,-35.695620247,4920.0
5.1085163288,-45.439105927,-67.400766564,-27.218429373,4930.0
6.5584093325,3.3961151152,-70.237647613,8.5497853653,4940.0
8.8751424994,86.142902259,-60.847358744,36.925477864,4950.0
6.1480456202,-177.34443121,-55.279533451,86.488985622,4960.0
3.2219282189,-115.76716889,-43.188760368,128.76767872,4970.0
1.656168779,-66.90603618,-46.339751038,-96.708100964,4980.0
-0.15918062996,-12.033250048,-44.817272864,-41.218927562,4990.0
-6.0661746605,69.204926391,-47.244309939,58.503382926,5000.0
-13.72338973,-143.44873251,-53.85633042,110.06341613,5010.0
-11.294554891,-31.89678937,-56.83490491,132.44518011,5020.0
-8.7142842038,86.869402448,-55.817946871,156.6050704,5030.0
-3.1802622078,-176.11975056,-52.846711356,-156.48868211,5040.0
-1.2487977292,-115.44741607,-50.306331246,-97.422528562,5050.0
-0.84030788902,-71.6145799,-49.691061818,-54.496958626,5060.0
-0.45242082532,-30.836281639,-43.800768377,3.8986706139,5070.0
1.2717976925,18.388641548,-46.205044814,122.96585867,5080.0
5.2417420744,90.455316383,-49.779038164,-174.05612038,5090.0
7.1112930705,-179.43700376,-51.334885373,-96.61058812,5100.0
6.2018014157,-116.6632939,-53.733393083,-31.607859789,5110.0
6.3384459023,-72.732131,-57.4587446,8.4751436997,5120.0
8.7117986492,-31.021386941,-57.243786873,24.393180481,5130.0
16.388972581,27.074229977,-46.928790471,46.720961391,5140.0
16.080399662,-173.41675632,-34.813073309,-149.67005641,5150.0
9.4236489904,-121.07623924,-45.797383379,-15.715517514,5160.0
7.6392211416,-85.972334047,-48.581056762,1.4899734369,5170.0
8.2567267169,-54.599842111,-46.635806385,42.396279324,5180.0
11.760094955,-23.416791858,-47.298276986,81.650205998,5190.0
25.068699094,4.2584661816,-37.583803072,87.255551815,5200.0
16.626313362,-131.18633694,-47.795457858,-72.414865685,5210.0
11.024190754,-101.184572,-51.571808994,-54.794953654,5220.0
10.039006519,-72.379010241,-51.714408852,-21.334925019,5230.0
12.098594936,-44.620702308,-48.95881168,-11.574866001,5240.0
20.034295988,-26.854422799,-32.446080258,-38.63981706,5250.0
19.86747044,-132.9035225,-29.617343513,17.062625124,5260.0
11.973492129,-116.58428429,-45.255558935,-13.606621893,5270.0
