S11m,S11p,S21m,S21p,Frequency
7.0770427747,-73.863806124,-56.180479871,9.3059124073,2000.0
6.6253937447,-41.89496441,-60.789812295,-49.50243938,2010.0
6.1492318972,-8.5103035099,-71.766313448,-72.582898829,2020.0
6.3155823705,26.8550543,-75.312193071,-6.8812316684,2030.0
7.111137465,63.253110084,-66.07918859,-33.849326267,2040.0
9.5895633429,101.78181695,-63.145252117,-72.078300021,2050.0
17.276711525,116.90360248,-59.717281433,-110.71421418,2060.0
13.350444804,72.549664562,-56.595806398,-162.28906491,2070.0
8.8732540014,100.97591631,-54.997323814,143.9498081,2080.0
7.1393794688,133.33559627,-54.276456064,91.4075442,2090.0
6.3575262238,163.79354321,-54.643551253,35.556866746,2100.0
5.9195845754,-167.13821576,-57.571418409,-25.150758325,2110.0
5.6060415629,-136.71952353,-65.697226736,-61.051563637,2120.0
5.7416703461,-104.32404847,-66.242018759,-49.842197285,2130.0
6.5083001131,-69.798201284,-63.771315917,-77.855509925,2140.0
9.0183129913,-34.038520521,-62.151049888,-118.32555154,2150.0
16.284299942,-23.106026817,-60.955845486,-161.84990175,2160.0
12.328964167,-55.571483805,-60.153680793,151.55031114,2170.0
8.2231286202,-26.459125488,-59.819156966,105.18842186,2180.0
6.6855479716,5.6486254183,-59.41473371,61.898452725,2190.0
5.9969920438,36.679902899,-58.02330274,12.560501733,2200.0
5.6683967852,66.595917632,-57.825179502,-47.198965526,2210.0
5.5095650332,96.707927539,-60.408689933,-109.86466903,2220.0
5.5729974914,127.06692862,-65.676672877,-128.16381181,2230.0
6.1916161006,159.42458484,-63.882458089,-144.26986769,2240.0
8.2189555606,-166.2580651,-62.179528296,-173.59777619,2250.0
13.857569308,-150.9386202,-60.348400934,151.25610426,2260.0
11.705323702,-177.61840812,-59.238220014,113.47818676,2270.0
7.8843208989,-152.66552191,-58.980170623,72.657920583,2280.0
6.4167133007,-122.05089011,-59.179804174,34.5272593,2290.0
5.7354564664,-91.963736555,-59.11955414,-4.8537890241,2300.0
5.4144985618,-62.274343289,-59.196783037,-49.00047631,2310.0
5.3028432633,-33.00725907,-60.489787959,-100.82243526,2320.0
5.4552843564,-2.7468075588,-65.597313089,-136.40684196,2330.0
6.0097899972,29.482246531,-63.241272104,-144.35116224,2340.0
7.7862471106,63.409217699,-60.718084188,166.02489827,2350.0
13.254620933,81.531875252,-60.368104067,113.56806709,2360.0
11.617284728,55.127613516,-61.745693458,63.509934121,2370.0
7.696069644,79.946171657,-65.046304966,25.331993638,2380.0
6.2007546564,110.81220395,-67.146916248,14.984162911,2390.0
5.5456316678,140.31157289,-65.069596522,-4.7837481177,2400.0
5.275475105,169.03812455,-62.83619821,-34.606502183,2410.0
5.2129315202,-162.1787291,-60.89527661,-81.008235057,2420.0
5.3080673586,-133.06836748,-62.546572133,-134.99329249,2430.0
5.79036007,-102.81946424,-65.694362539,-149.29959273,2440.0
7.4208408214,-70.163284928,-62.713935251,-178.03449414,2450.0
12.000573849,-49.195303261,-60.744526067,141.82117199,2460.0
11.40388667,-71.316777115,-58.840403617,95.466562252,2470.0
7.4673835238,-48.535241247,-57.324685723,43.584621075,2480.0
5.9839137765,-18.117409229,-56.818212253,-7.2408801091,2490.0
5.4265898502,11.226426441,-56.202017303,-57.656127441,2500.0
5.1352498964,40.176272305,-55.98253058,-109.50888966,2510.0
4.9616147813,67.837891501,-56.943719867,-163.03565413,2520.0
5.1161785786,95.810465943,-58.790442188,139.36814525,2530.0
5.590770067,125.6252683,-65.694845823,83.845946021,2540.0
6.9260650751,157.24385461,-68.624495619,83.028267149,2550.0
10.864145947,-179.15936094,-68.195372063,32.356355549,2560.0
11.673494345,161.82543986,-69.582937479,-32.654609231,2570.0
7.7143955941,179.86020723,-70.977177357,-95.816713069,2580.0
6.1252701725,-149.2987451,-71.774911913,-157.79748029,2590.0
5.448987937,-119.20291584,-73.398743264,163.52376181,2600.0
5.2021174642,-90.880263618,-72.084333471,124.27703868,2610.0
5.222600083,-62.315617181,-70.189277612,50.038100033,2620.0
5.3020270319,-32.810166207,-69.269738622,-32.112070473,2630.0
5.538395311,-2.739466671,-67.719348834,-103.01055703,2640.0
6.5458313648,28.684706226,-69.884360061,-139.75041663,2650.0
9.9291649209,56.717522719,-65.694219666,-157.61391999,2660.0
12.301206509,38.492741192,-63.363641523,158.80103397,2670.0
7.7399568094,52.346629047,-62.875723279,120.04858569,2680.0
5.8661121029,81.56294008,-62.770188279,84.406924045,2690.0
5.2727295955,110.26236662,-62.973519421,48.527986875,2700.0
5.0715741968,138.50455856,-63.140155747,9.5920463965,2710.0
4.9841063623,166.387061,-63.607719094,-33.773555656,2720.0
5.107041667,-166.09365641,-64.544294727,-78.448523629,2730.0
5.5830278108,-137.52535967,-65.107160049,-116.87915133,2740.0
6.6644063791,-106.62618233,-66.942546881,-157.81712979,2750.0
9.4678233821,-75.844475014,-67.050345455,-148.06201522,2760.0
14.086619002,-83.636617216,-61.460690451,-175.02331303,2770.0
8.8056426012,-83.876438147,-58.22517587,147.78993972,2780.0
6.5955115234,-50.821221135,-55.984919716,107.3926144,2790.0
5.748798696,-18.022001401,-54.740421173,63.858812886,2800.0
5.2449462259,11.276117294,-54.809176005,19.47460426,2810.0
5.1333108359,39.253020713,-55.638457963,-22.23563339,2820.0
5.2239905659,67.47957253,-56.686815467,-63.278385889,2830.0
5.4806655173,96.310715844,-58.016091569,-107.1566357,2840.0
6.1900925727,126.1161146,-59.932600872,-156.00552786,2850.0
8.3815672304,154.59965002,-65.093288035,168.56684061,2860.0
13.009892588,158.50540058,-64.152173751,153.36194948,2870.0
9.3355843683,146.64196415,-63.125690686,112.32074903,2880.0
6.3843934187,175.93013242,-63.205100643,65.850271947,2890.0
5.5026029734,-153.86520294,-66.078789925,20.370592798,2900.0
5.4281533786,-124.8571104,-70.355940524,-7.3757890766,2910.0
5.5316202056,-95.433570623,-74.369656928,-20.951144098,2920.0
5.6559291143,-65.982221965,-77.967723899,-19.111800826,2930.0
5.8861639985,-35.666867143,-77.067231881,-13.885920382,2940.0
6.6597472194,-4.1990878387,-75.793066217,-36.787951468,2950.0
8.6825656156,30.486717424,-80.950436414,-73.815368614,2960.0
14.384402785,49.171018981,-79.088121234,-75.865341785,2970.0
11.642620943,18.239835635,-76.008189519,-162.37751277,2980.0
7.3988426778,46.824671532,-72.278831589,117.87977511,2990.0
6.0431071075,80.251623071,-67.863753674,61.493245854,3000.0
5.4801928011,110.62502293,-64.739959403,13.411833914,3010.0
5.2370173006,138.83605155,-62.987944234,-33.83851601,3020.0
5.3017212659,166.05530632,-62.38115369,-78.524305046,3030.0
5.6956905433,-166.14658557,-61.857416014,-120.05767715,3040.0
6.4334147659,-136.62629092,-62.023125951,-164.79364865,3050.0
7.939574945,-105.82537818,-63.315495103,149.07729203,3060.0
12.758950459,-77.986432919,-67.569470095,131.94634847,3070.0
14.233778624,-122.78481253,-63.033294678,117.49755414,3080.0
8.2385340919,-94.517461651,-60.900034092,73.252226364,3090.0
6.5061956196,-57.453435411,-60.209117762,34.227544984,3100.0
6.1342248231,-24.451121515,-59.727524621,-4.2012426305,3110.0
6.0764411964,6.8995731928,-59.615099828,-40.958940978,3120.0
6.1663986621,38.657042303,-58.975494322,-78.404105946,3130.0
6.3448281812,70.233612029,-58.673369791,-121.49059232,3140.0
6.8130952341,101.38659383,-58.875063641,-166.95306493,3150.0
8.1234663167,133.21797904,-59.611505816,141.40141238,3160.0
11.706557324,164.93474755,-63.395143329,93.14525686,3170.0
17.525942097,131.43539415,-65.16473134,76.667743581,3180.0
9.1900978985,135.75606526,-64.207251801,40.734743727,3190.0
6.6653053235,171.73927376,-64.242854454,1.3641497205,3200.0
6.0824878075,-155.16180059,-64.482312153,-37.269045751,3210.0
5.9986669318,-124.11908302,-64.210725595,-75.246678718,3220.0
6.146807775,-93.820169258,-63.356277238,-118.16234977,3230.0
6.6087799273,-64.302525061,-62.599622374,-166.44592887,3240.0
7.6924907555,-31.608033999,-62.55167073,145.24849462,3250.0
9.3477912027,5.7580473921,-62.54911179,99.944866797,3260.0
13.608453791,45.601394303,-63.631765186,52.522196084,3270.0
28.890331098,-12.95662481,-66.371313079,30.176354106,3280.0
11.724858117,-11.259189398,-64.802222439,10.080666188,3290.0
8.1722377677,36.226411441,-63.465638283,-21.491688031,3300.0
6.9671015703,76.536506928,-62.989383801,-57.556990204,3310.0
6.5776294668,111.23319927,-62.828343932,-90.216302945,3320.0
6.6689715401,143.65133347,-62.435314163,-124.4770164,3330.0
7.0058661774,175.55111844,-61.998097278,-161.71499296,3340.0
7.5621733467,-152.91297574,-61.945922882,155.75134182,3350.0
8.8192743913,-121.40203799,-63.008613591,113.63902076,3360.0
12.013296489,-82.690271692,-65.40935622,76.365116308,3370.0
31.836766396,-53.057758125,-67.829500993,64.175953155,3380.0
12.480564752,-155.67665688,-65.73796496,48.975223466,3390.0
7.9594552926,-106.17803296,-64.347371732,16.592842234,3400.0
7.1370590794,-65.29185413,-63.968981055,-15.253783483,3410.0
7.3753904892,-27.424056909,-64.002824,-48.899238603,3420.0
7.8991933973,10.01105677,-64.472252311,-82.998311055,3430.0
8.6152270302,46.772606446,-65.004962244,-120.06314564,3440.0
9.6676953669,85.804007359,-66.455095877,-164.040803,3450.0
11.150032693,127.12974976,-69.583057142,149.17792978,3460.0
13.442451573,171.40494191,-73.782926034,110.09764792,3470.0
20.623369071,-100.97652567,-76.304099969,86.790358849,3480.0
15.78972444,47.784233664,-77.65513409,58.804472221,3490.0
10.047994998,116.34158524,-78.058735034,47.212785945,3500.0
8.1405820677,167.45865489,-74.308018414,31.153940051,3510.0
7.6079830535,-151.05144025,-72.150247674,-3.4320139559,3520.0
7.9263443884,-115.11433724,-71.808753187,-39.274946473,3530.0
8.831700374,-79.416235527,-72.570805269,-70.71609926,3540.0
10.253359827,-42.121452399,-75.341427527,-110.79132869,3550.0
12.702083447,-0.17656364583,-81.186508594,-133.3678753,3560.0
16.679590177,54.646923273,-95.1037967,-115.10361368,3570.0
18.55657191,164.39419984,-85.623129872,-37.012444471,3580.0
13.398475204,-106.59029542,-79.965925472,-53.677869708,3590.0
10.410422124,-40.435845464,-77.053890449,-66.59739134,3600.0
9.5406988722,17.666737429,-75.194819177,-103.21329129,3610.0
9.9209149871,71.317386365,-76.914847779,-133.20194702,3620.0
10.648244285,121.96773249,-79.06493552,-160.91920713,3630.0
11.370604628,169.63767167,-83.910951775,159.21147743,3640.0
12.206455083,-143.92257707,-109.47769375,-176.25514649,3650.0
12.854019007,-104.55262063,-99.861883411,-105.88744918,3660.0
14.962265204,-40.136510954,-88.454563341,-23.014346423,3670.0
16.014903289,32.262555808,-82.314020005,-55.07782732,3680.0
13.8707518,114.3252267,-80.445612912,-75.222727881,3690.0
10.538303293,-179.19572447,-77.436754803,-88.205471324,3700.0
9.2512356979,-121.94310385,-75.195943743,-119.975172,3710.0
9.6535251942,-69.549790388,-75.795952563,-152.69225003,3720.0
11.560082324,-20.076169559,-77.564471779,-178.08555278,3730.0
14.937854406,32.722677522,-79.355292238,132.53268544,3740.0
17.554469462,103.44731196,-87.833950611,53.918377519,3750.0
16.419678127,-179.57412596,-85.239593664,-40.30006278,3760.0
13.846550934,-121.20495547,-81.214462621,-80.084226787,3770.0
11.754842563,-71.56872659,-77.407811587,-104.49179849,3780.0
10.489398733,-23.201663607,-74.510563705,-142.8029233,3790.0
10.041996508,29.065150663,-74.180144773,-176.37239486,3800.0
10.321368607,87.838562511,-73.791561384,144.42774425,3810.0
11.681681987,151.79997763,-74.269676802,99.50410917,3820.0
13.973661998,-141.14771597,-76.226722495,48.892074608,3830.0
16.545077878,-71.309222131,-77.362308225,-1.3130038188,3840.0
17.914427849,5.8563157737,-78.823297292,-52.919290309,3850.0
16.286333345,78.368942802,-80.278927102,-64.915457652,3860.0
13.378203987,134.14340461,-76.063366579,-82.595084921,3870.0
10.992403866,179.85996168,-73.38130308,-112.69080308,3880.0
9.1847317849,-138.56362056,-71.354999725,-144.97917481,3890.0
8.1677601019,-98.781332865,-70.723430599,177.79640264,3900.0
8.2620781648,-56.403230659,-70.868036803,145.09274458,3910.0
10.305677399,-8.6039561201,-70.94200084,111.17244978,3920.0
17.136203432,45.745283448,-70.792922928,68.409819336,3930.0
25.851029189,-122.51996026,-71.919892085,16.878768263,3940.0
14.824416555,-64.141851176,-74.320841752,-38.171065118,3950.0
11.434891416,-24.435359091,-79.055907426,-63.178253407,3960.0
10.030763474,11.6492855,-77.783561328,-72.073814567,3970.0
9.2043639873,47.55742373,-75.635388478,-100.1653661,3980.0
8.7448680759,84.330912637,-73.623234432,-125.57456313,3990.0
8.4837464821,124.41019427,-72.039540852,-156.2913498,4000.0
8.5261850134,167.82631734,-71.229697421,173.64461784,4010.0
9.9030142976,-144.72103344,-70.190919923,139.82413808,4020.0
15.080075506,-94.883896452,-69.96256523,95.86426363,4030.0
29.15413028,-159.42888901,-70.714347665,45.375907608,4040.0
14.58332944,-161.4431232,-72.707943515,-12.513316192,4050.0
10.469015307,-126.91717901,-78.194527433,-49.586844351,4060.0
8.6396383632,-95.717423839,-74.273970069,-56.286148184,4070.0
7.6255756052,-65.978564465,-69.850479314,-96.410695758,4080.0
7.0071224984,-36.270465827,-67.117984376,-138.62659764,4090.0
6.7628272115,-6.0361263646,-65.793868165,-179.92333159,4100.0
7.1335602337,26.633804745,-65.094017221,140.53447377,4110.0
8.6547427768,64.402918769,-64.777726166,102.25562938,4120.0
13.60023809,101.20095252,-64.75886713,62.076713754,4130.0
19.993698961,63.172091885,-64.631784215,19.701054437,4140.0
12.780191074,68.67304544,-64.924445211,-30.13607362,4150.0
10.028652532,102.87032019,-68.333609684,-83.659473746,4160.0
8.7557565406,137.39695702,-72.375432847,-81.079683007,4170.0
7.7851940361,169.75849483,-67.650395072,-99.967167652,4180.0
7.2256581824,-159.35383494,-64.864652112,-138.5032405,4190.0
6.8261708319,-128.1932322,-63.533981961,-176.26965042,4200.0
6.6459916315,-96.683720917,-62.665969879,147.39086896,4210.0
7.1686774439,-64.188811639,-62.223639209,110.16153107,4220.0
9.7807746203,-34.467278108,-62.19092801,72.205314428,4230.0
13.267741897,-39.91830689,-62.439675601,32.63149755,4240.0
9.883035415,-39.373306682,-62.975469073,-11.457609521,4250.0
7.7240196806,-15.15253984,-64.62809724,-60.277707924,4260.0
6.7640957516,10.295687721,-68.768331072,-99.869022585,4270.0
6.4788859917,37.100276144,-69.018878397,-113.24519211,4280.0
6.3480329588,65.096597527,-66.868622799,-146.06581826,4290.0
6.3448576827,93.054575274,-66.023023493,174.79705771,4300.0
6.6287047406,123.38845393,-65.79468897,139.67093549,4310.0
7.3532500651,156.54735217,-65.832982177,106.7485588,4320.0
9.681438067,-168.86581114,-65.766600057,72.541770224,4330.0
13.853890184,-161.04228181,-66.451355882,35.112610402,4340.0
10.667031425,-163.62153373,-67.115329927,-1.6314751631,4350.0
8.2942106185,-136.45581012,-67.996977905,-46.807487035,4360.0
7.1238119438,-108.09605057,-70.570914849,-101.35347578,4370.0
6.3046731884,-80.31918023,-77.363398177,-149.33294015,4380.0
5.8226659386,-54.259295622,-80.12182778,-131.1698483,4390.0
5.6554342218,-29.11935167,-74.556530347,-151.52067264,4400.0
5.6950023695,-3.3332452547,-70.659302161,175.36265772,4410.0
6.1121134392,23.995954437,-67.74324318,134.44073159,4420.0
7.3482124439,52.002102064,-66.763986142,94.104311282,4430.0
10.15997264,65.015786706,-66.189804982,59.442020031,4440.0
9.3663457037,63.995196794,-65.988424426,21.614183923,4450.0
7.3481264169,88.266504965,-66.806945158,-15.342429298,4460.0
6.5615717083,114.73751831,-69.069735821,-48.51088773,4470.0
6.4124558332,141.85411034,-71.646398674,-68.214043939,4480.0
6.3032575929,170.20941094,-70.237896333,-83.02441046,4490.0
6.2818748056,-160.91820998,-68.48061673,-121.31572668,4500.0
6.2317488963,-131.34988705,-67.99536056,-166.41148965,4510.0
6.3269862512,-102.63455231,-68.108296051,150.61935407,4520.0
7.206721493,-74.157443815,-67.924471444,109.3409669,4530.0
9.334904569,-53.597729793,-68.240695981,64.181767121,4540.0
9.0104948944,-49.784023948,-69.40949724,17.198218047,4550.0
7.0686150355,-32.141761257,-71.760968031,-30.597658028,4560.0
6.1612670488,-7.7402432565,-75.84159411,-92.968691274,4570.0
5.6756159677,17.796543295,-79.577574529,156.56706228,4580.0
5.4506509869,42.741824007,-77.27596134,63.778462146,4590.0
5.2513738508,66.971557581,-76.389593418,11.332936941,4600.0
5.3378147999,90.40378055,-75.797072457,-14.103609662,4610.0
6.1145323696,116.33743536,-74.215264282,-39.608070551,4620.0
7.0779981752,146.73943731,-72.291181382,-63.333327638,4630.0
8.9279397144,170.72242416,-70.17006826,-99.01748754,4640.0
9.5905640401,176.09977199,-69.656672555,-137.1398426,4650.0
7.8134723897,-164.00053335,-68.755372027,-174.7560906,4660.0
6.7923570939,-136.54323167,-68.593578645,140.67974361,4670.0
6.2014712415,-109.055502,-69.877970166,95.85431221,4680.0
5.9087602304,-82.631044247,-73.603860875,47.832426243,4690.0
5.8597517574,-56.378593379,-83.793330357,73.818146989,4700.0
5.7882682131,-29.221588627,-74.712058619,76.162780534,4710.0
5.4943961946,-3.3219037153,-72.065625219,32.140114831,4720.0
5.8134911287,19.836186009,-71.893858031,-12.426489078,4730.0
7.2334125967,43.053883597,-73.076699117,-53.147813845,4740.0
8.5363795734,53.815306814,-74.501282759,-100.65128028,4750.0
6.8799242679,66.226869734,-76.082815235,-145.12670773,4760.0
6.0047296771,90.114613639,-77.055491019,161.26102475,4770.0
5.7940144051,114.51337774,-78.608725792,108.8544609,4780.0
5.8983648074,140.76450246,-83.817071236,48.150590044,4790.0
5.8024343221,167.98550609,-88.352896852,140.52917763,4800.0
5.7927667199,-166.12753669,-81.156275194,96.439382836,4810.0
6.2039458117,-140.11246571,-81.742507212,68.396539605,4820.0
6.7281447156,-111.8568819,-81.774116922,74.803968896,4830.0
7.5371672569,-84.070604112,-77.374669258,61.204910385,4840.0
8.8433512081,-67.814594893,-74.112624439,22.306910534,4850.0
7.789010521,-56.51158543,-74.756890706,-19.671721277,4860.0
6.4390975493,-32.451331292,-76.548181323,-65.1477189,4870.0
5.7138538702,-6.2078106365,-80.512216139,-132.16291244,4880.0
5.1427162691,17.653251764,-79.528712992,120.36936323,4890.0
5.1646556557,37.818986925,-76.874686998,48.469506317,4900.0
5.6341965834,63.81084584,-76.488980172,7.4407512904,4910.0
5.7546677925,91.564958922,-75.47853406,-11.864640086,4920.0
5.8774464959,114.98555922,-73.363938782,-42.095574703,4930.0
6.7407362454,138.75405094,-72.663838045,-75.627003647,4940.0
8.3811771397,156.48817381,-71.660577753,-112.21171934,4950.0
7.9626982679,166.72976321,-70.921912536,-161.92591568,4960.0
6.6230572736,-169.6051008,-71.446947086,145.28474661,4970.0
6.1527621686,-143.10732663,-71.682247774,104.27898209,4980.0
6.1062753338,-116.24257185,-70.205920971,61.303614641,4990.0
5.9868249663,-88.864877382,-69.863273171,13.603493952,5000.0
5.7469660337,-62.655500758,-72.592221403,-20.484580324,5010.0
5.9037531318,-37.641379717,-74.114188302,-30.535758978,5020.0
6.1369818748,-10.898056578,-73.040089026,-36.575690567,5030.0
6.6430620482,15.333303191,-71.020355371,-58.735187679,5040.0
7.8674969311,36.245454101,-69.552392828,-84.541713139,5050.0
7.7995781934,42.925595583,-68.522199414,-110.28027564,5060.0
6.218678271,61.667408233,-67.165395439,-142.25948228,5070.0
5.7123079278,88.411744415,-66.407920746,177.69888315,5080.0
5.4387578144,113.28086017,-66.60085712,134.10475884,5090.0
5.502665461,137.30712948,-67.282936038,90.333204634,5100.0
5.7025599177,162.5266934,-69.211848978,49.125328767,5110.0
5.9483708462,-171.86551808,-72.286444953,27.055939684,5120.0
6.2927881835,-146.48309754,-70.724561641,20.306643292,5130.0
6.9834078983,-120.8122618,-68.207453269,-5.3531655984,5140.0
8.5761303531,-97.846240081,-65.679859722,-36.907695139,5150.0
9.5437596782,-91.522303388,-64.391668079,-75.240053612,5160.0
7.2069084617,-73.543406886,-64.238433729,-112.58115741,5170.0
6.0045547552,-44.919766244,-64.985860681,-146.13145311,5180.0
5.9898488561,-16.964598194,-65.218454921,-173.55400526,5190.0
5.9908571095,11.939026741,-65.380084478,151.17459233,5200.0
5.576728119,38.122812583,-67.282044366,114.58942212,5210.0
5.7717179008,61.833117121,-71.041131046,92.857110271,5220.0
6.0989410411,87.018984147,-70.861569273,90.577688274,5230.0
6.5712185276,112.04846049,-67.951373073,69.012392865,5240.0
7.8533709337,136.06892701,-66.473554904,33.699370914,5250.0
9.554245708,146.49455845,-65.852076868,-4.1242455408,5260.0
7.691534688,151.42874006,-65.867816607,-39.65651994,5270.0
6.1953319013,178.36000893,-66.235126406,-73.614233825,5280.0
