S11m,S11p,S21m,S21p,Frequency
5.9613702174,33.283131605,-47.077485182,-94.971238925,2000.0
5.4289669676,69.57624635,-54.199469765,-105.59681921,2010.0
5.1304719993,107.41506389,-60.004387744,-67.932441841,2020.0
5.5007103525,146.38955787,-54.39398078,-48.273221799,2030.0
7.0150904261,-173.87755064,-47.127466257,-59.307205982,2040.0
11.911828719,-138.29843019,-36.356049553,-94.169703064,2050.0
14.52110407,-170.46971259,-28.669194688,151.31729198,2060.0
8.8053519608,-149.34421022,-30.56386833,67.58437888,2070.0
6.7832358926,-112.15007709,-37.055992096,3.4270978828,2080.0
6.0357383731,-74.472952419,-42.451582692,-18.118924531,2090.0
5.6920077464,-37.520718739,-45.459041032,-28.210234323,2100.0
5.3463600941,-0.91589630358,-47.283997465,-48.404783935,2110.0
5.2590684949,37.53177296,-53.367293394,-57.772013649,2120.0
5.4597440655,77.352640604,-51.480473538,-25.274099275,2130.0
6.6234550186,118.2682764,-43.945699645,-26.57630021,2140.0
10.76875486,153.64818069,-28.774416081,-61.403655634,2150.0
13.487098358,130.9070822,-27.076128721,97.658774026,2160.0
8.0917721924,149.28687992,-40.906982378,49.654367568,2170.0
6.0298288008,-175.7540321,-47.08402943,40.117085752,2180.0
5.2196533423,-141.1616225,-49.526275951,40.561224901,2190.0
4.9323320532,-106.57642629,-50.195504334,40.266092394,2200.0
4.8665109361,-71.736529701,-49.888609439,33.120765245,2210.0
4.9823955429,-35.688970533,-50.988274911,11.095515477,2220.0
5.3938614034,2.6577942437,-52.606224812,40.688877914,2230.0
6.5782694534,43.708778706,-40.430765129,57.613773314,2240.0
10.311351346,81.263283897,-27.189884346,-112.66166131,2250.0
13.70379768,65.792948401,-35.97571204,164.42787206,2260.0
8.4058671546,81.916497556,-47.72105848,131.43910359,2270.0
6.1643795718,117.9592762,-53.93015597,129.61660928,2280.0
5.1774047229,152.82100847,-56.943977369,129.41357823,2290.0
4.7260151729,-173.36313784,-57.862022988,131.27465423,2300.0
4.5604606421,-139.95810643,-56.72600779,127.26848073,2310.0
4.6238862653,-106.04320606,-54.563866624,114.06341523,2320.0
4.9947412919,-70.720630159,-53.382468769,101.22072902,2330.0
6.2045048835,-31.949357284,-37.825172833,129.9625094,2340.0
9.9891174206,5.0881204125,-39.4278049,-70.696855816,2350.0
13.086093262,-10.619804833,-44.792867574,-147.20632303,2360.0
8.1048733307,9.325806418,-57.497494184,-167.37789455,2370.0
6.1320911463,46.913808183,-64.715835218,-146.39176446,2380.0
5.2885936744,83.913284391,-66.447515761,-125.5064013,2390.0
4.8204874351,118.86478258,-66.081701477,-118.74121982,2400.0
4.5640079011,152.70573194,-64.778381554,-118.14762258,2410.0
4.4925290492,-173.81778631,-62.387611347,-120.33417628,2420.0
4.6669144021,-139.92911585,-58.05886423,-131.55168172,2430.0
5.4712396254,-104.33018443,-48.238355099,-153.19606068,2440.0
8.3032606922,-69.529841602,-49.754690344,90.139895814,2450.0
11.746076099,-73.833833673,-50.431673091,30.803570454,2460.0
7.5506955893,-61.622041325,-56.784897348,-9.0510911099,2470.0
5.6561051161,-25.964649838,-60.685596031,-15.249601174,2480.0
5.0143282791,9.9879551264,-62.533521431,-23.620245756,2490.0
4.7909830364,45.644464783,-63.578306002,-25.1592821,2500.0
4.6772562775,80.299172212,-62.204251485,-31.211857219,2510.0
4.7035913498,114.98493522,-60.190831314,-33.977933476,2520.0
4.8815832743,150.29158704,-55.62929758,-39.531932124,2530.0
5.5002016685,-173.46878436,-44.972691309,-74.469650288,2540.0
7.7175421367,-137.82019418,-48.146498109,-174.23024379,2550.0
11.479370197,-133.42072569,-49.682106863,121.71049708,2560.0
7.8176616551,-127.60034617,-58.315278046,70.008758267,2570.0
5.6081135045,-94.341100098,-64.184107727,60.557336565,2580.0
4.8167311551,-60.018696304,-67.062676605,59.710120444,2590.0
4.5646608422,-26.366732286,-68.246126903,61.191311674,2600.0
4.5106808759,7.2641220924,-68.52239577,62.581925858,2610.0
4.5764609699,41.339514449,-66.212410311,65.920625757,2620.0
4.871435159,76.107146456,-59.620583643,63.184610969,2630.0
5.5042774159,113.29162782,-46.949795181,39.826606666,2640.0
7.3881969695,152.16554728,-50.725011473,-85.365217842,2650.0
12.36240165,164.8319385,-49.148921523,-124.17145532,2660.0
8.4910033245,161.84128286,-57.931531438,175.2839872,2670.0
5.9048618447,-163.67401737,-65.773467588,176.0255126,2680.0
4.9237425239,-128.50386607,-69.424616439,-176.43117773,2690.0
4.5132674801,-95.053706258,-70.807396949,-169.98699525,2700.0
4.3599425252,-62.325106458,-70.756547003,-163.8948923,2710.0
4.3610410117,-29.655862235,-68.300308754,-162.37937773,2720.0
4.5675468359,3.745489865,-62.961113908,-167.260504,2730.0
5.1669884823,38.755473581,-51.755478843,164.00906816,2740.0
6.7577518356,74.801474529,-50.139093992,44.065708902,2750.0
10.932329259,99.165989214,-50.279845333,36.923763574,2760.0
9.5165617767,88.422579173,-49.879122718,-35.444635597,2770.0
6.197605579,121.70506535,-54.799474144,-66.085465473,2780.0
5.2065524411,158.83782621,-57.840759568,-80.604430194,2790.0
4.844223902,-165.50581776,-59.527598845,-90.695511343,2800.0
4.7145203049,-131.99430848,-60.683825323,-96.904089047,2810.0
4.6145663136,-99.122795455,-60.41478194,-107.38261972,2820.0
4.718878138,-65.788460807,-58.252738832,-123.02434611,2830.0
5.1201079084,-31.400855281,-55.586286839,-155.50533053,2840.0
6.3434335442,4.393544281,-55.042047856,152.18119239,2850.0
9.83683304,31.936357481,-57.072472801,120.39535282,2860.0
10.477878212,21.924527393,-55.43682764,68.668981331,2870.0
6.5091017006,47.626771186,-60.214149982,35.931146701,2880.0
5.2136580143,84.85263786,-63.196032794,23.111917941,2890.0
4.8333723946,120.5790706,-64.809139887,12.801313814,2900.0
4.7512647344,154.99357311,-65.163858307,-4.144179589,2910.0
4.8511592578,-171.14680138,-64.765260169,-23.648838687,2920.0
4.9910483773,-136.88801615,-64.735751542,-46.56873052,2930.0
5.3236768241,-101.92502855,-64.392664931,-66.207370995,2940.0
6.2140693511,-65.121542191,-61.519183912,-89.337285064,2950.0
9.2664244006,-30.26276414,-58.246911583,-137.83190503,2960.0
12.141507867,-42.533476003,-57.771104477,171.42747682,2970.0
7.1607165987,-24.213291054,-57.338708748,130.56765176,2980.0
5.3542648779,12.674818096,-55.930759387,85.932017154,2990.0
4.8308293856,48.427642718,-58.221979574,41.568050776,3000.0
4.6920312721,82.353248016,-62.48524589,19.657165334,3010.0
4.7784558546,116.18669306,-65.08726345,7.6869836985,3020.0
5.0619184376,150.28005473,-65.567070681,1.0833505603,3030.0
5.5734253489,-174.79504257,-64.052955643,-1.6294648469,3040.0
6.5423200492,-138.24705627,-60.549289832,-11.078195784,3050.0
8.9359720107,-99.968003234,-55.626188748,-33.348914579,3060.0
15.270604128,-97.28812457,-50.621927037,-86.456520949,3070.0
8.7741676494,-100.93757453,-52.490089876,-131.39998483,3080.0
6.0771216962,-59.02977318,-50.588613282,177.07986548,3090.0
5.2437646912,-20.965476329,-56.017750772,108.80637354,3100.0
5.0233360973,14.340952341,-61.457022186,91.377168437,3110.0
4.895948782,47.990436305,-63.788562003,85.870977897,3120.0
4.9697617985,81.381406843,-65.114644449,83.853172165,3130.0
5.3792621328,115.29833835,-65.014883571,74.312555693,3140.0
6.2918908525,150.66242882,-61.926026084,63.656353575,3150.0
8.557774019,-173.74173299,-56.96350446,45.185088028,3160.0
14.547993639,-156.56614227,-51.049777076,2.5986442542,3170.0
10.398462437,-179.54956865,-53.95647694,-56.626957246,3180.0
6.6979322395,-138.59383841,-52.621304712,-80.19657979,3190.0
5.820813264,-97.265955544,-53.699118756,-172.15824539,3200.0
5.6377820253,-59.147998587,-63.827805474,155.66946673,3210.0
5.5508889043,-22.823328663,-69.688942342,159.60235816,3220.0
5.6667113904,13.062835826,-71.137281041,155.18648661,3230.0
5.9156737923,48.891883207,-70.750188502,155.64367212,3240.0
6.5625339463,85.638027917,-68.530952918,155.51498264,3250.0
8.5693686567,124.16098924,-63.453411241,144.12517264,3260.0
15.072348916,149.44035834,-54.042097242,98.154174291,3270.0
12.098409943,105.48390137,-56.638709848,1.2529696875,3280.0
7.0820417509,144.75966785,-55.853574369,-1.557776505,3290.0
5.8923581516,-172.81619538,-47.881381496,-66.883417044,3300.0
5.737382419,-133.81800079,-58.805846655,-137.76580736,3310.0
5.9389247731,-96.170425702,-63.611513382,-139.44904897,3320.0
6.3105044158,-58.626512015,-64.722280282,-138.31064036,3330.0
6.8309015666,-20.600783931,-64.228066431,-131.2422115,3340.0
7.6245785903,18.44718667,-62.726605687,-127.83521875,3350.0
9.1427449267,59.017765736,-59.624550519,-126.01658659,3360.0
14.08359018,104.63453705,-53.318837258,-129.40097107,3370.0
18.38074981,22.506402094,-48.190097433,104.122634,3380.0
8.3953985593,67.681082312,-54.98024855,103.03100683,3390.0
6.2278294742,114.87602675,-50.426471334,90.124599836,3400.0
5.7986907437,155.00918287,-53.450992856,-21.203033028,3410.0
6.0129054776,-167.70594293,-61.901363408,-31.181262142,3420.0
6.5896857909,-130.7488978,-64.854355103,-27.363024891,3430.0
7.5678890904,-92.321984641,-65.631283178,-27.613232847,3440.0
9.0349651901,-51.22265461,-63.959385043,-26.215287851,3450.0
11.630507613,-7.6623607897,-59.943684887,-23.837998026,3460.0
16.95816964,50.616651662,-54.15475412,-10.542980778,3470.0
21.002156608,-101.16197205,-49.375667273,159.18815149,3480.0
10.577273853,-22.250236273,-57.409278344,-162.93049006,3490.0
7.6898578244,36.848838746,-55.038627232,-146.24474375,3500.0
6.8698344103,85.210178084,-43.508253281,99.138318031,3510.0
6.801574644,126.97552856,-60.736618984,72.392914546,3520.0
7.1875173473,165.60939313,-66.307179825,86.891986254,3530.0
8.0683047278,-156.10112236,-67.509672094,106.02555468,3540.0
9.6755256371,-115.50741532,-66.20469525,118.59093711,3550.0
12.793677359,-70.019711486,-63.563154433,129.72274343,3560.0
19.40141779,-2.4431474348,-57.156109808,164.01788743,3570.0
18.192772785,159.8628115,-56.248573414,-75.948281313,3580.0
11.100336921,-119.14425165,-60.102096069,-53.994154011,3590.0
8.7969015466,-53.721531155,-56.765300633,-61.577915596,3600.0
8.4375212603,4.4307289402,-45.650049787,169.99867208,3610.0
8.7490280607,56.743595519,-59.386876749,133.61970025,3620.0
9.3120854088,104.61891137,-62.884555292,140.62279673,3630.0
10.161683326,149.58853392,-62.54238875,155.7108634,3640.0
11.635822657,-167.27914797,-60.439876676,167.41242392,3650.0
14.022386289,-116.45261254,-58.169863647,-168.28361945,3660.0
19.669293198,-32.846227452,-51.567496133,-100.63557381,3670.0
16.242628609,89.672694703,-53.520453776,-5.7688250882,3680.0
10.506881953,162.04399969,-55.658444056,31.532519401,3690.0
8.2244946814,-138.00728846,-45.325509831,82.979231933,3700.0
8.3252674334,-81.960860088,-55.538193102,174.78195554,3710.0
9.9303332667,-26.937498748,-60.362457042,-176.22979598,3720.0
12.297809815,30.877639559,-59.474993468,-151.62841075,3730.0
14.610644023,93.152512141,-56.894570297,-135.03814713,3740.0
15.882485917,156.03517723,-56.377510773,-118.87485478,3750.0
15.807866137,-130.19892178,-54.677853554,-72.085957848,3760.0
15.079481307,-59.602452527,-51.384289247,-64.649965559,3770.0
13.282924342,12.372037544,-57.414205124,-55.915126541,3780.0
10.76297894,80.142307832,-62.295690516,-26.713262633,3790.0
8.8714928393,142.1050999,-65.000177776,-16.673520264,3800.0
8.590323138,-159.88281211,-65.543682105,-16.591198076,3810.0
10.274255895,-104.5172321,-63.76465402,-19.191992402,3820.0
14.44713407,-47.87345344,-57.491123841,-17.761217854,3830.0
21.749068819,37.309929152,-44.569310088,17.004727457,3840.0
18.544097564,154.43177917,-34.823833809,11.030031968,3850.0
13.781867367,-147.70401937,-55.015207351,-11.244395298,3860.0
11.208895084,-101.08343785,-61.438394601,17.807444687,3870.0
9.8338374382,-54.544022636,-64.590672661,31.862321646,3880.0
9.1810071254,-3.9934899969,-66.392439067,54.565812556,3890.0
9.0275801179,52.343462025,-66.233683372,72.904667432,3900.0
9.7192400475,114.46492373,-65.826815903,84.348938632,3910.0
12.108487046,179.30017228,-64.172967103,92.218397417,3920.0
18.05046387,-113.41123442,-57.384299468,103.84369377,3930.0
26.611908991,36.115080911,-44.226941704,-165.17418385,3940.0
16.104994708,125.75117332,-43.058101748,102.65239602,3950.0
11.505431218,172.50212481,-67.331152882,87.341709925,3960.0
9.1730650763,-148.30012493,-73.915722711,119.93184549,3970.0
7.8028895201,-110.87524783,-75.235158883,132.01249536,3980.0
7.1596196304,-72.571294513,-75.90966712,142.65245644,3990.0
7.1786556917,-30.500710562,-75.747011131,159.83821957,4000.0
8.4709481134,18.921041672,-72.545559326,171.93222816,4010.0
12.898470131,77.291805379,-67.831604905,168.53120224,4020.0
28.563604392,142.46277414,-52.834798048,173.13851039,4030.0
18.722198618,11.822284295,-60.342175301,-16.044015161,4040.0
13.069543995,63.441134589,-48.155172737,-15.151032762,4050.0
10.486939485,109.3328673,-71.316909019,164.4042399,4060.0
8.7365685552,150.35319122,-78.822842493,-131.56949153,4070.0
7.4530982915,-171.40772988,-77.521595923,-124.56459666,4080.0
6.6036686173,-134.93640581,-76.961729196,-127.14484366,4090.0
6.2652824243,-98.330213099,-75.9396849,-124.13889561,4100.0
6.7756235197,-59.383603564,-73.942469667,-122.35612611,4110.0
9.6723286978,-18.951527601,-69.708247668,-130.79707326,4120.0
16.711431413,-14.216038184,-61.390911521,170.45255079,4130.0
12.705809184,-30.637463858,-63.52398595,97.260464296,4140.0
9.589308133,1.0860726757,-60.302921721,80.663728031,4150.0
8.3556120968,38.948995307,-65.370106327,-109.34099124,4160.0
7.7264311809,77.522855819,-79.036376635,-30.420356008,4170.0
7.257257473,116.7920578,-75.286621344,0.71380695913,4180.0
6.7680387391,155.56373715,-73.978951871,3.627237482,4190.0
6.4219306832,-165.92039766,-73.165447734,2.1928968129,4200.0
6.4717103758,-127.13635514,-70.687536264,-0.83393272281,4210.0
7.9616358638,-88.614273632,-66.067159618,-5.4336463159,4220.0
12.064875573,-71.059147937,-60.034657206,-40.907681221,4230.0
10.547789233,-78.327589003,-60.432443087,-108.08768732,4240.0
7.8682582769,-53.399880365,-60.034036268,-140.46423242,4250.0
6.7241695421,-23.091204473,-48.171256224,67.3534908,4260.0
6.2351014029,8.8648615726,-70.360502601,42.719089473,4270.0
6.0962425438,42.206228315,-75.249599764,63.325537615,4280.0
6.1180758308,77.324409165,-75.357291124,69.532077969,4290.0
6.1887349714,114.79586191,-74.345141979,67.451267215,4300.0
6.6105302774,154.34411504,-72.211393113,67.692727202,4310.0
7.736827643,-164.4554083,-68.37510614,62.840846997,4320.0
11.203328649,-137.12943284,-61.640998057,33.344167536,4330.0
10.455021468,-139.59683709,-59.893411419,-20.074867958,4340.0
7.5751856278,-113.83132938,-59.669580189,-44.15415453,4350.0
6.3064368328,-83.707277156,-51.993519714,-105.96982986,4360.0
5.6392370449,-53.69342503,-66.529947128,129.09973012,4370.0
5.3294919279,-23.712992262,-79.602952311,138.17717939,4380.0
5.2900220333,6.8587581101,-78.717448439,-178.68823304,4390.0
5.5059891213,38.922677134,-75.734509474,175.00039334,4400.0
6.0234199872,73.546135066,-71.995535596,157.2570628,4410.0
7.2479073362,110.85809844,-65.815149793,134.10489027,4420.0
10.49057469,141.60524025,-58.473891316,92.175416133,4430.0
10.633943342,147.69271567,-56.496747757,18.074816658,4440.0
7.940384732,175.22263001,-60.197226876,-29.30493572,4450.0
6.577788287,-149.97861115,-62.88967248,-65.34724613,4460.0
5.709029642,-117.02139164,-67.302447114,-104.79774226,4470.0
5.1582136548,-86.795874053,-75.995682116,-108.61872904,4480.0
4.9678595731,-57.119580601,-74.630273372,-82.391884706,4490.0
4.9376944492,-27.567060728,-71.359124972,-86.325744696,4500.0
5.1248061716,2.3770079904,-68.109563139,-107.92987214,4510.0
5.9254991714,33.732255611,-63.786435076,-147.21893791,4520.0
8.0781373853,61.396560463,-59.65070486,154.67120131,4530.0
8.9586682171,72.865132009,-60.141020296,77.36377677,4540.0
7.4774684251,98.244325499,-65.780854343,24.78711265,4550.0
6.6516363497,132.33217556,-72.121898544,-1.6442439202,4560.0
6.1882384591,168.18142135,-79.976726903,-12.90862291,4570.0
5.7431374696,-157.23532841,-91.628857954,-43.073022013,4580.0
5.4187119699,-123.91788314,-88.99174769,142.62089065,4590.0
5.1298518418,-92.540431529,-83.579044495,133.3251386,4600.0
5.0202608215,-61.735731618,-74.505148121,120.01347065,4610.0
5.2719191483,-31.611655671,-71.238983452,50.208514293,4620.0
6.5003836578,-3.9238744345,-70.893424343,3.708570487,4630.0
7.5054040919,9.216532565,-71.534575247,-60.535378213,4640.0
6.2562641032,29.58507278,-75.466290535,-103.1385328,4650.0
5.6875358104,58.475953131,-78.139266463,-111.24121684,4660.0
5.6045604587,89.432955255,-79.957027616,-109.93508811,4670.0
5.7082124422,122.38996198,-80.777477141,-122.22442229,4680.0
5.7103368211,156.71643295,-81.842814853,-162.53333177,4690.0
5.5839011315,-168.53019219,-86.272653112,88.696540433,4700.0
5.5503129877,-133.85950323,-72.833623188,-1.9329912287,4710.0
5.6065935972,-100.11302657,-71.749187223,-93.194574135,4720.0
6.1308951366,-68.380682377,-74.035789785,-138.12243519,4730.0
7.3263479128,-47.051052028,-72.586740498,175.03673403,4740.0
6.3207765186,-32.044005559,-75.245555005,121.95565024,4750.0
5.1968439649,-5.6170284064,-80.24733032,98.51209335,4760.0
4.8168721209,22.474353414,-82.48026756,80.395008682,4770.0
4.8086549849,50.5914612,-83.00983268,68.781873888,4780.0
5.0215067637,79.693368987,-80.795377217,63.416747276,4790.0
5.2647361004,111.18871244,-75.698058937,53.383043603,4800.0
5.5253770402,144.5006887,-67.961141143,26.146309204,4810.0
5.9647946309,179.3281359,-67.051898458,-56.493441093,4820.0
6.8014831148,-145.56233291,-70.110975397,-82.281389711,4830.0
8.0088628104,-118.03167393,-72.106671472,-112.9400885,4840.0
7.2011378469,-98.35167062,-77.664185074,-159.49433593,4850.0
5.7605663747,-70.12717428,-82.542481192,158.22518669,4860.0
5.0133332771,-40.244416311,-85.142446433,124.31623485,4870.0
4.555051572,-11.524129539,-82.902588397,98.076965885,4880.0
4.4358201722,15.51058701,-80.078678016,87.938907922,4890.0
4.5654001938,43.626378716,-75.619615965,69.900952399,4900.0
4.9121728265,70.267641757,-71.71307587,30.418339196,4910.0
5.2730942847,100.26696892,-69.239826127,-33.740187674,4920.0
6.2033484872,131.3700184,-69.864779458,-70.820146198,4930.0
7.7601066971,159.63502066,-70.403857787,-104.83943187,4940.0
7.8028769166,179.96758937,-73.635623516,-156.28701871,4950.0
6.5226698539,-148.83408099,-76.209392051,165.38010699,4960.0
5.7899033606,-114.10522598,-75.400548241,145.51950198,4970.0
5.2565849337,-80.990107518,-73.626898407,139.92162419,4980.0
4.828661629,-49.976535325,-70.881445791,144.26229362,4990.0
4.6029908232,-20.945382726,-67.765502509,141.46784253,5000.0
4.6204976737,6.9547249767,-64.567912071,103.23856075,5010.0
4.7840679363,35.031958454,-67.842898915,48.308377876,5020.0
5.1668554907,62.335745759,-68.644291848,22.438278534,5030.0
6.2794784382,87.719721554,-66.674253286,-8.1582627553,5040.0
6.9771822299,103.55860033,-66.141746941,-48.592023935,5050.0
6.0004208451,129.90621568,-71.124712799,-68.41345105,5060.0
5.6848257322,163.12742917,-73.200901339,-76.218431065,5070.0
5.6894479419,-163.03177888,-72.975448887,-83.897592877,5080.0
5.8560672548,-128.70876439,-71.627944975,-79.38837101,5090.0
5.6218794746,-94.226719102,-70.618282539,-81.352890657,5100.0
5.4184516903,-61.386024034,-69.205741181,-124.92402661,5110.0
5.3005428865,-30.118650549,-74.476314049,-174.15827396,5120.0
5.3674864304,-0.58870447928,-73.106569736,-174.12438945,5130.0
5.9760756922,25.849723864,-67.464931701,151.90836296,5140.0
6.4634042985,43.120371096,-63.774845115,101.50203725,5150.0
5.3510760392,63.61985,-64.444732678,68.15468095,5160.0
4.7241735014,91.767305237,-65.61284849,61.976976723,5170.0
4.7371000632,120.63077818,-67.279375807,59.878520495,5180.0
5.108034839,150.04380221,-67.802530628,60.550401814,5190.0
5.4235544659,-177.51267046,-66.761568838,43.38104694,5200.0
5.8458072257,-143.54370756,-66.756678744,23.957930866,5210.0
6.0693389972,-109.36175874,-69.423286469,29.497905238,5220.0
6.340426867,-74.174980723,-68.346989773,38.250937285,5230.0
6.9085077526,-41.513814325,-62.23226046,11.607553212,5240.0
7.613266548,-18.325230024,-54.492839113,-60.798486978,5250.0
6.2753905418,-1.0571730423,-52.817448034,-139.46802745,5260.0
4.9186735453,26.537391768,-56.588653595,-172.23324693,5270.0
4.466580494,56.137280117,-63.094517472,179.00702292,5280.0
