S11m,S11p,S21m,S21p,Frequency
5.1664860621,-49.215194052,-51.970296134,-59.499324906,2000.0
5.4102408273,-26.191817426,-54.708581931,-118.39582257,2010.0
5.570253333,-1.8241731901,-56.068670668,-113.33334946,2020.0
5.5789423203,23.563754945,-42.980967856,-171.32612489,2030.0
5.4314807684,49.374899443,-54.810732534,85.888133426,2040.0
5.1685190575,74.8478952,-60.507519702,65.471205662,2050.0
4.855303802,99.634927767,-63.654347863,46.266368263,2060.0
4.5854595894,123.2180788,-65.625104576,24.851881154,2070.0
4.4321833012,145.61522746,-66.671485489,-1.4605578824,2080.0
4.4495164674,167.20973105,-70.121624867,-17.153625714,2090.0
4.6146327542,-171.09704823,-63.858418427,9.2578643964,2100.0
4.8256291263,-148.65741817,-59.345501278,-41.058202485,2110.0
4.9845680242,-125.39982427,-61.470731069,-79.060409754,2120.0
5.061717905,-101.5051414,-53.469411066,-99.941677343,2130.0
5.0396017704,-77.144708904,-61.280277547,140.42644377,2140.0
4.9234674086,-52.628596361,-75.132417084,157.24831153,2150.0
4.7700820377,-28.304919118,-70.661793152,-167.75534842,2160.0
4.6206559947,-4.3329082011,-66.974615583,179.87959861,2170.0
4.5069025761,19.176682799,-64.139498823,158.98358981,2180.0
4.474875122,42.041228203,-61.235150457,126.35393217,2190.0
4.5612085812,64.772606764,-60.093477558,83.41838955,2200.0
4.6873463236,87.884244732,-61.209970105,50.543002066,2210.0
4.7891321497,111.33106738,-63.141031904,22.22758535,2220.0
4.8629553933,135.09416718,-60.717595394,28.276612405,2230.0
4.8711077784,159.14870491,-57.739250624,-69.411202587,2240.0
4.8179354674,-176.82508957,-63.343875804,-101.49938108,2250.0
4.7339723955,-153.09758648,-64.883105928,-117.92588119,2260.0
4.651623234,-129.69426682,-63.882000139,-140.55077084,2270.0
4.5844955516,-106.68811317,-61.07084884,-172.58099014,2280.0
4.5706929368,-84.039845848,-59.32810291,140.18176317,2290.0
4.6383095932,-61.369814313,-59.510005684,95.867265689,2300.0
4.7410779749,-38.250094351,-60.30350121,61.965111093,2310.0
4.8214355003,-14.639376277,-60.599699161,37.752887222,2320.0
4.860593284,9.1936304056,-60.326591211,19.667069602,2330.0
4.8622940874,33.220051851,-53.854227516,-52.302663525,2340.0
4.8006440468,57.252864374,-60.617466578,-97.551007921,2350.0
4.7297366349,80.771226561,-63.549070464,-115.6064473,2360.0
4.6936228581,104.02956875,-63.546593183,-140.22497764,2370.0
4.691576717,127.05958436,-63.010436641,-174.36881792,2380.0
4.7335159037,149.90184401,-64.585434834,148.67554194,2390.0
4.8375887564,172.74249759,-65.33699983,120.67398713,2400.0
4.971055604,-164.15450852,-66.074995121,97.315761851,2410.0
5.0895177743,-140.7270578,-65.121869085,72.137621116,2420.0
5.1839330184,-117.04359783,-61.568661319,40.424618174,2430.0
5.2569429552,-93.05184973,-57.480479817,-13.651640753,2440.0
5.2830165178,-68.761432245,-59.890225884,-78.239632335,2450.0
5.2357773615,-44.498458317,-61.689989354,-114.55021447,2460.0
5.163844164,-20.683295795,-63.003319544,-156.77610824,2470.0
5.1252370854,2.6601758093,-65.583974332,154.68017767,2480.0
5.14282282,25.674481323,-68.83994167,117.57479139,2490.0
5.2215890955,48.530569567,-71.491919812,93.500428187,2500.0
5.3541251363,71.575739747,-71.609274458,70.970210791,2510.0
5.5127465567,94.863956448,-70.597805047,48.513743595,2520.0
5.6284999095,118.46812288,-66.965984901,27.466243793,2530.0
5.747126518,142.16168073,-60.814825224,-20.783611648,2540.0
5.841000836,166.12712652,-61.922945585,-89.395791653,2550.0
5.8960102831,-169.91504625,-63.781373121,-124.59902172,2560.0
5.9524231113,-146.15582245,-63.994539618,-161.61779253,2570.0
6.0362820161,-122.6019582,-66.190460414,148.72798973,2580.0
6.1609114115,-99.150092551,-69.052127624,116.15512611,2590.0
6.3409369055,-75.644676095,-70.983957015,97.184946685,2600.0
6.5676044539,-51.887240257,-69.384760567,83.593888552,2610.0
6.801499863,-27.694141623,-67.420268014,63.50642297,2620.0
7.000219984,-3.2197928429,-62.831942464,37.211387601,2630.0
7.1608368169,21.311343752,-56.412755415,-2.8540610783,2640.0
7.2825670408,45.958236609,-54.902717374,-94.875618239,2650.0
7.3308295272,70.54932333,-58.498021853,-128.46819596,2660.0
7.3514392381,94.327633379,-59.877637626,-179.81553796,2670.0
7.429752904,117.40560937,-65.391527686,116.53217883,2680.0
7.5809353329,139.7850236,-74.125801827,80.036775682,2690.0
7.8956217783,161.80791607,-79.632571133,45.658674976,2700.0
8.3797050454,-175.86425623,-83.043621596,61.410290109,2710.0
8.9727200913,-152.81080802,-81.045476669,106.17231046,2720.0
9.6376744616,-128.84922266,-74.60058031,95.005747522,2730.0
10.310612589,-103.88985146,-64.814925153,81.579596493,2740.0
10.887771548,-77.977222115,-54.377041087,13.944766152,2750.0
11.289646632,-51.687296354,-58.390227849,-24.611037428,2760.0
11.516883632,-26.485716964,-55.710008212,-52.153595394,2770.0
11.796750347,-2.9809433148,-56.927303054,-119.82140219,2780.0
12.211679012,19.347799239,-64.222309373,-165.82614042,2790.0
12.811223077,41.069119816,-71.781833056,-177.34686986,2800.0
13.609545886,62.614708996,-76.736754111,108.24218308,2810.0
14.619645608,84.150683007,-71.520670934,44.00134115,2820.0
15.838291299,105.16573363,-64.397291475,40.899092589,2830.0
17.292057256,125.65120453,-59.661306441,25.246729041,2840.0
18.983489807,145.80188362,-47.478082756,-20.991869492,2850.0
20.699936984,165.98717091,-47.894479976,-99.851389272,2860.0
22.010163202,-175.74692294,-43.982040213,-110.22648513,2870.0
22.650148501,-163.53202838,-40.057781174,164.21757031,2880.0
22.484600976,-157.45695999,-46.331041583,88.977792043,2890.0
21.466841813,-152.85030934,-52.949526673,43.992048626,2900.0
19.950501649,-146.35052858,-56.903363488,38.058404077,2910.0
18.567455389,-137.32013914,-59.841256252,21.793917092,2920.0
17.457902818,-124.84088703,-62.637125902,-16.882845133,2930.0
16.630239198,-109.7004235,-52.303147964,-32.408719248,2940.0
16.083966459,-92.795030494,-42.696533062,-52.035597126,2950.0
15.824244753,-72.974907118,-40.084688105,-160.70958221,2960.0
15.694783018,-49.09304278,-46.067145978,-171.43403627,2970.0
15.214219766,-21.119373555,-42.145937546,161.40997815,2980.0
14.24918811,7.4196043964,-49.074103446,84.421553434,2990.0
13.076474499,35.583677982,-57.041880926,68.832595253,3000.0
12.020547769,59.230614899,-62.236632516,74.399160369,3010.0
11.05523423,82.463025838,-65.224181719,64.340243077,3020.0
10.298833634,104.60453683,-64.781604157,65.231155573,3030.0
9.6822286391,126.26375092,-64.310722815,52.032802858,3040.0
9.2311506531,147.47933372,-58.292348736,17.858458277,3050.0
9.0124517046,168.55465132,-51.357142865,-52.828505625,3060.0
8.9392380972,-169.35696815,-58.95321141,-112.98775463,3070.0
8.9351114844,-145.72731886,-58.206624294,-110.18993407,3080.0
8.8717711815,-121.39603459,-54.456716619,173.47101563,3090.0
8.7312059209,-96.400461519,-64.304950344,142.22894126,3100.0
8.4810768357,-71.427672493,-68.986944057,99.776319749,3110.0
8.152102062,-47.321548289,-71.15291562,114.545979,3120.0
7.8801786298,-23.601284661,-68.597266331,98.48469687,3130.0
7.6178718345,0.10381860953,-66.925944893,90.047399837,3140.0
7.4322643957,23.715095879,-62.013116438,57.41992087,3150.0
7.3614425391,47.436206675,-55.663933838,-9.0416614233,3160.0
7.333726819,71.955671078,-61.398019434,-77.040474404,3170.0
7.2274951207,97.061867134,-65.395432723,-53.478929655,3180.0
7.0178867701,121.96809972,-57.913235488,-86.856886207,3190.0
6.7662839483,146.25700824,-63.223662895,-169.67150941,3200.0
6.51168235,169.77039462,-69.722132863,-176.48579909,3210.0
6.2812096774,-167.45503562,-71.484010841,-169.51524545,3220.0
6.0729097023,-145.51970783,-72.184160437,163.6770051,3230.0
5.9371696622,-123.99321866,-66.778253515,155.33364403,3240.0
5.8561446698,-102.55018776,-59.459971427,147.82115742,3250.0
5.8556021445,-80.877334588,-50.462813446,76.217124734,3260.0
6.0165835341,-57.979482578,-55.254650681,8.4891491528,3270.0
6.2025141397,-33.788379845,-59.816467267,14.996538615,3280.0
6.3137669676,-8.4307087366,-55.93864579,15.651533671,3290.0
6.3317757503,17.295279793,-51.135217557,-79.216587796,3300.0
6.2349945909,42.910839593,-61.158828782,-111.78771741,3310.0
6.0541301484,67.983575744,-66.714598994,-112.40012901,3320.0
5.8209445919,91.910282093,-68.996631595,-115.02201769,3330.0
5.5720770255,114.60102242,-69.478837697,-122.46317646,3340.0
5.3459729231,136.59252253,-64.709492312,-145.97026591,3350.0
5.1895461964,158.22022886,-58.554946749,164.51740155,3360.0
5.1767846843,179.73336911,-64.479616422,81.528200121,3370.0
5.2945639832,-157.6095962,-73.79582544,81.28882468,3380.0
5.4018334972,-134.11142227,-72.116308589,106.62501032,3390.0
5.4844780549,-110.57693188,-66.096844375,56.942787036,3400.0
5.5563078611,-86.806802178,-84.669648422,-71.30840204,3410.0
5.5972215299,-63.129147498,-81.778479872,133.54466962,3420.0
5.6068499337,-39.452424733,-78.826823725,131.65813739,3430.0
5.5789152411,-16.063323823,-76.31340998,137.81753361,3440.0
5.4846080348,7.1775083463,-70.079016206,134.67577982,3450.0
5.3733319212,29.952325337,-61.009837671,58.172134369,3460.0
5.3703421722,52.846801683,-74.711010602,14.267063127,3470.0
5.5141363768,76.885740782,-96.495260011,14.771038425,3480.0
5.6703205765,102.10602515,-80.735085287,171.07447149,3490.0
5.7145281291,127.59080017,-69.374476887,151.08170885,3500.0
5.6588870091,152.56554002,-63.257990337,25.041922487,3510.0
5.5039554671,176.64227779,-73.897355094,-44.408903317,3520.0
5.2639768908,-160.489319,-76.244473993,-57.780600174,3530.0
5.0248733368,-139.00899457,-71.433251102,-78.823665083,3540.0
4.820062551,-118.40634761,-63.472580275,-103.82864337,3550.0
4.6977486342,-98.158385822,-60.513981332,143.23316655,3560.0
4.7602571014,-77.763724781,-67.000881898,141.97498226,3570.0
5.0751827788,-55.901542836,-67.932008097,164.74252288,3580.0
5.4711012009,-31.962403017,-65.022191108,175.38326771,3590.0
5.8362520324,-6.490553845,-58.601870545,177.453747,3600.0
6.1175803899,19.793308869,-45.789204328,106.4447046,3610.0
6.2591384704,46.40814185,-56.991664157,62.322945397,3620.0
6.1869065789,72.482154544,-59.45599798,69.194632657,3630.0
5.8909473288,97.104976142,-58.124985108,75.195769364,3640.0
5.4674963887,119.71044411,-49.767397047,84.884793809,3650.0
5.1270699408,140.55593523,-58.161234929,-141.37968899,3660.0
5.0214266356,160.94615459,-65.472763778,-119.55211328,3670.0
5.1502463507,-177.72741628,-65.268529547,-108.88460739,3680.0
5.364870744,-154.90924551,-62.554122174,-105.18687055,3690.0
5.5898842596,-131.06854698,-57.03370981,-117.01642262,3700.0
5.8018296915,-106.73851519,-48.971293591,164.09356292,3710.0
5.9952598994,-82.21773431,-54.869547405,111.2880543,3720.0
6.1114176055,-57.932102866,-54.515191507,101.04816844,3730.0
6.0849258897,-34.058846444,-37.124828634,49.781709581,3740.0
5.8819429504,-11.442539509,-60.692214232,-92.984439375,3750.0
5.6775149427,9.6324282033,-69.709567523,-76.729935612,3760.0
5.6782349411,30.206788324,-70.62092098,-67.537967948,3770.0
5.9132161188,51.776095693,-67.619758001,-79.824979737,3780.0
6.2923673046,75.34688226,-60.091899376,-102.08560966,3790.0
6.6890738221,100.95297702,-53.764243742,177.83810318,3800.0
7.0065969522,127.90056735,-59.482758632,156.12509328,3810.0
7.2099355181,155.39200237,-60.023306021,162.21247795,3820.0
7.1982603064,-177.706164,-56.56563845,-172.16380175,3830.0
7.0136377116,-152.70444442,-46.068091035,-69.026122287,3840.0
6.7164525958,-129.78729568,-60.95586066,-3.1252440509,3850.0
6.3142294723,-108.95039742,-67.943321161,15.103142135,3860.0
6.0759547872,-89.924051974,-69.145039644,4.4318098721,3870.0
6.1296734322,-70.919567645,-67.416117234,-29.439006048,3880.0
6.424794543,-50.677697207,-65.342866095,-99.306397213,3890.0
6.9019654191,-28.688536173,-67.496149987,-154.21560926,3900.0
7.5510328119,-5.1543906376,-68.560887991,-170.82011675,3910.0
8.3687433871,20.225896251,-65.428527972,179.11359219,3920.0
9.2424249118,47.391661774,-59.151618798,174.58693785,3930.0
9.9405118793,75.663266898,-48.891381655,46.921057499,3940.0
10.195917337,103.98638742,-62.409027594,36.780069334,3950.0
9.9042617768,130.61268494,-66.872731908,66.303467078,3960.0
9.3188273934,153.98342945,-64.434635478,72.011549682,3970.0
8.8352405405,174.91666866,-62.011545316,29.062140566,3980.0
8.623836283,-164.41714319,-63.92684583,-17.049462174,3990.0
8.7191902169,-143.51847573,-65.307078438,-41.867747565,4000.0
9.1734180655,-121.36012675,-65.606279486,-67.38374154,4010.0
9.7784739789,-98.18240986,-63.684847236,-86.381958214,4020.0
10.572732804,-75.061457647,-57.835814264,-96.604785837,4030.0
11.469395294,-52.673958237,-47.270122002,-167.41797177,4040.0
12.424296322,-30.73494625,-54.797312686,117.42106719,4050.0
13.198274295,-8.3640321796,-59.408646857,91.01594156,4060.0
13.504661231,14.433918936,-61.771162794,83.534244833,4070.0
13.504509953,36.528731328,-66.558877806,82.695559441,4080.0
13.524577169,57.386036962,-71.671222952,80.498259956,4090.0
13.897859504,77.381549734,-70.372634762,74.353951589,4100.0
14.843028448,96.27950499,-70.26953836,54.612312803,4110.0
16.375956486,113.79751685,-68.61696909,22.764174324,4120.0
18.387397438,128.2924708,-63.198734692,-38.798099625,4130.0
20.448347372,137.16038477,-55.621018264,-132.59756724,4140.0
21.987890407,142.564332,-53.432600278,162.25570073,4150.0
22.803598678,153.4544505,-52.398166582,94.803179867,4160.0
23.705926795,175.91783995,-58.077846572,23.425902823,4170.0
23.80771212,-148.69500535,-60.670653859,-118.42445345,4180.0
21.892530181,-111.94133514,-61.196650699,-156.97384006,4190.0
19.271769279,-87.543750498,-64.174194225,-167.4822487,4200.0
17.111875992,-71.837237245,-66.28899006,171.51735562,4210.0
15.478968982,-59.263121948,-65.342877403,152.03179795,4220.0
14.041912516,-46.79781641,-63.845735049,129.36790674,4230.0
12.699763659,-32.721142,-65.34262819,63.748885898,4240.0
11.57105372,-17.000504347,-69.961820572,11.699995257,4250.0
10.759956504,-0.098991975471,-71.120541308,-17.206572651,4260.0
10.362175212,17.641884395,-72.684706411,-105.89270598,4270.0
10.438164766,36.271637426,-77.761054512,146.2695787,4280.0
10.965880262,57.088517896,-77.033618642,95.336867319,4290.0
11.646422508,81.462355756,-79.305120968,59.646713398,4300.0
12.068583651,109.05845078,-85.452349668,30.99509794,4310.0
11.901052622,137.57676134,-83.529746242,-63.907630095,4320.0
11.261045622,165.36566149,-72.492489565,-116.74054627,4330.0
10.405194725,-168.50885406,-65.758784947,-176.65578335,4340.0
9.5631002026,-143.76891191,-68.594692569,144.12225426,4350.0
8.8065480908,-119.99680525,-72.158968044,108.83359611,4360.0
8.2042043116,-97.447904808,-75.608208122,69.829091102,4370.0
7.8281953911,-75.83179179,-73.938777217,80.055230205,4380.0
7.6956743766,-54.490300712,-76.555547998,34.249249297,4390.0
7.7151268464,-32.270393789,-82.379544285,1.9280354087,4400.0
7.6808257896,-9.5735476159,-84.525543038,-28.807325622,4410.0
7.6060764989,12.903562265,-83.99946514,-71.004849617,4420.0
7.5386610886,35.731790132,-78.864986427,-126.18086477,4430.0
7.4658303652,59.032382593,-73.198141939,169.07621647,4440.0
7.3968612117,82.379562357,-74.361561067,122.82686056,4450.0
7.3165414906,106.54477339,-74.436189095,125.14897447,4460.0
7.1985170693,130.62023567,-71.807562634,128.84049522,4470.0
7.1564455867,154.65907311,-65.350406326,86.795055021,4480.0
7.1896313094,178.94049858,-71.282635346,-1.5522597649,4490.0
7.2426681117,-156.07736588,-73.516503632,7.8848589887,4500.0
7.1897878379,-130.63448342,-79.084894671,8.3360144684,4510.0
7.0026355073,-105.64262984,-79.019849903,11.593922284,4520.0
6.7364284079,-81.282780279,-78.740303094,21.203954271,4530.0
6.4278067935,-57.723975861,-80.395603833,-41.340533937,4540.0
6.1365179527,-35.052225297,-78.693626121,-95.483408839,4550.0
5.9133034744,-13.045498588,-79.427549087,-104.41669332,4560.0
5.7542745014,8.5629556375,-75.38230838,-99.033383991,4570.0
5.6921418168,29.801448105,-74.268536154,-109.83564631,4580.0
5.7088780971,51.236640724,-72.682627703,150.22880567,4590.0
5.8171344431,72.850414394,-73.597490446,-158.23789329,4600.0
6.0435467171,95.482864217,-76.901011252,63.782725999,4610.0
6.2535541382,118.93818936,-72.011784819,119.44999312,4620.0
6.4680522485,143.21080463,-74.778878077,90.28359678,4630.0
6.5981470388,168.54584982,-66.664788966,81.020817782,4640.0
6.581320659,-165.82541885,-71.537779294,37.647780131,4650.0
6.4594324266,-140.32215238,-74.52586929,10.047459776,4660.0
6.2532743278,-115.4351054,-73.745158097,-27.03040717,4670.0
6.0250318387,-91.333809758,-67.790008326,-35.535258284,4680.0
5.8220823048,-67.906944377,-66.291446122,-78.699491094,4690.0
5.6549788747,-45.155242127,-75.15928969,157.91695909,4700.0
5.5458983837,-22.827346712,-75.341007562,-150.08642074,4710.0
5.4763547389,-0.81155486267,-85.657727491,-117.80677807,4720.0
5.4526990631,21.157612314,-87.331078646,177.2413372,4730.0
5.4281918408,43.156590144,-87.54948638,111.09073478,4740.0
5.4342208257,64.961777747,-79.579367664,70.919370577,4750.0
5.5453154593,87.162459098,-88.536351941,78.591845801,4760.0
5.6195366049,109.86657603,-106.77647579,-28.710231928,4770.0
5.6918993342,132.80322899,-86.187031709,46.403574742,4780.0
5.7728607469,156.08957167,-87.084743908,14.810538286,4790.0
5.9153684791,179.66285174,-80.641500693,14.57370422,4800.0
6.0657542165,-156.18828262,-87.707650841,113.65455188,4810.0
6.1707768628,-131.45806141,-83.629242856,-73.999383157,4820.0
6.2181128836,-106.32026869,-84.341702367,-54.74072908,4830.0
6.1814471595,-81.108477856,-87.449828873,-96.259462444,4840.0
6.0463565272,-56.352828052,-89.337054065,152.20805371,4850.0
5.8457746977,-32.329699688,-83.469892044,95.757448674,4860.0
5.5965557617,-9.0295528599,-83.194354497,123.6173223,4870.0
5.3257764168,13.187770468,-94.302694675,-98.128619398,4880.0
5.1794715791,34.202945255,-74.829787632,36.655526406,4890.0
5.1829003342,54.823945528,-78.09177302,152.53681642,4900.0
5.3646244548,76.054512887,-74.773153477,-54.504673505,4910.0
5.6195546461,98.028792904,-76.68205045,27.728563837,4920.0
5.8600790654,121.10584749,-84.517859065,-84.740958603,4930.0
6.0669988113,144.70729579,-76.807153498,-72.28747882,4940.0
6.2166360956,168.96779039,-77.503382343,-109.33482122,4950.0
6.272879891,-166.16743418,-81.928092306,-145.76713525,4960.0
6.1882767743,-140.93802375,-79.220305811,139.6818044,4970.0
5.9425299167,-116.41678875,-72.474335987,166.54758529,4980.0
5.7032173357,-93.413887176,-73.270376011,-155.23905071,4990.0
5.6778320256,-71.035620961,-73.528901171,79.761962568,5000.0
5.8162360895,-48.124831006,-76.173249458,77.96294449,5010.0
5.9598186064,-24.73184098,-76.48639812,57.648524657,5020.0
6.0942464336,-1.1464214477,-73.295114626,118.87841197,5030.0
6.1512369075,22.500763303,-73.147096684,43.875537846,5040.0
6.1113197315,45.886475437,-64.913447505,0.58104328601,5050.0
6.0032634226,69.57286211,-70.153272562,-27.618136438,5060.0
5.7264842442,92.643468953,-70.684238521,-59.736342263,5070.0
5.4178186781,114.52767072,-75.919849458,72.427868573,5080.0
5.3561145704,134.69223608,-62.509247974,-138.53572772,5090.0
5.628840725,155.36232117,-64.514316461,-123.01026075,5100.0
6.1583144918,177.70080873,-71.098356561,-173.48996094,5110.0
6.7757058779,-158.45432505,-77.73852955,176.71025674,5120.0
7.3537646328,-133.13180452,-74.786335591,159.30416402,5130.0
7.7503859701,-106.40503205,-65.500978692,161.08678546,5140.0
7.7614362695,-78.482776144,-62.195499915,91.686061797,5150.0
7.2533799514,-50.471799969,-59.953545145,66.20559425,5160.0
6.2187263312,-25.025871544,-66.513913941,76.021051049,5170.0
5.1535777685,-4.8991272506,-69.27500283,35.510743575,5180.0
4.8709401569,12.806896524,-78.448807939,-72.73256187,5190.0
5.311735977,32.752700963,-59.346725694,-5.9543548249,5200.0
5.9962581575,54.832985255,-62.827247731,55.609582288,5210.0
6.7870366746,77.975817621,-70.569452211,-138.58360213,5220.0
7.6431771553,101.4423982,-69.376673197,-72.280990827,5230.0
8.4940391059,125.92609247,-63.568584556,-36.086780614,5240.0
9.0416783766,153.26252641,-53.706558846,-92.276111183,5250.0
8.8680135344,-176.16281933,-59.613103994,-168.81855828,5260.0
7.1994927474,-147.04635272,-56.55560381,167.69340873,5270.0
5.1600543594,-129.84850478,-62.926925354,-164.6685608,5280.0
