S11m,S11p,S21m,S21p,Frequency
5.1567018271,-49.095214344,-59.609721512,177.39836586,2000.0
5.4043437336,-26.088178301,-59.278954415,104.45214818,2010.0
5.5688588075,-1.7047744994,-61.805625997,77.677863303,2020.0
5.5779318156,23.711307051,-59.201793819,44.090498272,2030.0
5.4277949132,49.532514632,-58.699962782,-4.754333073,2040.0
5.164283567,74.98573709,-58.75436131,-51.765237034,2050.0
4.8542668786,99.786520416,-59.654276767,-104.03736631,2060.0
4.5826051768,123.39333038,-61.348522824,-156.68657434,2070.0
4.4218494143,145.76612212,-64.92889315,153.25662407,2080.0
4.4378360352,167.32673084,-73.142238418,135.09355571,2090.0
4.6055419779,-170.97942029,-66.199371969,169.58654854,2100.0
4.8172244658,-148.55374284,-61.433489567,114.06805323,2110.0
4.9784157903,-125.31570795,-63.883727681,60.868412786,2120.0
5.0605784027,-101.40673477,-63.228638427,41.745375233,2130.0
5.0399344627,-77.005667569,-64.324948452,-9.940267767,2140.0
4.9189016582,-52.467001413,-71.286350532,-18.930047216,2150.0
4.7611572832,-28.171575103,-65.400391168,-13.194570465,2160.0
4.6173089618,-4.2120292921,-61.99959479,-52.971915889,2170.0
4.5092006522,19.317401225,-60.568027874,-99.556706045,2180.0
4.4790331639,42.212719354,-60.234588994,-141.6634111,2190.0
4.5636226427,64.939224034,-60.19151985,174.32825963,2200.0
4.6881616923,88.114952882,-61.275451164,132.24754105,2210.0
4.7832598688,111.5615127,-64.120451282,89.82645088,2220.0
4.8502809095,135.30328869,-66.860063299,92.71595932,2230.0
4.8611652245,159.31510407,-62.906748834,67.716581162,2240.0
4.817844249,-176.66403026,-60.842347095,24.982667097,2250.0
4.737211251,-152.87433096,-59.460636929,-20.434911817,2260.0
4.6491759609,-129.43719401,-58.381209669,-67.937473017,2270.0
4.5786694934,-106.43606174,-57.124441361,-118.30553946,2280.0
4.563650481,-83.81995845,-56.429183931,-171.1395161,2290.0
4.6285603763,-61.202005151,-56.305522982,138.62037227,2300.0
4.7350346739,-38.121010248,-57.051811809,87.357911384,2310.0
4.8264180744,-14.539401592,-59.462804192,40.907991363,2320.0
4.8720633937,9.407588864,-64.160796976,14.670247557,2330.0
4.8625727233,33.546488402,-62.469280408,10.589748983,2340.0
4.7827490778,57.572967891,-60.467712168,-29.150211725,2350.0
4.7097234422,81.014870196,-60.18411004,-69.466269931,2360.0
4.6750296208,104.25841119,-59.648797531,-111.25713749,2370.0
4.6737360291,127.22703148,-59.432953237,-155.61317404,2380.0
4.7231267241,150.03681816,-59.140209871,160.32099234,2390.0
4.8302857174,172.88484568,-58.722276674,112.64378809,2400.0
4.9582236778,-163.9303128,-58.818430446,63.38637318,2410.0
5.0718520354,-140.45142126,-59.620788482,15.267115882,2420.0
5.1716121411,-116.83962291,-61.517573224,-32.67996076,2430.0
5.2550060959,-92.92379002,-65.24802975,-46.396345101,2440.0
5.2864961463,-68.599812665,-61.10853334,-73.601998572,2450.0
5.2381536854,-44.284478114,-59.795419847,-125.43006329,2460.0
5.1646585463,-20.454571999,-59.825555394,179.66837946,2470.0
5.1303553482,2.9070834927,-61.35345544,125.93946955,2480.0
5.1258923523,25.989277975,-62.584508193,77.37447348,2490.0
5.203267354,48.771813679,-63.153010909,28.74444822,2500.0
5.337897968,71.654546397,-63.094970958,-21.01446693,2510.0
5.5106618551,94.959702537,-63.283963979,-70.495051541,2520.0
5.6408252889,118.64850915,-64.029499166,-116.36570116,2530.0
5.7497734121,142.40464951,-66.948389743,-156.23323242,2540.0
5.8386331182,166.39939541,-66.605642084,-163.85837756,2550.0
5.8893476033,-169.61315946,-64.466232368,161.45078312,2560.0
5.9347357731,-145.89894934,-63.692304866,118.45208901,2570.0
6.0147814515,-122.40386949,-63.422634515,74.166397219,2580.0
6.1535366612,-98.95913487,-63.313720784,28.598437436,2590.0
6.3491635028,-75.416198082,-62.260635768,-17.345748559,2600.0
6.5738208318,-51.566227076,-60.75525431,-66.182253579,2610.0
6.798402428,-27.346866342,-59.007630655,-117.19629316,2620.0
6.9809586866,-2.8862953002,-58.345707713,-172.7294605,2630.0
7.1384405292,21.647035133,-60.051936254,131.13790634,2640.0
7.2580813073,46.35962661,-64.948093361,106.1398378,2650.0
7.3096788561,70.764646186,-63.022057304,82.976412671,2660.0
7.3391147796,94.414077646,-63.327077803,32.375102647,2670.0
7.4143011429,117.64153294,-66.007919543,-21.251519769,2680.0
7.5684310595,140.181722,-69.668950683,-70.107327613,2690.0
7.8743344863,162.17291112,-72.988056842,-120.68018865,2700.0
8.3644870133,-175.62703206,-77.806042789,-145.68270515,2710.0
8.983459288,-152.60889167,-75.308825409,-138.53426925,2720.0
9.6469093252,-128.54253606,-70.74729138,-165.41715175,2730.0
10.302445118,-103.49623914,-68.139493736,155.28404441,2740.0
10.890432958,-77.502289549,-69.217406796,112.78837327,2750.0
11.289771347,-51.092698989,-70.250787049,115.79997547,2760.0
11.499382738,-26.014101697,-67.146468698,88.138320164,2770.0
11.786410616,-2.5711529825,-66.314629645,46.60852058,2780.0
12.237904354,19.792255587,-68.635736101,-3.2966012861,2790.0
12.838005776,41.705539287,-72.838058689,-58.40238638,2800.0
13.621105841,63.296875227,-74.33090096,-154.95017102,2810.0
14.598400854,84.736877276,-70.81600147,127.96034816,2820.0
15.864490052,105.79060052,-68.208694865,81.543455709,2830.0
17.356090042,126.48276028,-67.557319583,44.131752601,2840.0
19.034876322,146.78628731,-67.658983647,9.4727362179,2850.0
20.794365952,167.15889215,-70.860796478,-6.0240708952,2860.0
22.181662688,-174.23847228,-66.951476296,-13.360085996,2870.0
22.802155084,-161.81890359,-63.945826269,-52.675894028,2880.0
22.546623579,-156.07976377,-62.806674832,-99.027462082,2890.0
21.494870829,-152.4052081,-62.590764711,-140.23320027,2900.0
20.029558896,-146.73163063,-61.650186239,-179.1363963,2910.0
18.662837576,-137.76702844,-60.94995876,142.36374415,2920.0
17.551120717,-125.24686781,-59.962538653,107.8095194,2930.0
16.677763241,-110.19706036,-58.915396496,70.647454437,2940.0
16.147499307,-93.234930974,-58.250546316,30.118994196,2950.0
15.962460989,-73.095906833,-60.113201126,-14.399958684,2960.0
15.761571842,-48.780294459,-62.380987433,-21.764513602,2970.0
15.176285336,-21.007834971,-60.023894158,-49.773240739,2980.0
14.245035266,7.2109074359,-59.969413257,-87.763294112,2990.0
13.081898733,35.379660307,-60.429822801,-121.52532818,3000.0
12.040405646,59.233263565,-61.039120245,-155.73669424,3010.0
11.063020097,82.533882421,-61.121205515,169.89051338,3020.0
10.28293475,104.72481835,-61.07446747,131.41020695,3030.0
9.6576072139,126.43075387,-61.385416388,91.215432173,3040.0
9.1786232389,147.4950335,-61.951111448,50.882049262,3050.0
8.927158618,168.33183763,-63.105452368,7.214434305,3060.0
8.8939723713,-169.86505423,-66.978843721,-25.161875783,3070.0
8.9612737105,-146.18180788,-66.73919023,-30.4138966,3080.0
8.9281858087,-121.36127444,-64.269188968,-63.54403022,3090.0
8.7507937985,-96.191266488,-63.086986433,-109.58085596,3100.0
8.4909617919,-71.333970479,-63.407996681,-156.8190223,3110.0
8.1629623342,-47.017218923,-63.39912498,161.56553859,3120.0
7.8495173066,-23.328485079,-63.040722285,112.32269801,3130.0
7.6006919894,0.14036304529,-63.108813934,66.251491447,3140.0
7.4422944736,23.777707395,-63.271851334,18.002645276,3150.0
7.3762640818,47.705886699,-64.514157196,-31.009168022,3160.0
7.3232831229,72.319560035,-68.619706111,-74.906569101,3170.0
7.1895560557,97.335427871,-71.32311037,-65.69293634,3180.0
6.9751034462,122.13226459,-67.668194251,-89.218424453,3190.0
6.7423003325,146.38939873,-66.397555553,-124.76328571,3200.0
6.5192168581,169.79521546,-65.771882355,-154.60506183,3210.0
6.3056730182,-167.54370011,-64.101242882,174.67153847,3220.0
6.1250351904,-145.4391135,-62.658602024,138.42107914,3230.0
5.9779313493,-123.5148314,-61.508298942,102.2580702,3240.0
5.8632106049,-101.92824353,-60.085703063,63.063051156,3250.0
5.8498797568,-80.389578645,-59.703791515,17.112510722,3260.0
6.0257171714,-57.710158056,-61.737526817,-28.591789987,3270.0
6.1987758763,-33.478697646,-64.701696426,-47.491039393,3280.0
6.3030396683,-8.1178740691,-63.645116831,-69.739534759,3290.0
6.3327232734,17.567569306,-63.412836405,-104.0427218,3300.0
6.236463366,43.408480675,-63.898326701,-139.67319309,3310.0
6.024801315,68.444965031,-64.418990182,-173.1151622,3320.0
5.7667835302,92.096149204,-64.735705818,152.12660143,3330.0
5.5292902206,114.63271312,-65.122015061,114.83463502,3340.0
5.3346901227,136.5318593,-65.062470217,75.625323644,3350.0
5.2030838831,158.14437931,-66.127333061,27.778473603,3360.0
5.1863806827,179.86989187,-69.877075533,-18.728856984,3370.0
5.2955358467,-157.50382564,-76.456743588,-31.918029602,3380.0
5.4070811002,-133.88914937,-76.486449567,-37.124754969,3390.0
5.463920679,-110.29844987,-77.884051395,-70.075504609,3400.0
5.5272856891,-86.645707694,-88.080624923,-112.83957871,3410.0
5.592927337,-63.161639026,-84.927153254,30.774335391,3420.0
5.6288283681,-39.314284389,-79.247359,-3.3111560498,3430.0
5.5961951699,-15.703440228,-78.046077486,-32.415132356,3440.0
5.4859608368,7.5675934236,-77.679150013,-65.247923389,3450.0
5.3717758087,30.327493364,-80.697438716,-96.580078354,3460.0
5.3757851171,53.176962513,-84.942410956,-103.26761138,3470.0
5.5195740826,77.103783655,-90.883164287,-69.166355034,3480.0
5.6803650391,102.24249564,-84.702355264,-46.632923359,3490.0
5.7475959426,127.7642221,-78.882680361,-82.503079599,3500.0
5.6967177806,152.87561071,-77.553618639,-144.02215896,3510.0
5.5165025187,177.12973198,-78.805643755,155.81801758,3520.0
5.2619874995,-160.10731417,-78.010427177,115.60925468,3530.0
5.016491998,-138.77815091,-74.431441769,66.922129988,3540.0
4.8273740634,-118.17309607,-72.670385746,20.541120698,3550.0
4.7192145593,-97.862973831,-72.816407314,-11.982641009,3560.0
4.7835422421,-77.481208084,-72.961720822,-31.240901148,3570.0
5.0940874816,-55.6081955,-71.725619474,-46.215541584,3580.0
5.4814627835,-31.553604967,-70.014848638,-69.691428316,3590.0
5.8244246653,-6.0718346498,-69.289863383,-97.710727117,3600.0
6.1001469719,20.078926273,-69.163804675,-125.4998828,3610.0
6.260170263,46.589485232,-69.509862946,-152.87072484,3620.0
6.1999893147,72.724649379,-69.52915223,171.70861439,3630.0
5.894575609,97.404610107,-70.262222455,130.073667,3640.0
5.4629477758,119.96134295,-71.533105841,85.612662228,3650.0
5.1257680228,140.81123847,-73.241692504,42.205090977,3660.0
5.0191527986,161.20690802,-73.255291939,12.509360801,3670.0
5.1428359202,-177.51958489,-71.628823782,-16.766902991,3680.0
5.3694294602,-154.79751623,-69.620600351,-51.061751298,3690.0
5.6205480423,-130.7868496,-68.628518504,-83.482167491,3700.0
5.8319295407,-106.37681792,-68.155611387,-117.03777882,3710.0
6.0011398586,-81.840674949,-68.264892739,-150.2533772,3720.0
6.108069607,-57.63469902,-68.935827038,176.84737514,3730.0
6.0874978769,-33.770493689,-70.036982247,134.75446676,3740.0
5.8830012565,-11.176807631,-74.170508847,93.80828076,3750.0
5.6805514736,9.8863997061,-78.340028319,74.353084557,3760.0
5.6959009269,30.493875757,-78.267170968,44.378674602,3770.0
5.9355843578,52.144078669,-77.709350585,-7.1845879656,3780.0
6.3006243095,75.769373663,-77.305586788,-51.601162114,3790.0
6.6854230891,101.33335526,-77.737330998,-79.438216057,3800.0
7.014896165,128.23268959,-76.068815007,-106.15288694,3810.0
7.2297722854,155.78208645,-75.343261446,-136.45218164,3820.0
7.2087523693,-177.25243713,-74.850645782,-158.66730261,3830.0
7.0141848441,-152.28939047,-73.976872955,169.51855445,3840.0
6.7186862059,-129.26854524,-76.134621022,131.12108964,3850.0
6.3081959904,-108.43192127,-77.974805711,106.18934593,3860.0
6.0514293838,-89.443047249,-77.823598191,67.911391058,3870.0
6.1092954029,-70.591216677,-78.041928108,11.050853215,3880.0
6.4408721659,-50.399858368,-77.468536933,-44.432551725,3890.0
6.922550552,-28.368568498,-76.973344896,-89.1314522,3900.0
7.5597934471,-4.7450220971,-76.97238761,-121.8682749,3910.0
8.3710919103,20.630022725,-76.866479364,-150.4226987,3920.0
9.2491377792,47.716922956,-77.304623327,-179.65919162,3930.0
9.9465585106,75.96291538,-78.314666714,156.6939118,3940.0
10.209078814,104.25994675,-80.877969018,131.46608348,3950.0
9.9515799614,130.93863269,-82.233362391,130.46242639,3960.0
9.3704642925,154.55437941,-79.791568672,105.57292399,3970.0
8.8292398345,175.79443786,-79.158754678,69.607613949,3980.0
8.581798223,-163.71561078,-76.934748483,30.19350626,3990.0
8.6883183029,-143.03102856,-74.588251547,-23.306594714,4000.0
9.1601960613,-120.94538154,-73.212470043,-76.895184667,4010.0
9.7834555061,-97.866998203,-73.489151788,-118.11601636,4020.0
10.583467353,-74.66322355,-73.765410392,-146.38093386,4030.0
11.512000081,-52.317719907,-73.829586984,-172.21758294,4040.0
12.476300291,-30.230980573,-73.063214558,157.76558296,4050.0
13.229535138,-7.6411262911,-75.615036062,124.87385935,4060.0
13.532921887,14.901188835,-79.191244563,108.35923321,4070.0
13.566680199,36.789581204,-81.590620317,109.13274433,4080.0
13.617053292,57.898498035,-81.933739933,111.59621657,4090.0
13.9951657,78.094073022,-80.070177931,90.901107305,4100.0
14.93995609,96.972147847,-79.609615843,45.059851955,4110.0
16.506234432,114.60505586,-80.993736092,-6.7002626541,4120.0
18.54911025,129.46019526,-82.33464199,-67.77305011,4130.0
20.502989194,138.56045588,-82.72812601,-99.809689435,4140.0
21.866729767,144.28280149,-77.481641509,-144.10962854,4150.0
22.669225206,153.62271618,-77.995652396,150.68956013,4160.0
23.685402817,175.72450124,-83.400330851,94.28057895,4170.0
23.948289004,-149.12734086,-90.44131585,-56.739608805,4180.0
22.003342311,-111.77248961,-81.85260393,-133.40509326,4190.0
19.339620913,-87.018971749,-77.689521594,-167.97350267,4200.0
17.151515833,-71.282103717,-74.675049715,164.63584123,4210.0
15.463378505,-58.883695403,-74.002041168,129.50779543,4220.0
14.006989084,-46.77799446,-74.32028529,99.028138652,4230.0
12.697726558,-33.057303581,-75.559396038,70.974973448,4240.0
11.601990817,-17.266387632,-77.754197464,43.844511362,4250.0
10.788588158,-0.042295856404,-78.646762336,8.2694352251,4260.0
10.358187912,17.706562437,-84.427962756,-57.173084107,4270.0
10.426053649,36.168828764,-88.263624684,-132.58412944,4280.0
10.978426713,57.020154434,-84.180635025,154.74567265,4290.0
11.669952199,81.59318973,-83.5016131,92.967377341,4300.0
12.057112095,109.17077084,-89.115188452,1.1290646052,4310.0
11.903118596,137.53551449,-84.713105332,-108.77484364,4320.0
11.307398259,165.5047279,-77.342867183,-166.45840332,4330.0
10.426831035,-168.18607145,-73.617590187,146.79069712,4340.0
9.5657562143,-143.47913807,-72.165721514,102.60879418,4350.0
8.8042315913,-119.77447549,-73.200366175,50.979249594,4360.0
8.1993758519,-97.16424119,-80.133274989,8.6190425375,4370.0
7.8141475969,-75.539877743,-80.87755863,68.776524125,4380.0
7.6778199498,-54.335751583,-75.619038786,24.185256466,4390.0
7.7125148496,-32.198440312,-75.375878105,-31.934625383,4400.0
7.6933285054,-9.4223396265,-74.629600146,-92.744849459,4410.0
7.6088213641,13.184366684,-73.461485779,-160.95253954,4420.0
7.5316580545,35.940337797,-72.435259847,142.79916214,4430.0
7.4759217489,59.2123409,-71.98089879,102.93649458,4440.0
7.4180426963,82.658129488,-72.084886387,70.147632553,4450.0
7.3169968406,106.90019515,-71.246414909,47.427978181,4460.0
7.1946307466,130.90585808,-70.102788718,14.925684787,4470.0
7.17177982,154.89925804,-71.78023191,-21.5961216,4480.0
7.2091967859,179.25273921,-72.659264681,-40.468683869,4490.0
7.247608736,-155.68129139,-72.04217142,-64.925300118,4500.0
7.1883462932,-130.26961674,-72.270028481,-98.301014412,4510.0
7.0063667759,-105.28284206,-72.280071059,-122.51097414,4520.0
6.7362327916,-80.930918169,-71.084346567,-156.83816917,4530.0
6.4140567292,-57.507036639,-70.277934871,171.83569741,4540.0
6.127382916,-34.942602882,-69.351288335,137.1249016,4550.0
5.9258499788,-12.865252801,-68.583784939,104.78933411,4560.0
5.7583951785,8.7957598878,-67.459363002,70.59906987,4570.0
5.6971245116,30.088856704,-67.817610407,31.944544656,4580.0
5.7187933513,51.427758436,-69.731639794,10.7962334,4590.0
5.8417890901,73.169687186,-68.661960084,-4.1755487813,4600.0
6.0513597639,96.026238653,-66.826299858,-28.280870664,4610.0
6.2535568396,119.22747206,-65.073795453,-58.444507599,4620.0
6.4737100817,143.4526396,-63.958354302,-94.39854325,4630.0
6.5932343448,168.88994113,-63.194430798,-131.35036446,4640.0
6.5781711801,-165.42108466,-62.537806436,-169.50346585,4650.0
6.4512490168,-139.97664752,-62.16991377,149.13263609,4660.0
6.2527602526,-115.16707074,-62.13031021,105.93851197,4670.0
6.0295827546,-91.075498597,-62.940900941,57.760356512,4680.0
5.8222749628,-67.646274617,-65.830382265,6.5690174428,4690.0
5.6652557893,-44.928009866,-72.006730844,-19.68629781,4700.0
5.571375826,-22.562741322,-72.425133548,-25.916655803,4710.0
5.5009981215,-0.34537069534,-72.633738556,-58.651000273,4720.0
5.442329854,21.768346432,-73.295538198,-95.455560078,4730.0
5.3885761882,43.597517137,-74.093333526,-132.84831597,4740.0
5.4470281665,65.181791574,-75.076325296,-176.02453367,4750.0
5.5381530094,87.539857874,-76.455041978,146.81542295,4760.0
5.6181458654,110.27046476,-76.573730284,123.06649592,4770.0
5.6967343447,133.00395496,-75.633408346,89.789587427,4780.0
5.8094560561,156.31526564,-77.875613101,41.547466511,4790.0
5.939696309,-179.89372403,-85.787464966,51.998398612,4800.0
6.0462808234,-155.73524237,-77.811127719,56.248522904,4810.0
6.1571245039,-131.16454829,-75.721152468,13.811245486,4820.0
6.2399042983,-106.20150419,-75.900028452,-31.354471345,4830.0
6.2170795245,-80.975674835,-77.349539263,-86.654297824,4840.0
6.0759099962,-56.045168306,-77.75440259,-150.91340705,4850.0
5.8574207316,-31.984305352,-76.068626254,143.33588618,4860.0
5.6001519502,-8.6229274577,-74.59189,91.822119293,4870.0
5.3235245509,13.641726116,-71.963634699,55.737464048,4880.0
5.1272156201,34.518572187,-71.528493484,6.7667455688,4890.0
5.1703141799,54.893190861,-74.823596903,-30.624385652,4900.0
5.449676554,76.43560319,-76.032089783,-24.402231535,4910.0
5.580829893,98.783987818,-73.619068244,-50.22687388,4920.0
5.8331839623,121.69064592,-74.00827511,-83.340329775,4930.0
6.0571458532,145.16592731,-75.214439845,-108.68673223,4940.0
6.2113776342,169.33200711,-74.522785111,-136.3586407,4950.0
6.2684010869,-165.81468739,-73.576491858,-174.6409532,4960.0
6.1929627109,-140.66609632,-73.288930644,139.67062386,4970.0
5.966232007,-116.1929458,-72.14256741,104.57585347,4980.0
5.7382221556,-93.045431812,-70.093540225,62.782984543,4990.0
5.7014050686,-70.528409441,-70.212594235,16.915367406,5000.0
5.8118778052,-47.731147355,-72.071698343,-15.123758238,5010.0
5.9502344188,-24.554881829,-73.701850267,-18.465286828,5020.0
6.1213922305,-1.0707514846,-70.309508623,-24.318930736,5030.0
6.1630261608,22.692925538,-67.118042507,-54.253476237,5040.0
6.1144375075,46.323043441,-65.362577829,-90.523144883,5050.0
6.0398710581,69.977674377,-64.726595268,-127.6301176,5060.0
5.7819103154,93.230432591,-64.346822973,-165.56810258,5070.0
5.4217342463,115.14769712,-64.358788178,153.10344676,5080.0
5.3005590521,135.20317709,-65.07394542,110.25713999,5090.0
5.60082933,155.57585803,-65.888391869,67.243117466,5100.0
6.1771495136,178.03466185,-67.982807621,23.923840861,5110.0
6.7925606889,-157.91657676,-71.475340852,1.4613141357,5120.0
7.3449154311,-132.7242927,-70.825776322,-2.3814051287,5130.0
7.734781992,-106.13843632,-68.552668061,-26.341559907,5140.0
7.7484017691,-78.234133067,-66.523485844,-55.56424053,5150.0
7.2575320045,-50.378643057,-65.672381674,-89.263992285,5160.0
6.2833086682,-24.849965453,-65.336255728,-123.92537274,5170.0
5.2429172817,-4.2976538093,-66.220906983,-158.24070303,5180.0
4.8982352063,13.630307457,-67.740623206,178.34183422,5190.0
5.2507051957,33.413560002,-67.544422726,153.3583424,5200.0
5.9138180223,55.430351356,-68.415311167,121.33285639,5210.0
6.7558481621,78.187145355,-71.134994241,99.436435937,5220.0
7.6416423784,101.72125287,-70.551562047,93.251344758,5230.0
8.5045263305,126.21242743,-67.488910863,67.862623353,5240.0
9.0848488053,153.58596426,-65.848135366,27.770314026,5250.0
8.879579428,-175.50413151,-65.570499344,-13.880483194,5260.0
7.1652400108,-146.52827158,-66.032004163,-50.493595669,5270.0
5.1542398517,-129.71014347,-66.508848829,-86.147900896,5280.0
