S11m,S11p,S21m,S21p,Frequency
5.3666126352,-57.416139154,-51.182906206,-20.117423531,2000.0
5.6510354293,-34.414230255,-51.775534615,-28.588817014,2010.0
5.813042975,-9.9008457328,-51.367146654,-35.102010622,2020.0
5.8068062735,15.646538724,-50.675577474,-44.83956996,2030.0
5.6341833906,41.609295548,-50.268454189,-52.985096084,2040.0
5.3296016009,67.271065364,-47.313610665,-65.863028912,2050.0
4.9849339532,92.174049169,-41.129864049,-99.044470029,2060.0
4.6804106847,115.8598005,-43.568209857,147.69718282,2070.0
4.5043711783,138.24330754,-56.865252885,115.0682758,2080.0
4.5107379157,159.7805851,-66.346782506,-135.32554523,2090.0
4.6826945664,-178.58823185,-56.437805849,-132.45217951,2100.0
4.9102324333,-156.17613654,-55.760743347,-142.28156327,2110.0
5.0771046491,-132.84782401,-55.369437487,-136.65140431,2120.0
5.1420384052,-108.90022743,-53.601747262,-141.70880021,2130.0
5.1016864938,-84.574175962,-53.15367608,-159.46200868,2140.0
4.9691877049,-60.083189646,-55.575686416,-129.20306231,2150.0
4.7922752787,-35.801226752,-51.729958027,153.92933056,2160.0
4.6289299589,-11.944672304,-54.422800242,145.60264357,2170.0
4.5180554797,11.451433028,-55.627305091,138.77316992,2180.0
4.4913119818,34.319976238,-56.116353244,134.16058549,2190.0
4.5797334242,57.024118665,-56.985348661,126.94634474,2200.0
4.7238512555,80.24501299,-59.570223745,128.45840933,2210.0
4.8151715094,103.85932265,-61.857024459,164.07907564,2220.0
4.866597564,127.73266917,-56.226919112,-160.04402952,2230.0
4.8546388877,151.8088329,-46.711720393,-134.87485612,2240.0
4.780176381,175.83610506,-43.72987388,-3.6305984674,2250.0
4.6696472344,-160.4885854,-51.91025201,16.353390368,2260.0
4.5714067867,-137.24361086,-55.094145559,16.924075804,2270.0
4.5060954975,-114.41930941,-56.492738434,12.533011968,2280.0
4.4921198657,-91.899117513,-57.535852372,2.4619440416,2290.0
4.547546233,-69.367825862,-58.329494525,-4.0278509575,2300.0
4.6471689938,-46.444712254,-58.936874499,-3.0943090432,2310.0
4.7352462466,-22.944260646,-58.239639614,15.177595843,2320.0
4.7770139264,0.79129249729,-52.978578895,38.023406631,2330.0
4.7833098735,24.742823086,-40.593486714,103.00051282,2340.0
4.7393535367,48.80627525,-49.763964657,-158.42720396,2350.0
4.6609631289,72.414044166,-55.681408499,-143.52424769,2360.0
4.6220687888,95.74361172,-58.437300641,-134.41678746,2370.0
4.621373899,118.79114326,-60.09573323,-129.9774147,2380.0
4.6686038931,141.77754652,-61.137949096,-128.30270174,2390.0
4.7575474205,164.77969711,-61.248232412,-133.50886201,2400.0
4.884315015,-172.03866846,-61.165620418,-143.43069167,2410.0
4.9884932922,-148.46982274,-61.909038295,-147.61147423,2420.0
5.0533748984,-124.68176716,-59.885750357,-123.39288749,2430.0
5.0911149366,-100.77011143,-43.564272485,-91.169750629,2440.0
5.0881584793,-76.676231934,-51.922687299,81.035955639,2450.0
5.0277072069,-52.646686776,-57.418232462,75.766550458,2460.0
4.9420157239,-29.052006596,-60.580850362,67.538409494,2470.0
4.9004259808,-5.9362163391,-63.901207503,60.177636864,2480.0
4.919101171,16.990687288,-66.200987937,62.304828946,2490.0
4.983695534,39.828071613,-66.744405795,62.996890973,2500.0
5.1005620815,62.737514103,-65.613922888,61.503941246,2510.0
5.2425467263,86.013046963,-62.974841342,62.085264367,2520.0
5.3544916528,109.64657488,-58.30063848,67.419822999,2530.0
5.4478650316,133.40468557,-47.666945342,68.254652732,2540.0
5.520540941,157.29410781,-48.734731494,-105.88555317,2550.0
5.5533696931,-178.77564477,-57.602277321,-107.82855235,2560.0
5.5745581428,-155.03252078,-61.685893196,-107.38708678,2570.0
5.6283072584,-131.54225511,-63.822824875,-108.78574521,2580.0
5.7293316288,-108.10892243,-64.968332302,-109.50671908,2590.0
5.8719300516,-84.560966117,-64.638752199,-105.44748999,2600.0
6.0448941443,-60.807372612,-62.37111006,-105.01230717,2610.0
6.2166001383,-36.701513547,-58.13662447,-108.72497497,2620.0
6.3560933181,-12.294904848,-52.92582097,-114.4683633,2630.0
6.4336241467,11.996576133,-45.145887987,-122.83481326,2640.0
6.4806648039,36.291170461,-44.686405737,113.44293278,2650.0
6.4960844268,60.372603002,-53.787880152,110.68516371,2660.0
6.4772897685,83.913124136,-58.112609835,106.58259603,2670.0
6.5251376007,106.73228823,-61.497556374,101.03882664,2680.0
6.666523809,129.26219055,-64.522759233,94.490459401,2690.0
6.9077391041,151.71343811,-65.997465402,84.913704523,2700.0
7.2676698985,174.43686206,-66.423166824,81.121967741,2710.0
7.7243084543,-162.10450849,-64.201518838,83.064274459,2720.0
8.1917013052,-137.72967516,-60.386664748,85.411954773,2730.0
8.6019044228,-112.68430425,-53.931880484,85.360624247,2740.0
8.9354604047,-87.245200927,-51.52290049,51.138493078,2750.0
9.1558148102,-61.706308398,-53.898753588,44.005784834,2760.0
9.2658289231,-36.915933941,-54.862599578,48.848992175,2770.0
9.4250349344,-13.384385412,-56.40558295,47.101141439,2780.0
9.7279846309,9.6887069203,-59.568340564,51.306445152,2790.0
10.128665368,32.593246713,-60.379989081,53.544020953,2800.0
10.664816917,55.372119082,-59.852836169,4.2531297667,2810.0
11.393362023,78.765187058,-56.693663083,-60.049810684,2820.0
12.183005472,102.82541277,-51.7158788,-104.624177,2830.0
13.03032278,127.44002716,-48.480387917,-131.4586613,2840.0
13.851621603,152.58065832,-45.44928915,-145.82917775,2850.0
14.541253648,177.47227793,-43.641612147,-159.01303286,2860.0
15.141286008,-159.27581636,-42.526898196,-171.84455793,2870.0
15.873231169,-138.74912653,-40.980500654,168.1520796,2880.0
16.949093567,-120.92646439,-40.557014467,139.27426857,2890.0
18.437631395,-105.16824211,-41.341455686,111.87881654,2900.0
20.371529656,-91.625017476,-41.06258909,90.199190116,2910.0
22.774282528,-82.208621159,-40.086007425,72.426128589,2920.0
25.489532012,-77.95911105,-38.233938329,59.551444419,2930.0
27.935841777,-81.712269309,-35.140197683,37.059410736,2940.0
28.855356688,-87.090377966,-31.454124692,12.505309423,2950.0
29.031183685,-83.875485304,-27.449442119,-5.695512757,2960.0
28.398284932,-60.027677038,-24.458210668,-12.254624137,2970.0
25.742742403,-22.310670326,-23.318601645,-27.628940551,2980.0
21.827059312,7.8767578608,-28.227862962,-76.272347193,2990.0
18.391544454,33.232375747,-38.710589314,-97.978622312,3000.0
16.380180511,52.405462744,-46.551849498,-102.01980545,3010.0
14.624280933,72.338036897,-51.199599638,-98.429795542,3020.0
13.360128771,91.387547617,-53.484636457,-99.77928475,3030.0
12.450307852,110.53278274,-54.928572029,-105.19090171,3040.0
11.799924198,130.25738227,-55.136714103,-109.90052328,3050.0
11.422968276,150.51419603,-53.885030846,-109.73445624,3060.0
11.245624385,172.16334165,-52.052704341,-103.52001936,3070.0
11.163467069,-164.18210933,-47.657132799,-99.532828922,3080.0
10.977430127,-139.25714298,-42.293061419,-166.10335893,3090.0
10.633076779,-113.89963976,-49.060384312,156.01494102,3100.0
10.26978041,-88.948827103,-53.711388343,143.1039513,3110.0
9.8265101608,-64.409617618,-57.002262764,139.37669872,3120.0
9.4228872321,-40.893451944,-59.052389972,130.03017406,3130.0
9.0918716028,-17.29717144,-60.229838849,124.92733807,3140.0
8.848955039,6.3257002512,-60.56543633,117.31184643,3150.0
8.730462687,30.506049655,-59.964317942,111.88058812,3160.0
8.6590345977,55.83173664,-58.747442734,121.19842605,3170.0
8.4503642949,81.986540644,-55.948501022,130.92433927,3180.0
8.0676001903,107.78337658,-48.281170431,106.98302708,3190.0
7.6268299262,132.40406386,-56.333078644,36.327675715,3200.0
7.2142210365,155.89611585,-60.256881655,45.347380832,3210.0
6.8756727461,178.59430891,-62.001711421,52.234645211,3220.0
6.562809414,-159.93925096,-62.501710878,53.369115491,3230.0
6.3853832469,-138.97206486,-62.270323368,57.481103383,3240.0
6.2973769363,-118.00494119,-60.891527491,62.483684485,3250.0
6.3322253824,-96.23111822,-58.98759257,61.537697083,3260.0
6.4959562513,-73.547432498,-56.950402992,62.052226607,3270.0
6.6821407144,-49.062318443,-53.433203679,64.669753562,3280.0
6.7906956206,-23.187951559,-47.670863759,58.560068344,3290.0
6.7814571158,3.2832060837,-46.338508821,-70.904604933,3300.0
6.6552142887,29.531553045,-61.500832322,-65.100906514,3310.0
6.4205265229,54.996109453,-65.275824192,-33.865004445,3320.0
6.12470662,79.219434649,-66.478613889,-20.038063206,3330.0
5.8063326074,102.02900008,-67.26453868,-16.121918985,3340.0
5.5208740598,123.79063466,-66.583683963,-12.836093554,3350.0
5.3587806501,145.1446756,-65.438453657,-10.313257389,3360.0
5.3169367765,166.75544483,-65.847759976,-6.2532543314,3370.0
5.4161267545,-170.56926572,-64.588619853,3.1951966014,3380.0
5.5090109048,-146.85866586,-61.31753739,12.928228607,3390.0
5.5294624951,-123.05586163,-48.495094432,-19.482916327,3400.0
5.5579877705,-99.585303221,-69.305542996,-178.67100485,3410.0
5.5509203404,-76.076629881,-76.91202906,108.12905869,3420.0
5.5501918064,-52.834468236,-77.301678437,74.642310853,3430.0
5.4990155799,-29.679256397,-77.097029342,79.312947684,3440.0
5.4168669003,-6.7642493523,-76.757597852,81.700692627,3450.0
5.3304928703,15.866317471,-79.068292596,87.042847838,3460.0
5.3405338452,38.81027655,-82.775922514,113.28361696,3470.0
5.4908515331,62.958210911,-94.31899824,154.65564288,3480.0
5.6451021492,88.4179129,-75.289030499,-39.991640923,3490.0
5.6618239737,114.20346559,-60.305512106,-39.270054151,3500.0
5.5646801298,139.29974765,-56.37233873,115.31265406,3510.0
5.3830903212,163.38543874,-66.775106919,101.75094577,3520.0
5.1147127344,-173.81690991,-70.633272223,90.4540446,3530.0
4.8326180034,-152.67801217,-71.565933565,85.522960486,3540.0
4.631876327,-132.47031526,-70.842024173,82.55684779,3550.0
4.5314237741,-112.51844298,-69.141650294,92.956206075,3560.0
4.6228748089,-92.261635066,-65.536990695,107.25745653,3570.0
4.8894942111,-70.761337904,-61.450044718,121.38177092,3580.0
5.2630056588,-47.181405695,-56.115478097,140.23726772,3590.0
5.6013293944,-21.928844789,-47.500770612,174.61996105,3600.0
5.8452765486,4.1418726854,-50.043413943,-52.242147987,3610.0
5.9792901173,30.498075332,-61.550127298,-0.022894386791,3620.0
5.9253210673,56.54375619,-63.698646436,45.317032314,3630.0
5.6490022718,81.32924227,-63.618112334,62.782221507,3640.0
5.2686602167,104.17664181,-62.870480403,69.912498992,3650.0
4.9826069565,125.53590545,-61.440067445,65.56304958,3660.0
4.8985575911,146.57254017,-59.346953691,58.292904239,3670.0
5.0050281832,168.41354937,-54.398197971,58.754123672,3680.0
5.1827829568,-168.35100505,-43.090775303,41.778897954,3690.0
5.3236031292,-144.27440607,-45.667301221,-100.35213765,3700.0
5.4411941812,-120.01299368,-53.309722655,-114.65217539,3710.0
5.5171075479,-95.89692804,-58.764213711,-124.78665775,3720.0
5.5145585259,-72.182131224,-63.927302246,-94.906697924,3730.0
5.4372275335,-49.212639473,-59.981874479,-62.598625059,3740.0
5.2567415155,-27.419337297,-54.315466751,-48.547510171,3750.0
5.1292547565,-6.7413534551,-38.360941002,-22.667390727,3760.0
5.1911844924,13.826272829,-53.254857589,159.77928628,3770.0
5.4420876023,35.533357382,-59.608180892,159.14520269,3780.0
5.7877081483,59.170656707,-62.579146289,162.89601528,3790.0
6.1179643917,84.716948794,-64.284528258,176.02485384,3800.0
6.3620390864,111.53026869,-64.090189192,-173.93428592,3810.0
6.4820626088,138.75136181,-62.544244211,-175.22740546,3820.0
6.4135144866,165.46731145,-62.3718526,165.5336342,3830.0
6.1770696569,-169.54455344,-64.269494684,166.28612992,3840.0
5.8615668458,-146.57926559,-60.49116567,147.35582183,3850.0
5.5083967452,-125.65582794,-65.310202782,111.40819891,3860.0
5.3137071279,-106.17431403,-69.982923786,87.79555719,3870.0
5.3436369595,-86.731785379,-72.240358999,64.856648982,3880.0
5.5673582428,-66.234166611,-72.687742554,47.765667261,3890.0
5.8937898565,-44.253011295,-72.279846357,45.227690219,3900.0
6.299421416,-21.027822092,-72.151373811,56.096917573,3910.0
6.7975606531,3.543455098,-69.959792353,67.632202658,3920.0
7.3129839853,29.372517942,-68.837649373,85.89438742,3930.0
7.6957127373,55.841594743,-62.488331854,88.02254677,3940.0
7.8323998795,82.124564046,-60.325165804,48.505574818,3950.0
7.7059241193,107.44191035,-65.965978953,30.876788991,3960.0
7.4081215396,130.99069423,-71.406868213,32.378610272,3970.0
7.1398016582,153.22679358,-74.995527635,30.5002689,3980.0
7.0449555191,175.29303401,-75.255724497,27.736999555,3990.0
7.0770118933,-162.24245736,-72.99068355,12.215264116,4000.0
7.2981985159,-139.03464338,-70.816759717,0.28588769193,4010.0
7.5843232416,-115.16771894,-69.226759085,0.062822346924,4020.0
7.9266318141,-91.175035605,-66.786682533,25.338418754,4030.0
8.2670240607,-67.510929116,-59.332390941,43.129971275,4040.0
8.5973795354,-44.512103043,-52.926972385,-19.273606221,4050.0
8.8153007897,-21.920547924,-58.834522231,-53.805957826,4060.0
8.8389789581,-0.13977875229,-66.769421159,-48.866466583,4070.0
8.8097562646,20.582523748,-73.408361116,-17.946231714,4080.0
8.9391926171,41.093397483,-76.676601458,4.7934941456,4090.0
9.3366631106,62.535774442,-75.444773615,23.989136226,4100.0
10.006853536,84.925769115,-74.98916196,7.8035191545,4110.0
11.010001493,108.34741403,-77.662636012,-16.224600884,4120.0
12.309298757,133.08925703,-80.891005058,-50.337310672,4130.0
13.761279125,159.06142695,-73.619071522,66.583752312,4140.0
15.143709759,-173.18751349,-50.550472826,-22.534777091,4150.0
15.967702523,-143.84205934,-52.182169263,-100.50396081,4160.0
15.723035836,-114.57281311,-58.485314805,-113.04878036,4170.0
14.451304299,-90.477855088,-68.956513902,-73.207975042,4180.0
13.250713472,-71.776308376,-73.996889366,-4.8673468814,4190.0
12.559038791,-56.073893044,-71.801313809,21.473678796,4200.0
12.427615127,-41.908498931,-68.344095914,36.091305183,4210.0
12.795230325,-28.858773546,-65.961735448,25.176675459,4220.0
13.48108501,-17.539961648,-63.353588483,15.729522231,4230.0
14.170803051,-8.3653934315,-57.606324564,2.2301072856,4240.0
14.57931439,-0.74234008956,-49.800109094,-53.637931503,4250.0
14.733243717,7.4123388138,-54.984063969,-149.89214736,4260.0
15.090534678,17.949301072,-60.371991537,154.28159283,4270.0
15.938700184,32.915928493,-60.470282728,115.61062437,4280.0
17.281982829,54.995482429,-59.141052536,94.805535503,4290.0
18.239786574,85.043776282,-59.341021744,83.271807653,4300.0
18.200448463,118.55969848,-63.211341571,76.328441827,4310.0
16.989262926,147.79420261,-65.316377383,40.508719174,4320.0
15.500298087,171.48776367,-61.789501201,-16.397448905,4330.0
14.022723275,-167.13756231,-56.375476951,-59.08478618,4340.0
12.633145761,-146.58591613,-51.798755742,-111.9920757,4350.0
11.495363757,-126.32009112,-56.03497311,-175.40450017,4360.0
10.641932192,-106.25390554,-61.388645176,171.06848382,4370.0
10.144690027,-86.276072876,-62.746288466,166.57219776,4380.0
10.014534502,-65.364383413,-63.283863624,157.27138965,4390.0
9.9374164261,-42.204203707,-64.147839668,148.85209299,4400.0
9.6575412167,-19.443141719,-62.078938355,124.43125235,4410.0
9.3281773987,2.6750953445,-57.96059655,93.621032019,4420.0
9.034839719,24.409709027,-55.659446787,62.204362755,4430.0
8.7966481502,46.517946038,-56.883932095,25.768281066,4440.0
8.5542292042,68.874185115,-63.362645969,2.1521488503,4450.0
8.4123677562,91.511730139,-71.401976587,32.095431467,4460.0
8.3273706378,114.90031972,-66.521335774,69.072654368,4470.0
8.3299958883,138.53084657,-63.513341377,60.095379746,4480.0
8.4641308477,162.884694,-61.118096343,54.71200609,4490.0
8.6123550619,-170.99442973,-58.148750045,48.016842395,4500.0
8.52347825,-144.22037108,-55.067877597,12.046005196,4510.0
8.2072137564,-118.15186249,-57.69461235,-41.958967308,4520.0
7.7813768172,-92.914593505,-62.371245148,-60.44921939,4530.0
7.2962026628,-68.818673883,-65.62416935,-62.256545586,4540.0
6.816048733,-46.021260509,-69.349431645,-60.760213791,4550.0
6.4298141794,-24.266076218,-75.167607149,-32.621050055,4560.0
6.1526686572,-3.1066671878,-72.417687207,30.46126659,4570.0
6.0001106929,17.707792844,-67.14843447,42.992864599,4580.0
5.9840583161,38.493329632,-62.571836745,41.431811335,4590.0
6.1065653062,59.686225063,-56.899692486,40.635509954,4600.0
6.3296921686,81.764294933,-47.440450616,-12.074562639,4610.0
6.5675768449,105.11116177,-56.059579533,-94.651043888,4620.0
6.7404354956,129.29440251,-61.195300779,-109.71539889,4630.0
6.8791271961,154.49328792,-63.999354835,-110.63989297,4640.0
6.8826640533,-179.74954883,-66.143693918,-103.05300256,4650.0
6.7659377757,-153.99343262,-67.927681253,-95.222125387,4660.0
6.5760055539,-128.54875143,-68.679161936,-81.829869595,4670.0
6.338156263,-103.81812885,-67.692521971,-63.958864742,4680.0
6.0860309977,-79.887734986,-65.15385431,-47.602403628,4690.0
5.8766164556,-56.751863095,-60.494486029,-34.350382469,4700.0
5.731795902,-34.206409282,-45.084159006,-30.492993769,4710.0
5.6129262794,-11.945162925,-62.562031307,169.91070286,4720.0
5.5221299935,10.007594682,-72.038222056,170.49940393,4730.0
5.4679301609,31.921718144,-76.035396333,170.89893286,4740.0
5.3924393884,53.592058001,-78.239006516,161.771298,4750.0
5.4335805813,75.184163477,-80.650582509,146.77855665,4760.0
5.4620238841,97.199048725,-82.137249769,137.63828972,4770.0
5.5421642293,119.39433032,-84.794490789,134.23818381,4780.0
5.652661271,142.07079546,-92.796142044,104.52332958,4790.0
5.8323957613,165.33546388,-76.987439302,-28.553252557,4800.0
6.0389416973,-170.64125531,-59.550258922,-2.5494510688,4810.0
6.1898044196,-145.71199175,-64.113956576,149.47913687,4820.0
6.2699650161,-120.08850565,-71.548710333,159.34864639,4830.0
6.2379881819,-94.233072044,-76.376014742,152.5822983,4840.0
6.055616597,-68.877097923,-78.925266085,130.40535105,4850.0
5.7939559777,-44.57805874,-81.902121539,108.60620016,4860.0
5.5054558873,-21.142235982,-82.441418037,94.693247859,4870.0
5.2149148493,1.2114557211,-78.034364829,93.057657923,4880.0
5.026441405,22.308060636,-73.348981272,91.555652529,4890.0
4.9938572751,43.029964659,-69.342041897,100.97594054,4900.0
5.109950298,64.155325302,-61.715743162,122.37114464,4910.0
5.2751380257,85.929253427,-64.045957913,-55.466408094,4920.0
5.4987808784,108.36714704,-72.282812379,-18.073240773,4930.0
5.6771799252,131.18787527,-74.307000963,2.7385203353,4940.0
5.8212835964,154.97051639,-74.550955173,12.729669679,4950.0
5.8831920278,179.4684002,-73.442467917,24.896452047,4960.0
5.8182010374,-155.79116726,-72.159658522,27.804699982,4970.0
5.6411610952,-131.50122519,-70.719174066,34.029133135,4980.0
5.4912010022,-108.15600244,-67.492566484,35.576990114,4990.0
5.515490373,-85.05806881,-63.606954159,36.503059084,5000.0
5.6618707798,-61.226721442,-56.768816829,39.994000512,5010.0
5.7711538901,-36.868562083,-47.62859981,-97.487792947,5020.0
5.7801055735,-12.620880171,-63.434690865,-110.20793614,5030.0
5.7268590134,11.208588399,-69.29404991,-89.87032072,5040.0
5.5309341569,34.715076913,-68.025238331,-72.393744487,5050.0
5.3355826736,57.294963332,-64.647407649,-59.917499982,5060.0
5.0367112839,79.410271668,-62.196369003,-44.045646592,5070.0
4.7983957242,100.20758705,-60.76588335,-30.606678582,5080.0
4.7318939531,120.07475646,-59.703809972,-28.669475845,5090.0
4.9921560565,140.65029278,-58.053487104,-28.324533988,5100.0
5.4351327628,162.7665818,-54.964970791,-45.922420582,5110.0
5.8859898243,-173.75479255,-50.508961048,-99.954731953,5120.0
6.2804799452,-149.18651514,-56.813749324,-170.44936488,5130.0
6.5404363696,-123.6262266,-65.819742318,-176.1494147,5140.0
6.5216003135,-97.231595901,-67.863837492,-148.16140527,5150.0
6.1445557174,-71.051964984,-63.578795928,-133.0236556,5160.0
5.4543892252,-46.803301439,-59.827165985,-121.7192485,5170.0
4.8228789632,-25.664265189,-59.637490833,-108.05696724,5180.0
4.6797924567,-5.7689108085,-61.004687055,-92.971260276,5190.0
4.9935639003,15.492522268,-59.197921185,-92.85134576,5200.0
5.4068209871,38.756017291,-58.100828039,-92.053143531,5210.0
5.8460086781,62.876705442,-57.848363629,-99.268567073,5220.0
6.2664663219,87.170805306,-56.205041515,-115.72360058,5230.0
6.569676631,111.71198022,-56.76740703,-143.60166854,5240.0
6.5985805929,136.72999741,-58.844943169,-154.94937197,5250.0
6.2402657372,161.7114418,-57.314684122,-162.22409781,5260.0
5.3762089799,-175.38591787,-56.492644046,-162.39787191,5270.0
4.5573683752,-157.26166186,-58.977595278,-152.55367803,5280.0
